# MHz           S          MA           R         50
!Freq             MagS11           AngS11           MagS21           AngS21           MagS12           AngS12           MagS22           AngS22
 1                0.000801575729   8.09818753       0.999206424     -0.00647485766    0.999206424     -0.00647485766    0.000801575729   8.09818753      
 1.01             0.00080220013    8.17330324       0.999205955     -0.00653960316    0.999205955     -0.00653960316    0.00080220013    8.17330324      
 1.0201           0.000802829847   8.24907534       0.999205483     -0.00660499604    0.999205483     -0.00660499604    0.000802829847   8.24907535      
 1.030301         0.000803464948   8.32550866       0.999205009     -0.00667104287    0.999205009     -0.00667104287    0.000803464948   8.32550866      
 1.04060401       0.000804105502   8.40260823       0.999204533     -0.0067377501     0.999204533     -0.0067377501     0.000804105502   8.40260823      
 1.05101005       0.000804751578   8.48037901       0.999204054     -0.00680512433    0.999204054     -0.00680512433    0.000804751578   8.48037901      
 1.06152015       0.000805403249   8.55882594       0.999203573     -0.00687317226    0.999203573     -0.00687317226    0.000805403249   8.55882594      
 1.07213535       0.000806060584   8.63795401       0.99920309      -0.00694190063    0.99920309      -0.00694190063    0.000806060584   8.63795401      
 1.08285671       0.000806723659   8.71776824       0.999202604     -0.00701131624    0.999202604     -0.00701131624    0.000806723659   8.71776824      
 1.09368527       0.000807392547   8.79827371       0.999202116     -0.00708142591    0.999202116     -0.00708142591    0.000807392547   8.79827371      
 1.10462213       0.000808067325   8.87947539       0.999201625     -0.00715223664    0.999201625     -0.00715223664    0.000808067325   8.87947539      
 1.11566835       0.000808748067   8.96137834       0.999201132     -0.00722375545    0.999201132     -0.00722375545    0.000808748067   8.96137835      
 1.12682503       0.000809434855   9.04398763       0.999200636     -0.0072959894     0.999200636     -0.0072959894     0.000809434855   9.04398763      
 1.13809328       0.000810127765   9.12730839       0.999200138     -0.00736894562    0.999200138     -0.00736894561    0.000810127765   9.12730839      
 1.14947421       0.000810826879   9.21134566       0.999199637     -0.00744263137    0.999199637     -0.00744263137    0.000810826879   9.21134566      
 1.16096896       0.000811532279   9.29610462       0.999199134     -0.0075170539     0.999199134     -0.0075170539     0.000811532279   9.29610462      
 1.17257864       0.000812244048   9.38159036       0.999198629     -0.00759222059    0.999198629     -0.00759222059    0.000812244048   9.38159036      
 1.18430443       0.000812962271   9.46780804       0.999198121     -0.00766813887    0.999198121     -0.00766813887    0.000812962271   9.46780804      
 1.19614748       0.000813687033   9.55476273       0.99919761      -0.00774481632    0.99919761      -0.00774481632    0.000813687033   9.55476273      
 1.20810895       0.000814418421   9.64245965       0.999197097     -0.00782226049    0.999197097     -0.00782226049    0.000814418421   9.64245965      
 1.22019004       0.000815156526   9.73090398       0.999196581     -0.007900479      0.999196581     -0.007900479      0.000815156526   9.73090398      
 1.23239194       0.000815901435   9.82010091       0.999196063     -0.00797947962    0.999196063     -0.00797947962    0.000815901435   9.82010091      
 1.24471586       0.000816653242   9.91005552       0.999195542     -0.00805927024    0.999195542     -0.00805927024    0.000816653242   9.91005552      
 1.25716302       0.000817412038   10.0007731       0.999195018     -0.00813985866    0.999195018     -0.00813985867    0.000817412038   10.0007731      
 1.26973465       0.000818177919   10.0922588       0.999194492     -0.00822125292    0.999194492     -0.00822125292    0.000818177919   10.0922588      
 1.282432         0.000818950981   10.1845178       0.999193963     -0.00830346108    0.999193963     -0.00830346108    0.000818950981   10.1845178      
 1.29525631       0.00081973132    10.2775555       0.999193432     -0.00838649123    0.999193432     -0.00838649123    0.00081973132    10.2775555      
 1.30820888       0.000820519038   10.3713768       0.999192898     -0.00847035162    0.999192898     -0.00847035162    0.000820519038   10.3713768      
 1.32129097       0.000821314233   10.4659872       0.999192361     -0.00855505051    0.999192361     -0.00855505051    0.000821314233   10.4659872      
 1.33450388       0.000822117008   10.5613917       0.999191822     -0.00864059637    0.999191822     -0.00864059637    0.000822117008   10.5613917      
 1.34784892       0.000822927468   10.6575957       0.99919128      -0.00872699761    0.99919128      -0.00872699761    0.000822927468   10.6575957      
 1.3613274        0.000823745717   10.7546043       0.999190735     -0.0088142628     0.999190735     -0.0088142628     0.000823745718   10.7546043      
 1.37494068       0.000824571865   10.8524228       0.999190187     -0.00890240053    0.999190187     -0.00890240053    0.000824571865   10.8524228      
 1.38869009       0.000825406019   10.9510564       0.999189637     -0.00899141957    0.999189637     -0.00899141957    0.000825406019   10.9510564      
 1.40257699       0.00082624829    11.0505102       0.999189084     -0.00908132875    0.999189084     -0.00908132875    0.00082624829    11.0505102      
 1.41660276       0.00082709879    11.1507896       0.999188528     -0.00917213695    0.999188528     -0.00917213695    0.00082709879    11.1507896      
 1.43076878       0.000827957636   11.2518996       0.99918797      -0.00926385313    0.99918797      -0.00926385313    0.000827957636   11.2518996      
 1.44507647       0.000828824942   11.3538456       0.999187408     -0.00935648641    0.999187408     -0.00935648641    0.000828824942   11.3538456      
 1.45952724       0.000829700826   11.4566327       0.999186844     -0.00945004594    0.999186844     -0.00945004594    0.000829700826   11.4566327      
 1.47412251       0.000830585409   11.5602662       0.999186277     -0.00954454098    0.999186277     -0.00954454098    0.000830585409   11.5602662      
 1.48886373       0.000831478812   11.664751        0.999185708     -0.00963998091    0.999185708     -0.00963998091    0.000831478812   11.664751       
 1.50375237       0.00083238116    11.7700926       0.999185135     -0.00973637512    0.999185135     -0.00973637512    0.00083238116    11.7700926      
 1.51878989       0.000833292578   11.8762959       0.999184559     -0.00983373323    0.999184559     -0.00983373323    0.000833292578   11.8762959      
 1.53397779       0.000834213194   11.9833662       0.999183981     -0.00993206482    0.999183981     -0.00993206482    0.000834213194   11.9833662      
 1.54931757       0.000835143138   12.0913086       0.9991834       -0.0100313796     0.9991834       -0.0100313796     0.000835143138   12.0913086      
 1.56481075       0.000836082543   12.2001281       0.999182816     -0.0101316875     0.999182816     -0.0101316875     0.000836082543   12.2001281      
 1.58045885       0.000837031541   12.30983         0.999182229     -0.0102329984     0.999182229     -0.0102329984     0.000837031541   12.30983        
 1.59626344       0.000837990269   12.4204192       0.999181639     -0.0103353223     0.999181639     -0.0103353223     0.000837990269   12.4204192      
 1.61222608       0.000838958865   12.5319008       0.999181046     -0.0104386693     0.999181046     -0.0104386693     0.000838958865   12.5319008      
 1.62834834       0.000839937471   12.6442798       0.99918045      -0.0105430497     0.99918045      -0.0105430497     0.000839937471   12.6442798      
 1.64463182       0.000840926228   12.7575614       0.999179851     -0.0106484738     0.999179851     -0.0106484738     0.000840926228   12.7575614      
 1.66107814       0.000841925282   12.8717504       0.999179249     -0.010754952      0.999179249     -0.010754952      0.000841925282   12.8717504      
 1.67768892       0.000842934781   12.9868518       0.999178644     -0.010862495      0.999178644     -0.010862495      0.000842934781   12.9868518      
 1.69446581       0.000843954873   13.1028705       0.999178036     -0.0109711133     0.999178036     -0.0109711133     0.000843954873   13.1028705      
 1.71141047       0.000844985711   13.2198115       0.999177425     -0.0110808176     0.999177425     -0.0110808176     0.000844985711   13.2198115      
 1.72852457       0.000846027449   13.3376797       0.999176811     -0.0111916189     0.999176811     -0.0111916189     0.000846027449   13.3376797      
 1.74580982       0.000847080245   13.4564797       0.999176194     -0.0113035281     0.999176194     -0.0113035281     0.000847080245   13.4564797      
 1.76326792       0.000848144257   13.5762166       0.999175574     -0.0114165564     0.999175574     -0.0114165564     0.000848144257   13.5762166      
 1.7809006        0.000849219647   13.696895        0.999174951     -0.0115307147     0.999174951     -0.0115307147     0.000849219647   13.696895       
 1.7987096        0.000850306581   13.8185197       0.999174324     -0.0116460146     0.999174324     -0.0116460146     0.000850306581   13.8185197      
 1.8166967        0.000851405224   13.9410954       0.999173695     -0.0117624673     0.999173695     -0.0117624673     0.000851405224   13.9410954      
 1.83486367       0.000852515746   14.0646268       0.999173062     -0.0118800845     0.999173062     -0.0118800845     0.000852515746   14.0646268      
 1.8532123        0.000853638319   14.1891183       0.999172426     -0.0119988777     0.999172426     -0.0119988777     0.000853638319   14.1891183      
 1.87174443       0.00085477312    14.3145746       0.999171787     -0.0121188587     0.999171787     -0.0121188587     0.00085477312    14.3145746      
 1.89046187       0.000855920324   14.4410003       0.999171145     -0.0122400394     0.999171145     -0.0122400394     0.000855920324   14.4410003      
 1.90936649       0.000857080113   14.5683997       0.9991705       -0.0123624318     0.9991705       -0.0123624318     0.000857080113   14.5683997      
 1.92846015       0.000858252669   14.6967773       0.999169851     -0.0124860481     0.999169851     -0.0124860481     0.000858252669   14.6967773      
 1.94774475       0.000859438179   14.8261375       0.9991692       -0.0126109003     0.9991692       -0.0126109003     0.000859438179   14.8261375      
 1.9672222        0.000860636832   14.9564845       0.999168544     -0.012737001      0.999168544     -0.012737001      0.000860636832   14.9564845      
 1.98689442       0.000861848819   15.0878226       0.999167886     -0.0128643625     0.999167886     -0.0128643625     0.000861848819   15.0878226      
 2.00676337       0.000863074337   15.220156        0.999167224     -0.0129929975     0.999167224     -0.0129929975     0.000863074337   15.220156       
 2.026831         0.000864313581   15.3534888       0.999166559     -0.0131229188     0.999166559     -0.0131229188     0.000864313581   15.3534888      
 2.04709931       0.000865566753   15.4878251       0.999165891     -0.0132541391     0.999165891     -0.0132541391     0.000865566753   15.4878251      
 2.06757031       0.000866834058   15.6231689       0.999165219     -0.0133866715     0.999165219     -0.0133866715     0.000866834058   15.6231689      
 2.08824601       0.000868115702   15.759524        0.999164544     -0.0135205291     0.999164544     -0.0135205291     0.000868115702   15.759524       
 2.10912847       0.000869411895   15.8968944       0.999163866     -0.0136557251     0.999163866     -0.0136557251     0.000869411895   15.8968944      
 2.13021975       0.000870722851   16.0352837       0.999163184     -0.013792273      0.999163184     -0.013792273      0.000870722851   16.0352837      
 2.15152195       0.000872048787   16.1746958       0.999162499     -0.0139301861     0.999162499     -0.0139301861     0.000872048787   16.1746958      
 2.17303717       0.000873389923   16.3151343       0.999161811     -0.0140694783     0.999161811     -0.0140694783     0.000873389923   16.3151343      
 2.19476754       0.000874746482   16.4566026       0.999161119     -0.0142101632     0.999161119     -0.0142101632     0.000874746482   16.4566026      
 2.21671522       0.00087611869    16.5991042       0.999160423     -0.0143522549     0.999160423     -0.0143522549     0.00087611869    16.5991042      
 2.23888237       0.000877506779   16.7426426       0.999159724     -0.0144957673     0.999159724     -0.0144957673     0.000877506779   16.7426426      
 2.26127119       0.000878910981   16.8872209       0.999159022     -0.0146407147     0.999159022     -0.0146407147     0.000878910981   16.8872209      
 2.2838839        0.000880331534   17.0328424       0.999158316     -0.0147871114     0.999158316     -0.0147871114     0.000880331534   17.0328424      
 2.30672274       0.000881768678   17.1795102       0.999157606     -0.0149349719     0.999157606     -0.0149349719     0.000881768678   17.1795102      
 2.32978997       0.000883222658   17.3272273       0.999156893     -0.0150843109     0.999156893     -0.0150843109     0.000883222658   17.3272273      
 2.35308787       0.000884693722   17.4759965       0.999156177     -0.0152351431     0.999156177     -0.0152351431     0.000884693722   17.4759965      
 2.37661875       0.000886182121   17.6258207       0.999155456     -0.0153874834     0.999155456     -0.0153874834     0.000886182121   17.6258207      
 2.40038494       0.000887688111   17.7767026       0.999154733     -0.015541347      0.999154733     -0.015541347      0.000887688111   17.7767026      
 2.42438879       0.00088921195    17.9286447       0.999154005     -0.015696749      0.999154005     -0.015696749      0.00088921195    17.9286447      
 2.44863267       0.000890753902   18.0816495       0.999153274     -0.0158537049     0.999153274     -0.0158537049     0.000890753902   18.0816495      
 2.473119         0.000892314234   18.2357194       0.999152539     -0.0160122302     0.999152539     -0.0160122302     0.000892314234   18.2357194      
 2.49785019       0.000893893217   18.3908567       0.999151801     -0.0161723406     0.999151801     -0.0161723406     0.000893893217   18.3908567      
 2.52282869       0.000895491124   18.5470634       0.999151059     -0.0163340519     0.999151059     -0.0163340519     0.000895491124   18.5470634      
 2.54805698       0.000897108236   18.7043416       0.999150313     -0.0164973801     0.999150313     -0.0164973801     0.000897108236   18.7043416      
 2.57353755       0.000898744833   18.8626931       0.999149564     -0.0166623414     0.999149564     -0.0166623414     0.000898744833   18.8626931      
 2.59927293       0.000900401206   19.0221197       0.99914881      -0.0168289521     0.99914881      -0.0168289521     0.000900401206   19.0221197      
 2.62526565       0.000902077642   19.1826229       0.999148053     -0.0169972288     0.999148053     -0.0169972288     0.000902077642   19.1826229      
 2.65151831       0.000903774437   19.3442044       0.999147292     -0.017167188      0.999147292     -0.017167188      0.000903774437   19.3442044      
 2.67803349       0.000905491893   19.5068655       0.999146528     -0.0173388466     0.999146528     -0.0173388466     0.000905491893   19.5068655      
 2.70481383       0.000907230311   19.6706073       0.999145759     -0.0175122216     0.999145759     -0.0175122216     0.000907230311   19.6706073      
 2.73186197       0.000908990001   19.8354309       0.999144987     -0.0176873302     0.999144987     -0.0176873302     0.000908990001   19.8354309      
 2.75918059       0.000910771274   20.0013372       0.999144211     -0.0178641896     0.999144211     -0.0178641896     0.000910771274   20.0013372      
 2.78677239       0.000912574448   20.1683271       0.999143431     -0.0180428174     0.999143431     -0.0180428174     0.000912574448   20.1683271      
 2.81464012       0.000914399844   20.3364012       0.999142647     -0.0182232313     0.999142647     -0.0182232313     0.000914399844   20.3364012      
 2.84278652       0.000916247788   20.5055598       0.999141859     -0.0184054491     0.999141859     -0.0184054491     0.000916247788   20.5055598      
 2.87121438       0.000918118611   20.6758034       0.999141067     -0.0185894889     0.999141067     -0.0185894889     0.000918118611   20.6758034      
 2.89992653       0.000920012647   20.8471321       0.999140271     -0.0187753688     0.999140271     -0.0187753688     0.000920012647   20.8471321      
 2.92892579       0.000921930237   21.0195458       0.999139471     -0.0189631074     0.999139471     -0.0189631074     0.000921930237   21.0195458      
 2.95821505       0.000923871724   21.1930444       0.999138668     -0.019152723      0.999138668     -0.019152723      0.000923871724   21.1930444      
 2.9877972        0.000925837459   21.3676276       0.99913786      -0.0193442347     0.99913786      -0.0193442347     0.000925837459   21.3676276      
 3.01767517       0.000927827795   21.5432948       0.999137048     -0.0195376611     0.999137048     -0.0195376611     0.000927827795   21.5432948      
 3.04785192       0.000929843092   21.7200453       0.999136232     -0.0197330217     0.999136232     -0.0197330217     0.000929843091   21.7200453      
 3.07833044       0.000931883712   21.8978784       0.999135412     -0.0199303355     0.999135412     -0.0199303355     0.000931883712   21.8978784      
 3.10911375       0.000933950025   22.0767928       0.999134588     -0.0201296223     0.999134588     -0.0201296223     0.000933950025   22.0767928      
 3.14020489       0.000936042405   22.2567874       0.99913376      -0.0203309017     0.99913376      -0.0203309017     0.000936042405   22.2567874      
 3.17160693       0.000938161231   22.4378607       0.999132927     -0.0205341936     0.999132927     -0.0205341936     0.000938161231   22.4378607      
 3.203323         0.000940306886   22.6200112       0.999132091     -0.0207395182     0.999132091     -0.0207395182     0.000940306886   22.6200112      
 3.23535623       0.00094247976    22.803237        0.99913125      -0.0209468958     0.99913125      -0.0209468958     0.00094247976    22.803237       
 3.2677098        0.000944680247   22.9875362       0.999130405     -0.0211563469     0.999130405     -0.0211563468     0.000944680247   22.9875362      
 3.30038689       0.000946908745   23.1729065       0.999129556     -0.0213678922     0.999129556     -0.0213678922     0.000946908745   23.1729065      
 3.33339076       0.000949165661   23.3593455       0.999128702     -0.0215815527     0.999128702     -0.0215815527     0.000949165661   23.3593455      
 3.36672467       0.000951451405   23.5468507       0.999127845     -0.0217973495     0.999127845     -0.0217973495     0.000951451405   23.5468507      
 3.40039192       0.000953766391   23.7354193       0.999126983     -0.022015304      0.999126983     -0.022015304      0.000953766391   23.7354193      
 3.43439584       0.000956111041   23.9250482       0.999126116     -0.0222354378     0.999126116     -0.0222354378     0.000956111041   23.9250482      
 3.4687398        0.00095848578    24.1157342       0.999125246     -0.0224577726     0.999125246     -0.0224577726     0.00095848578    24.1157342      
 3.50342719       0.000960891041   24.3074738       0.999124371     -0.0226823305     0.999124371     -0.0226823305     0.000960891041   24.3074738      
