# MHz           S          MA           R         50
!Freq             MagS11           AngS11           MagS21           AngS21           MagS12           AngS12           MagS22           AngS22
 1                0.000961037765   4.49112903       0.999041916     -0.00431586112    0.999041916     -0.00431586112    0.000961037765   4.49112903      
 1.01             0.000961389877   4.5344664        0.999041622     -0.00435901845    0.999041622     -0.00435901845    0.000961389877   4.5344664       
 1.0201           0.000961744603   4.57821189       0.999041327     -0.0044026073     0.999041327     -0.0044026073     0.000961744603   4.57821189      
 1.030301         0.000962101971   4.62236912       0.99904103      -0.00444663202    0.99904103      -0.00444663202    0.000962101971   4.62236912      
 1.04060401       0.000962462011   4.66694174       0.999040732     -0.00449109699    0.999040732     -0.00449109699    0.000962462011   4.66694174      
 1.05101005       0.000962824754   4.71193342       0.999040432     -0.00453600665    0.999040432     -0.00453600665    0.000962824754   4.71193342      
 1.06152015       0.000963190231   4.75734798       0.999040131     -0.00458136536    0.999040131     -0.00458136536    0.000963190231   4.75734798      
 1.07213535       0.000963558473   4.80318924       0.999039829     -0.00462717756    0.999039829     -0.00462717756    0.000963558473   4.80318924      
 1.08285671       0.000963929513   4.84946085       0.999039524     -0.0046734479     0.999039524     -0.0046734479     0.000963929514   4.84946085      
 1.09368527       0.000964303384   4.89616667       0.999039219     -0.00472018094    0.999039219     -0.00472018094    0.000964303384   4.89616667      
 1.10462213       0.000964680119   4.94331054       0.999038912     -0.00476738129    0.999038912     -0.00476738129    0.000964680119   4.94331054      
 1.11566835       0.00096505975    4.99089635       0.999038603     -0.00481505365    0.999038603     -0.00481505365    0.00096505975    4.99089635      
 1.12682503       0.000965442312   5.03892809       0.999038292     -0.00486320263    0.999038292     -0.00486320263    0.000965442312   5.03892809      
 1.13809328       0.000965827841   5.08740951       0.999037981     -0.00491183317    0.999037981     -0.00491183317    0.000965827841   5.08740951      
 1.14947421       0.000966216371   5.13634474       0.999037667     -0.00496094994    0.999037667     -0.00496094994    0.000966216371   5.13634474      
 1.16096896       0.000966607938   5.18573775       0.999037352     -0.00501055781    0.999037352     -0.00501055781    0.000966607938   5.18573776      
 1.17257864       0.00096700258    5.23559246       0.999037036     -0.00506066181    0.999037036     -0.00506066181    0.00096700258    5.23559246      
 1.18430443       0.000967400332   5.28591302       0.999036718     -0.0051112668     0.999036718     -0.0051112668     0.000967400332   5.28591301      
 1.19614748       0.000967801232   5.33670349       0.999036398     -0.0051623778     0.999036398     -0.0051623778     0.000967801232   5.33670349      
 1.20810895       0.000968205319   5.38796791       0.999036077     -0.00521399995    0.999036077     -0.00521399995    0.000968205319   5.38796791      
 1.22019004       0.000968612631   5.43971052       0.999035754     -0.00526613825    0.999035754     -0.00526613825    0.000968612631   5.43971052      
 1.23239194       0.000969023208   5.49193547       0.999035429     -0.00531879791    0.999035429     -0.00531879791    0.000969023208   5.49193547      
 1.24471586       0.000969437091   5.54464698       0.999035103     -0.0053719841     0.999035103     -0.0053719841     0.000969437091   5.54464698      
 1.25716302       0.000969854319   5.59784921       0.999034775     -0.00542570217    0.999034775     -0.00542570217    0.00096985432    5.59784921      
 1.26973465       0.000970274935   5.65154646       0.999034446     -0.00547995738    0.999034446     -0.00547995738    0.000970274935   5.65154646      
 1.282432         0.00097069898    5.70574302       0.999034115     -0.00553475512    0.999034115     -0.00553475512    0.00097069898    5.70574302      
 1.29525631       0.000971126498   5.7604432        0.999033782     -0.00559010082    0.999033782     -0.00559010082    0.000971126498   5.7604432       
 1.30820888       0.000971557532   5.81565137       0.999033448     -0.00564599994    0.999033448     -0.00564599994    0.000971557532   5.81565137      
 1.32129097       0.000971992125   5.87137193       0.999033112     -0.00570245801    0.999033112     -0.00570245801    0.000971992125   5.87137193      
 1.33450388       0.000972430324   5.92760925       0.999032774     -0.00575948064    0.999032774     -0.00575948064    0.000972430324   5.92760925      
 1.34784892       0.000972872173   5.98436776       0.999032435     -0.00581707348    0.999032435     -0.00581707348    0.000972872173   5.98436776      
 1.3613274        0.00097331772    6.04165199       0.999032094     -0.00587524218    0.999032094     -0.00587524218    0.00097331772    6.04165199      
 1.37494068       0.000973767011   6.09946636       0.999031751     -0.00593399259    0.999031751     -0.00593399259    0.000973767011   6.09946636      
 1.38869009       0.000974220094   6.15781546       0.999031406     -0.00599333047    0.999031406     -0.00599333047    0.000974220094   6.15781546      
 1.40257699       0.000974677019   6.21670386       0.99903106      -0.00605326167    0.99903106      -0.00605326167    0.000974677019   6.21670386      
 1.41660276       0.000975137835   6.27613615       0.999030712     -0.00611379213    0.999030712     -0.00611379213    0.000975137835   6.27613615      
 1.43076878       0.000975602591   6.33611688       0.999030363     -0.00617492791    0.999030363     -0.00617492791    0.000975602591   6.33611688      
 1.44507647       0.000976071341   6.39665077       0.999030011     -0.00623667499    0.999030011     -0.00623667499    0.000976071341   6.39665077      
 1.45952724       0.000976544134   6.45774247       0.999029658     -0.00629903952    0.999029658     -0.00629903952    0.000976544134   6.45774247      
 1.47412251       0.000977021026   6.51939671       0.999029303     -0.00636202766    0.999029303     -0.00636202766    0.000977021026   6.51939671      
 1.48886373       0.000977502069   6.58161826       0.999028946     -0.00642564561    0.999028946     -0.00642564561    0.000977502069   6.58161826      
 1.50375237       0.000977987318   6.64441176       0.999028588     -0.00648989978    0.999028588     -0.00648989978    0.000977987318   6.64441176      
 1.51878989       0.000978476828   6.70778214       0.999028228     -0.00655479643    0.999028228     -0.00655479643    0.000978476828   6.70778214      
 1.53397779       0.000978970657   6.77173421       0.999027866     -0.00662034198    0.999027866     -0.00662034198    0.000978970657   6.77173421      
 1.54931757       0.000979468863   6.83627282       0.999027502     -0.00668654294    0.999027502     -0.00668654294    0.000979468863   6.83627282      
 1.56481075       0.000979971502   6.90140282       0.999027136     -0.0067534059     0.999027136     -0.0067534059     0.000979971502   6.90140282      
 1.58045885       0.000980478635   6.96712916       0.999026768     -0.00682093743    0.999026768     -0.00682093743    0.000980478635   6.96712916      
 1.59626344       0.000980990323   7.03345674       0.999026399     -0.00688914427    0.999026399     -0.00688914427    0.000980990323   7.03345674      
 1.61222608       0.000981506626   7.10039057       0.999026028     -0.00695803313    0.999026028     -0.00695803314    0.000981506626   7.10039058      
 1.62834834       0.000982027608   7.16793565       0.999025655     -0.00702761085    0.999025655     -0.00702761085    0.000982027608   7.16793565      
 1.64463182       0.000982553332   7.23609701       0.99902528      -0.0070978843     0.99902528      -0.0070978843     0.000982553332   7.23609701      
 1.66107814       0.000983083862   7.30487973       0.999024903     -0.00716886042    0.999024903     -0.00716886042    0.000983083862   7.30487973      
 1.67768892       0.000983619265   7.37428884       0.999024524     -0.00724054629    0.999024524     -0.00724054629    0.000983619265   7.37428884      
 1.69446581       0.000984159606   7.44432949       0.999024144     -0.00731294899    0.999024144     -0.00731294899    0.000984159606   7.44432949      
 1.71141047       0.000984704954   7.51500686       0.999023761     -0.00738607562    0.999023761     -0.00738607562    0.000984704954   7.51500686      
 1.72852457       0.000985255379   7.58632602       0.999023377     -0.00745993353    0.999023377     -0.00745993353    0.000985255379   7.58632603      
 1.74580982       0.000985810949   7.65829227       0.999022991     -0.00753452995    0.999022991     -0.00753452995    0.000985810949   7.65829226      
 1.76326792       0.000986371737   7.73091076       0.999022602     -0.0076098723     0.999022602     -0.0076098723     0.000986371737   7.73091076      
 1.7809006        0.000986937816   7.80418679       0.999022212     -0.00768596801    0.999022212     -0.00768596801    0.000986937816   7.80418679      
 1.7987096        0.000987509258   7.87812559       0.99902182      -0.00776282466    0.99902182      -0.00776282466    0.000987509258   7.87812559      
 1.8166967        0.00098808614    7.95273252       0.999021426     -0.00784044979    0.999021426     -0.00784044979    0.00098808614    7.95273252      
 1.83486367       0.000988668538   8.02801285       0.99902103      -0.00791885115    0.99902103      -0.00791885115    0.000988668538   8.02801285      
 1.8532123        0.000989256528   8.10397194       0.999020632     -0.00799803649    0.999020632     -0.00799803649    0.000989256528   8.10397194      
 1.87174443       0.000989850191   8.18061522       0.999020232     -0.00807801361    0.999020232     -0.00807801361    0.000989850191   8.18061522      
 1.89046187       0.000990449606   8.25794802       0.99901983      -0.00815879048    0.99901983      -0.00815879048    0.000990449606   8.25794802      
 1.90936649       0.000991054856   8.33597582       0.999019426     -0.00824037504    0.999019426     -0.00824037504    0.000991054856   8.33597582      
 1.92846015       0.000991666022   8.41470403       0.99901902      -0.00832277544    0.99901902      -0.00832277544    0.000991666022   8.41470403      
 1.94774475       0.000992283189   8.49413819       0.999018612     -0.00840599974    0.999018612     -0.00840599974    0.000992283189   8.49413819      
 1.9672222        0.000992906445   8.57428376       0.999018202     -0.00849005623    0.999018202     -0.00849005623    0.000992906445   8.57428376      
 1.98689442       0.000993535875   8.6551462        0.99901779      -0.00857495327    0.99901779      -0.00857495327    0.000993535875   8.6551462       
 2.00676337       0.000994171568   8.73673112       0.999017376     -0.00866069921    0.999017376     -0.00866069921    0.000994171568   8.73673112      
 2.026831         0.000994813616   8.81904405       0.999016959     -0.00874730256    0.999016959     -0.00874730257    0.000994813616   8.81904405      
 2.04709931       0.000995462108   8.90209058       0.999016541     -0.00883477191    0.999016541     -0.00883477191    0.000995462108   8.90209058      
 2.06757031       0.00099611714    8.98587634       0.99901612      -0.00892311587    0.99901612      -0.00892311587    0.00099611714    8.98587634      
 2.08824601       0.000996778806   9.07040694       0.999015698     -0.00901234321    0.999015698     -0.00901234321    0.000996778806   9.07040694      
 2.10912847       0.000997447202   9.15568801       0.999015273     -0.00910246277    0.999015273     -0.00910246277    0.000997447202   9.15568801      
 2.13021975       0.000998122426   9.24172521       0.999014846     -0.00919348347    0.999014846     -0.00919348347    0.000998122426   9.2417252       
 2.15152195       0.000998804579   9.32852423       0.999014418     -0.00928541431    0.999014418     -0.00928541431    0.000998804579   9.32852423      
 2.17303717       0.000999493762   9.41609074       0.999013987     -0.00937826442    0.999013987     -0.00937826442    0.000999493762   9.41609074      
 2.19476754       0.00100019008    9.50443049       0.999013553     -0.00947204295    0.999013553     -0.00947204295    0.00100019008    9.50443049      
 2.21671522       0.00100089363    9.59354919       0.999013118     -0.00956675921    0.999013118     -0.00956675921    0.00100089363    9.59354919      
 2.23888237       0.00100160453    9.68345258       0.99901268      -0.00966242258    0.99901268      -0.00966242258    0.00100160453    9.68345258      
 2.26127119       0.00100232288    9.77414642       0.999012241     -0.00975904251    0.999012241     -0.00975904251    0.00100232288    9.77414642      
 2.2838839        0.0010030488     9.8656365        0.999011799     -0.00985662857    0.999011799     -0.00985662857    0.0010030488     9.8656365       
 2.30672274       0.00100378239    9.95792858       0.999011355     -0.00995519044    0.999011355     -0.00995519044    0.00100378239    9.95792858      
 2.32978997       0.00100452378    10.0510285       0.999010908     -0.0100547379     0.999010908     -0.0100547379     0.00100452378    10.0510285      
 2.35308787       0.00100527307    10.144942        0.99901046      -0.0101552807     0.99901046      -0.0101552807     0.00100527307    10.144942       
 2.37661875       0.00100603038    10.2396749       0.999010009     -0.0102568288     0.999010009     -0.0102568288     0.00100603038    10.2396749      
 2.40038494       0.00100679584    10.3352331       0.999009556     -0.0103593924     0.999009556     -0.0103593924     0.00100679584    10.3352331      
 2.42438879       0.00100756956    10.4316224       0.999009101     -0.0104629816     0.999009101     -0.0104629816     0.00100756956    10.4316224      
 2.44863267       0.00100835168    10.5288487       0.999008643     -0.0105676066     0.999008643     -0.0105676066     0.00100835168    10.5288487      
 2.473119         0.00100914231    10.6269177       0.999008183     -0.0106732777     0.999008183     -0.0106732777     0.00100914231    10.6269177      
 2.49785019       0.00100994159    10.7258354       0.999007721     -0.0107800055     0.999007721     -0.0107800055     0.00100994159    10.7258354      
 2.52282869       0.00101074964    10.8256076       0.999007256     -0.0108878005     0.999007256     -0.0108878005     0.00101074964    10.8256076      
 2.54805698       0.0010115666     10.9262402       0.999006789     -0.0109966734     0.999006789     -0.0109966734     0.0010115666     10.9262401      
 2.57353755       0.00101239261    11.027739        0.99900632      -0.0111066349     0.99900632      -0.0111066349     0.00101239261    11.027739       
 2.59927293       0.00101322779    11.1301099       0.999005849     -0.011217696      0.999005849     -0.011217696      0.00101322779    11.1301099      
 2.62526565       0.0010140723     11.2333588       0.999005375     -0.0113298675     0.999005375     -0.0113298675     0.0010140723     11.2333588      
 2.65151831       0.00101492626    11.3374915       0.999004899     -0.0114431608     0.999004899     -0.0114431608     0.00101492626    11.3374915      
 2.67803349       0.00101578984    11.4425139       0.99900442      -0.0115575868     0.99900442      -0.0115575868     0.00101578984    11.4425139      
 2.70481383       0.00101666316    11.5484319       0.999003939     -0.0116731571     0.999003939     -0.0116731571     0.00101666316    11.5484319      
 2.73186197       0.00101754639    11.6552513       0.999003456     -0.011789883      0.999003456     -0.011789883      0.00101754639    11.6552513      
 2.75918059       0.00101843967    11.762978        0.99900297      -0.011907776      0.99900297      -0.011907776      0.00101843967    11.762978       
 2.78677239       0.00101934315    11.8716178       0.999002482     -0.0120268479     0.999002482     -0.0120268479     0.00101934315    11.8716178      
 2.81464012       0.001020257      11.9811765       0.999001991     -0.0121471104     0.999001991     -0.0121471104     0.001020257      11.9811765      
 2.84278652       0.00102118138    12.0916599       0.999001498     -0.0122685755     0.999001498     -0.0122685755     0.00102118138    12.0916599      
 2.87121438       0.00102211644    12.2030739       0.999001002     -0.0123912551     0.999001002     -0.0123912551     0.00102211644    12.2030739      
 2.89992653       0.00102306234    12.3154243       0.999000504     -0.0125151614     0.999000504     -0.0125151614     0.00102306234    12.3154243      
 2.92892579       0.00102401927    12.4287168       0.999000003     -0.0126403067     0.999000003     -0.0126403067     0.00102401927    12.4287168      
 2.95821505       0.00102498738    12.5429572       0.9989995       -0.0127667033     0.9989995       -0.0127667033     0.00102498738    12.5429572      
 2.9877972        0.00102596685    12.6581512       0.998998995     -0.0128943638     0.998998995     -0.0128943638     0.00102596685    12.6581512      
 3.01767517       0.00102695786    12.7743046       0.998998487     -0.0130233008     0.998998487     -0.0130233008     0.00102695786    12.7743046      
 3.04785192       0.00102796058    12.891423        0.998997976     -0.0131535271     0.998997976     -0.0131535271     0.00102796058    12.891423       
 3.07833044       0.0010289752     13.0095122       0.998997463     -0.0132850556     0.998997463     -0.0132850556     0.0010289752     13.0095122      
 3.10911375       0.00103000189    13.1285777       0.998996947     -0.0134178992     0.998996947     -0.0134178992     0.00103000189    13.1285777      
 3.14020489       0.00103104086    13.2486252       0.998996428     -0.0135520712     0.998996428     -0.0135520712     0.00103104086    13.2486252      
 3.17160693       0.00103209228    13.3696603       0.998995908     -0.0136875847     0.998995908     -0.0136875847     0.00103209228    13.3696603      
 3.203323         0.00103315636    13.4916886       0.998995384     -0.0138244533     0.998995384     -0.0138244533     0.00103315636    13.4916886      
 3.23535623       0.00103423329    13.6147155       0.998994858     -0.0139626905     0.998994858     -0.0139626905     0.00103423329    13.6147155      
 3.2677098        0.00103532326    13.7387467       0.998994329     -0.01410231       0.998994329     -0.01410231       0.00103532326    13.7387467      
 3.30038689       0.0010364265     13.8637874       0.998993797     -0.0142433255     0.998993797     -0.0142433255     0.0010364265     13.8637874      
 3.33339076       0.00103754319    13.9898432       0.998993263     -0.0143857511     0.998993263     -0.0143857511     0.00103754319    13.9898432      
 3.36672467       0.00103867355    14.1169194       0.998992726     -0.0145296008     0.998992726     -0.0145296008     0.00103867355    14.1169194      
 3.40039192       0.00103981779    14.2450213       0.998992187     -0.0146748889     0.998992187     -0.0146748889     0.00103981779    14.2450213      
 3.43439584       0.00104097614    14.3741543       0.998991645     -0.0148216297     0.998991645     -0.0148216297     0.00104097614    14.3741543      
 3.4687398        0.00104214881    14.5043235       0.9989911       -0.0149698379     0.9989911       -0.0149698379     0.00104214881    14.5043235      
 3.50342719       0.00104333603    14.6355341       0.998990552     -0.015119528      0.998990552     -0.015119528      0.00104333603    14.6355341      
