# MHz           S          MA           R         50
!Freq             MagS11           AngS11           MagS21           AngS21           MagS12           AngS12           MagS22           AngS22
 1                0.0256856295     16.2158302       0.975362608     -0.421360494      0.975362608     -0.421360494      0.0256856295     16.2158302      
 1.01             0.0257214156     16.3585515       0.975346744     -0.425567255      0.975346744     -0.425567255      0.0257214156     16.3585515      
 1.0201           0.0257576561     16.5023309       0.975330792     -0.429815978      0.975330792     -0.429815978      0.0257576561     16.5023309      
 1.030301         0.025794358      16.6471718       0.975314754     -0.434107082      0.975314754     -0.434107082      0.025794358      16.6471718      
 1.04060401       0.0258315284     16.7930773       0.975298627     -0.438440989      0.975298627     -0.438440989      0.0258315284     16.7930773      
 1.05101005       0.0258691747     16.9400507       0.975282413     -0.442818124      0.975282413     -0.442818124      0.0258691747     16.9400507      
 1.06152015       0.0259073041     17.0880948       0.975266109     -0.44723892       0.975266109     -0.44723892       0.0259073041     17.0880948      
 1.07213535       0.0259459241     17.2372126       0.975249716     -0.451703809      0.975249716     -0.451703809      0.0259459241     17.2372126      
 1.08285671       0.0259850424     17.3874067       0.975233232     -0.456213233      0.975233232     -0.456213233      0.0259850424     17.3874067      
 1.09368527       0.0260246665     17.53868         0.975216658     -0.460767633      0.975216658     -0.460767633      0.0260246665     17.53868        
 1.10462213       0.0260648044     17.6910348       0.975199992     -0.465367459      0.975199992     -0.465367459      0.0260648044     17.6910348      
 1.11566835       0.0261054639     17.8444736       0.975183234     -0.470013162      0.975183234     -0.470013162      0.0261054639     17.8444736      
 1.12682503       0.0261466532     17.9989986       0.975166383     -0.474705199      0.975166383     -0.474705199      0.0261466532     17.9989986      
 1.13809328       0.0261883803     18.154612        0.975149439     -0.479444032      0.975149439     -0.479444032      0.0261883803     18.154612       
 1.14947421       0.0262306535     18.3113158       0.975132401     -0.484230126      0.975132401     -0.484230126      0.0262306535     18.3113158      
 1.16096896       0.0262734814     18.4691118       0.975115268     -0.489063953      0.975115268     -0.489063953      0.0262734814     18.4691118      
 1.17257864       0.0263168723     18.6280018       0.97509804      -0.493945988      0.97509804      -0.493945988      0.0263168723     18.6280018      
 1.18430443       0.0263608351     18.7879872       0.975080716     -0.49887671       0.975080716     -0.49887671       0.0263608351     18.7879872      
 1.19614748       0.0264053784     18.9490696       0.975063295     -0.503856604      0.975063295     -0.503856604      0.0264053784     18.9490696      
 1.20810895       0.0264505113     19.1112502       0.975045776     -0.508886161      0.975045776     -0.508886161      0.0264505113     19.1112502      
 1.22019004       0.0264962427     19.27453         0.97502816      -0.513965874      0.97502816      -0.513965874      0.0264962427     19.27453        
 1.23239194       0.0265425818     19.4389101       0.975010444     -0.519096242      0.975010444     -0.519096242      0.0265425818     19.4389101      
 1.24471586       0.026589538      19.6043913       0.974992629     -0.524277771      0.974992629     -0.524277771      0.026589538      19.6043913      
 1.25716302       0.0266371207     19.770974        0.974974713     -0.529510969      0.974974713     -0.529510969      0.0266371207     19.770974       
 1.26973465       0.0266853394     19.9386589       0.974956697     -0.534796351      0.974956697     -0.534796351      0.0266853394     19.9386589      
 1.282432         0.026734204      20.1074461       0.974938578     -0.540134436      0.974938578     -0.540134436      0.026734204      20.1074461      
 1.29525631       0.0267837243     20.2773358       0.974920357     -0.54552575       0.974920357     -0.54552575       0.0267837243     20.2773358      
 1.30820888       0.0268339102     20.4483278       0.974902033     -0.550970821      0.974902033     -0.550970821      0.0268339102     20.4483278      
 1.32129097       0.026884772      20.6204218       0.974883605     -0.556470184      0.974883605     -0.556470184      0.026884772      20.6204218      
 1.33450388       0.0269363198     20.7936175       0.974865072     -0.562024381      0.974865072     -0.562024381      0.0269363198     20.7936175      
 1.34784892       0.0269885642     20.9679142       0.974846433     -0.567633958      0.974846433     -0.567633958      0.0269885642     20.9679142      
 1.3613274        0.0270415157     21.1433109       0.974827687     -0.573299464      0.974827687     -0.573299464      0.0270415157     21.1433109      
 1.37494068       0.0270951851     21.3198068       0.974808835     -0.579021457      0.974808835     -0.579021457      0.0270951851     21.3198068      
 1.38869009       0.0271495831     21.4974004       0.974789874     -0.584800499      0.974789874     -0.584800499      0.0271495831     21.4974004      
 1.40257699       0.0272047209     21.6760903       0.974770805     -0.590637158      0.974770805     -0.590637158      0.0272047209     21.6760903      
 1.41660276       0.0272606095     21.8558749       0.974751625     -0.596532008      0.974751625     -0.596532008      0.0272606095     21.8558749      
 1.43076878       0.0273172604     22.0367523       0.974732335     -0.602485626      0.974732335     -0.602485626      0.0273172604     22.0367523      
 1.44507647       0.027374685      22.2187204       0.974712934     -0.608498599      0.974712934     -0.608498599      0.027374685      22.2187204      
 1.45952724       0.0274328949     22.4017768       0.97469342      -0.614571516      0.97469342      -0.614571516      0.0274328949     22.4017768      
 1.47412251       0.0274919019     22.585919        0.974673794     -0.620704974      0.974673794     -0.620704974      0.0274919019     22.585919       
 1.48886373       0.0275517179     22.7711443       0.974654053     -0.626899576      0.974654053     -0.626899576      0.0275517179     22.7711443      
 1.50375237       0.0276123552     22.9574496       0.974634197     -0.63315593       0.974634197     -0.63315593       0.0276123552     22.9574496      
 1.51878989       0.0276738258     23.1448317       0.974614225     -0.63947465       0.974614225     -0.63947465       0.0276738258     23.1448317      
 1.53397779       0.0277361423     23.3332872       0.974594136     -0.645856357      0.974594136     -0.645856357      0.0277361423     23.3332872      
 1.54931757       0.0277993173     23.5228123       0.97457393      -0.652301678      0.97457393      -0.652301678      0.0277993173     23.5228123      
 1.56481075       0.0278633634     23.713403        0.974553605     -0.658811244      0.974553605     -0.658811244      0.0278633634     23.713403       
 1.58045885       0.0279282937     23.9050553       0.97453316      -0.665385696      0.97453316      -0.665385696      0.0279282937     23.9050553      
 1.59626344       0.0279941212     24.0977645       0.974512595     -0.672025678      0.974512595     -0.672025678      0.0279941212     24.0977645      
 1.61222608       0.0280608591     24.2915261       0.974491908     -0.678731844      0.974491908     -0.678731844      0.0280608591     24.2915261      
 1.62834834       0.0281285209     24.4863351       0.974471099     -0.68550485       0.974471099     -0.68550485       0.0281285209     24.4863351      
 1.64463182       0.0281971202     24.6821862       0.974450165     -0.692345362      0.974450165     -0.692345362      0.0281971202     24.6821862      
 1.66107814       0.0282666707     24.8790741       0.974429108     -0.69925405       0.974429108     -0.69925405       0.0282666707     24.8790741      
 1.67768892       0.0283371863     25.0769929       0.974407924     -0.706231595      0.974407924     -0.706231595      0.0283371863     25.0769929      
 1.69446581       0.0284086813     25.2759367       0.974386614     -0.713278679      0.974386614     -0.713278679      0.0284086813     25.2759367      
 1.71141047       0.0284811698     25.4758992       0.974365176     -0.720395994      0.974365176     -0.720395994      0.0284811698     25.4758992      
 1.72852457       0.0285546663     25.6768739       0.97434361      -0.72758424       0.97434361      -0.72758424       0.0285546663     25.6768739      
 1.74580982       0.0286291855     25.878854        0.974321913     -0.73484412       0.974321913     -0.73484412       0.0286291855     25.878854       
 1.76326792       0.0287047422     26.0818325       0.974300085     -0.742176348      0.974300085     -0.742176348      0.0287047422     26.0818325      
 1.7809006        0.0287813514     26.2858019       0.974278125     -0.749581643      0.974278125     -0.749581643      0.0287813514     26.2858019      
 1.7987096        0.0288590281     26.4907546       0.974256032     -0.757060731      0.974256032     -0.757060731      0.0288590281     26.4907546      
 1.8166967        0.0289377879     26.6966828       0.974233805     -0.764614347      0.974233805     -0.764614347      0.0289377879     26.6966828      
 1.83486367       0.0290176463     26.9035782       0.974211442     -0.77224323       0.974211442     -0.77224323       0.0290176463     26.9035782      
 1.8532123        0.0290986189     27.1114324       0.974188942     -0.779948129      0.974188942     -0.779948129      0.0290986189     27.1114324      
 1.87174443       0.0291807216     27.3202366       0.974166304     -0.7877298        0.974166304     -0.7877298        0.0291807216     27.3202366      
 1.89046187       0.0292639706     27.5299819       0.974143527     -0.795589006      0.974143527     -0.795589006      0.0292639706     27.5299819      
 1.90936649       0.0293483822     27.7406589       0.974120609     -0.803526518      0.974120609     -0.803526518      0.0293483822     27.7406589      
 1.92846015       0.0294339727     27.9522579       0.97409755      -0.811543114      0.97409755      -0.811543114      0.0294339727     27.9522579      
 1.94774475       0.0295207589     28.1647692       0.974074348     -0.819639579      0.974074348     -0.819639579      0.0295207589     28.1647692      
 1.9672222        0.0296087576     28.3781824       0.974051002     -0.827816708      0.974051002     -0.827816708      0.0296087576     28.3781824      
 1.98689442       0.0296979858     28.5924872       0.97402751      -0.836075303      0.97402751      -0.836075303      0.0296979858     28.5924872      
 2.00676337       0.0297884607     28.8076729       0.974003872     -0.844416173      0.974003872     -0.844416173      0.0297884607     28.8076729      
 2.026831         0.0298801997     29.0237282       0.973980085     -0.852840135      0.973980085     -0.852840135      0.0298801997     29.0237282      
 2.04709931       0.0299732205     29.2406421       0.973956149     -0.861348015      0.973956149     -0.861348015      0.0299732205     29.2406421      
 2.06757031       0.0300675409     29.4584027       0.973932062     -0.869940647      0.973932062     -0.869940647      0.0300675409     29.4584027      
 2.08824601       0.0301631788     29.6769983       0.973907823     -0.878618873      0.973907823     -0.878618873      0.0301631788     29.6769983      
 2.10912847       0.0302601524     29.8964165       0.97388343      -0.887383543      0.97388343      -0.887383543      0.0302601524     29.8964165      
 2.13021975       0.03035848       30.1166451       0.973858882     -0.896235516      0.973858882     -0.896235516      0.03035848       30.1166451      
 2.15152195       0.0304581804     30.3376711       0.973834177     -0.90517566       0.973834177     -0.90517566       0.0304581804     30.3376711      
 2.17303717       0.0305592721     30.5594815       0.973809314     -0.91420485       0.973809314     -0.91420485       0.0305592721     30.5594815      
 2.19476754       0.0306617743     30.7820631       0.973784292     -0.92332397       0.973784292     -0.92332397       0.0306617743     30.7820631      
 2.21671522       0.030765706      31.0054021       0.973759109     -0.932533915      0.973759109     -0.932533915      0.030765706      31.0054021      
 2.23888237       0.0308710866     31.2294848       0.973733763     -0.941835585      0.973733763     -0.941835585      0.0308710866     31.2294848      
 2.26127119       0.0309779356     31.4542969       0.973708254     -0.951229892      0.973708254     -0.951229892      0.0309779356     31.4542969      
 2.2838839        0.0310862729     31.6798241       0.973682578     -0.960717755      0.973682578     -0.960717755      0.0310862729     31.6798241      
 2.30672274       0.0311961184     31.9060515       0.973656735     -0.970300104      0.973656735     -0.970300104      0.0311961184     31.9060515      
 2.32978997       0.0313074922     32.1329642       0.973630723     -0.979977877      0.973630723     -0.979977877      0.0313074922     32.1329642      
 2.35308787       0.0314204147     32.3605469       0.973604541     -0.989752022      0.973604541     -0.989752022      0.0314204147     32.3605469      
 2.37661875       0.0315349065     32.5887842       0.973578186     -0.999623494      0.973578186     -0.999623494      0.0315349065     32.5887842      
 2.40038494       0.0316509883     32.8176603       0.973551657     -1.00959326       0.973551657     -1.00959326       0.0316509883     32.8176603      
 2.42438879       0.031768681      33.047159        0.973524953     -1.0196623        0.973524953     -1.0196623        0.031768681      33.047159       
 2.44863267       0.0318880059     33.2772641       0.973498071     -1.02983159       0.973498071     -1.02983159       0.0318880059     33.2772641      
 2.473119         0.0320089842     33.5079591       0.97347101      -1.04010213       0.97347101      -1.04010213       0.0320089842     33.5079591      
 2.49785019       0.0321316377     33.7392272       0.973443768     -1.05047493       0.973443768     -1.05047493       0.0321316377     33.7392272      
 2.52282869       0.032255988      33.9710513       0.973416343     -1.060951         0.973416343     -1.060951         0.032255988      33.9710513      
 2.54805698       0.032382057      34.2034141       0.973388733     -1.07153136       0.973388733     -1.07153136       0.032382057      34.2034141      
 2.57353755       0.0325098671     34.4362981       0.973360937     -1.08221705       0.973360937     -1.08221705       0.0325098671     34.4362981      
 2.59927293       0.0326394406     34.6696856       0.973332952     -1.09300912       0.973332952     -1.09300912       0.0326394406     34.6696856      
 2.62526565       0.0327708        34.9035585       0.973304777     -1.10390862       0.973304777     -1.10390862       0.0327708        34.9035585      
 2.65151831       0.0329039682     35.1378988       0.973276409     -1.11491661       0.973276409     -1.11491661       0.0329039682     35.1378988      
 2.67803349       0.0330389682     35.3726879       0.973247846     -1.12603418       0.973247846     -1.12603418       0.0330389682     35.3726879      
 2.70481383       0.0331758231     35.6079073       0.973219087     -1.1372624        0.973219087     -1.1372624        0.0331758231     35.6079073      
 2.73186197       0.0333145565     35.8435381       0.97319013      -1.14860238       0.97319013      -1.14860238       0.0333145565     35.8435381      
 2.75918059       0.0334551918     36.0795613       0.973160972     -1.16005523       0.973160972     -1.16005523       0.0334551918     36.0795613      
 2.78677239       0.033597753      36.3159576       0.973131611     -1.17162206       0.973131611     -1.17162206       0.033597753      36.3159576      
 2.81464012       0.033742264      36.5527077       0.973102045     -1.18330401       0.973102045     -1.18330401       0.033742264      36.5527077      
 2.84278652       0.0338887492     36.789792        0.973072271     -1.19510221       0.973072271     -1.19510221       0.0338887492     36.789792       
 2.87121438       0.0340372329     37.0271906       0.973042289     -1.20701782       0.973042289     -1.20701782       0.0340372329     37.0271906      
 2.89992653       0.0341877398     37.2648837       0.973012094     -1.21905201       0.973012094     -1.21905201       0.0341877398     37.2648837      
 2.92892579       0.0343402949     37.5028511       0.972981686     -1.23120594       0.972981686     -1.23120594       0.0343402949     37.5028511      
 2.95821505       0.0344949231     37.7410726       0.972951061     -1.2434808        0.972951061     -1.2434808        0.0344949231     37.7410726      
 2.9877972        0.0346516497     37.9795278       0.972920218     -1.2558778        0.972920218     -1.2558778        0.0346516497     37.9795278      
 3.01767517       0.0348105003     38.2181961       0.972889153     -1.26839815       0.972889153     -1.26839815       0.0348105003     38.2181961      
 3.04785192       0.0349715005     38.4570568       0.972857864     -1.28104306       0.972857864     -1.28104306       0.0349715005     38.4570568      
 3.07833044       0.0351346764     38.6960891       0.97282635      -1.29381377       0.97282635      -1.29381377       0.0351346764     38.6960891      
 3.10911375       0.0353000539     38.9352721       0.972794607     -1.30671153       0.972794607     -1.30671153       0.0353000539     38.9352721      
 3.14020489       0.0354676594     39.1745847       0.972762632     -1.31973759       0.972762632     -1.31973759       0.0354676594     39.1745847      
 3.17160693       0.0356375195     39.4140058       0.972730424     -1.33289323       0.972730424     -1.33289323       0.0356375195     39.4140058      
 3.203323         0.035809661      39.6535141       0.972697979     -1.34617973       0.972697979     -1.34617973       0.035809661      39.6535141      
 3.23535623       0.0359841108     39.8930883       0.972665295     -1.35959839       0.972665295     -1.35959839       0.0359841108     39.8930883      
 3.2677098        0.0361608962     40.132707        0.972632369     -1.37315051       0.972632369     -1.37315051       0.0361608962     40.132707       
 3.30038689       0.0363400444     40.3723485       0.972599198     -1.38683742       0.972599198     -1.38683742       0.0363400444     40.3723485      
 3.33339076       0.0365215832     40.6119915       0.972565779     -1.40066045       0.972565779     -1.40066045       0.0365215832     40.6119915      
 3.36672467       0.0367055403     40.8516142       0.97253211      -1.41462094       0.97253211      -1.41462094       0.0367055403     40.8516142      
 3.40039192       0.0368919439     41.0911949       0.972498188     -1.42872027       0.972498188     -1.42872027       0.0368919439     41.0911949      
 3.43439584       0.0370808221     41.330712        0.972464009     -1.4429598        0.972464009     -1.4429598        0.0370808221     41.330712       
 3.4687398        0.0372722035     41.5701437       0.972429571     -1.45734092       0.972429571     -1.45734092       0.0372722035     41.5701437      
 3.50342719       0.0374661167     41.8094681       0.97239487      -1.47186503       0.97239487      -1.47186503       0.0374661167     41.8094681      
