# MHz           S          MA           R         50

!Freq             MagS11           AngS11           MagS21           AngS21           MagS12           AngS12           MagS22           AngS22
 1                0.000464057835   7.77435559       0.99954021      -0.0035983448     0.99954021      -0.0035983448     0.000464057835   7.77435559      
 1.01             0.000464192608   7.8502921        0.99954016      -0.00363432805    0.99954016      -0.00363432805    0.000464192608   7.8502921       
 1.0201           0.000464329311   7.92694718       0.99954011      -0.00367067117    0.99954011      -0.00367067116    0.000464329311   7.92694718      
 1.030301         0.000464467976   8.00432713       0.999540059     -0.00370737773    0.999540059     -0.00370737773    0.000464467976   8.00432714      
 1.04060401       0.000464608635   8.08243845       0.999540009     -0.00374445128    0.999540009     -0.00374445128    0.000464608635   8.08243844      
 1.05101005       0.000464751328   8.161287         0.999539958     -0.0037818956     0.999539958     -0.0037818956     0.000464751328   8.161287        
 1.06152015       0.000464896087   8.24087927       0.999539907     -0.00381971437    0.999539907     -0.00381971437    0.000464896087   8.24087927      
 1.07213535       0.000465042958   8.32122137       0.999539855     -0.00385791135    0.999539855     -0.00385791135    0.000465042958   8.32122137      
 1.08285671       0.000465191964   8.40232009       0.999539804     -0.00389649024    0.999539804     -0.00389649024    0.000465191964   8.40232009      
 1.09368527       0.000465343155   8.48418143       0.999539752     -0.00393545495    0.999539752     -0.00393545495    0.000465343155   8.48418144      
 1.10462213       0.000465496562   8.56681216       0.999539699     -0.00397480924    0.999539699     -0.00397480924    0.000465496562   8.56681217      
 1.11566835       0.000465652232   8.65021841       0.999539647     -0.00401455711    0.999539647     -0.00401455711    0.000465652232   8.65021841      
 1.12682503       0.0004658102     8.73440691       0.999539594     -0.00405470243    0.999539594     -0.00405470243    0.0004658102     8.73440691      
 1.13809328       0.000465970507   8.81938379       0.999539541     -0.00409524936    0.999539541     -0.00409524936    0.000465970508   8.81938379      
 1.14947421       0.000466133195   8.90515636       0.999539488     -0.00413620156    0.999539488     -0.00413620156    0.000466133195   8.90515636      
 1.16096896       0.00046629831    8.99173051       0.999539435     -0.00417756338    0.999539435     -0.00417756338    0.00046629831    8.9917305       
 1.17257864       0.00046646589    9.07911327       0.999539381     -0.00421933879    0.999539381     -0.00421933879    0.00046646589    9.07911327      
 1.18430443       0.000466635983   9.16731122       0.999539327     -0.00426153191    0.999539327     -0.00426153191    0.000466635983   9.16731122      
 1.19614748       0.000466808631   9.256331         0.999539273     -0.00430414697    0.999539273     -0.00430414697    0.000466808631   9.256331        
 1.20810895       0.000466983884   9.34617906       0.999539218     -0.00434718828    0.999539218     -0.00434718828    0.000466983884   9.34617906      
 1.22019004       0.000467161785   9.43686263       0.999539163     -0.0043906599     0.999539163     -0.0043906599     0.000467161785   9.43686263      
 1.23239194       0.00046734238    9.52838834       0.999539108     -0.00443456622    0.999539108     -0.00443456622    0.00046734238    9.52838834      
 1.24471586       0.000467525721   9.62076275       0.999539053     -0.00447891165    0.999539053     -0.00447891165    0.000467525721   9.62076275      
 1.25716302       0.000467711857   9.71399292       0.999538997     -0.00452370049    0.999538997     -0.00452370049    0.000467711857   9.71399292      
 1.26973465       0.000467900838   9.80808544       0.999538941     -0.00456893729    0.999538941     -0.00456893728    0.000467900838   9.80808544      
 1.282432         0.000468092712   9.90304759       0.999538885     -0.00461462636    0.999538885     -0.00461462636    0.000468092711   9.90304759      
 1.29525631       0.000468287534   9.99888583       0.999538829     -0.0046607724     0.999538829     -0.0046607724     0.000468287534   9.99888583      
 1.30820888       0.000468485355   10.0956075       0.999538772     -0.00470737984    0.999538772     -0.00470737984    0.000468485355   10.0956074      
 1.32129097       0.000468686229   10.1932193       0.999538715     -0.00475445334    0.999538715     -0.00475445334    0.000468686229   10.1932193      
 1.33450388       0.00046889021    10.2917282       0.999538657     -0.00480199761    0.999538657     -0.00480199761    0.00046889021    10.2917282      
 1.34784892       0.000469097362   10.3911409       0.9995386       -0.00485001734    0.9995386       -0.00485001734    0.000469097362   10.391141       
 1.3613274        0.00046930773    10.491465        0.999538542     -0.00489851723    0.999538542     -0.00489851723    0.00046930773    10.491465       
 1.37494068       0.000469521375   10.5927074       0.999538484     -0.00494750209    0.999538484     -0.00494750209    0.000469521376   10.5927074      
 1.38869009       0.000469738365   10.6948746       0.999538425     -0.00499697687    0.999538425     -0.00499697687    0.000469738365   10.6948746      
 1.40257699       0.00046995875    10.7979742       0.999538366     -0.00504694631    0.999538366     -0.00504694631    0.00046995875    10.7979742      
 1.41660276       0.000470182591   10.9020132       0.999538307     -0.00509741545    0.999538307     -0.00509741545    0.000470182591   10.9020132      
 1.43076878       0.000470409957   11.0069985       0.999538248     -0.00514838928    0.999538248     -0.00514838928    0.000470409957   11.0069985      
 1.44507647       0.00047064091    11.1129371       0.999538188     -0.00519987285    0.999538188     -0.00519987285    0.00047064091    11.1129371      
 1.45952724       0.000470875512   11.2198363       0.999538128     -0.0052518713     0.999538128     -0.0052518713     0.000470875512   11.2198363      
 1.47412251       0.000471113829   11.327703        0.999538068     -0.00530438976    0.999538068     -0.00530438976    0.000471113829   11.327703       
 1.48886373       0.000471355928   11.4365446       0.999538007     -0.00535743333    0.999538007     -0.00535743333    0.000471355928   11.4365446      
 1.50375237       0.000471601874   11.5463683       0.999537946     -0.00541100729    0.999537946     -0.00541100729    0.000471601874   11.5463683      
 1.51878989       0.000471851742   11.657181        0.999537885     -0.005465117      0.999537885     -0.00546511699    0.000471851742   11.657181       
 1.53397779       0.000472105601   11.7689897       0.999537824     -0.00551976782    0.999537824     -0.00551976782    0.000472105601   11.7689897      
 1.54931757       0.000472363523   11.8818015       0.999537762     -0.00557496523    0.999537762     -0.00557496523    0.000472363523   11.8818015      
 1.56481075       0.000472625579   11.995624        0.9995377       -0.0056307145     0.9995377       -0.0056307145     0.000472625579   11.995624       
 1.58045885       0.000472891843   12.1104641       0.999537637     -0.00568702128    0.999537637     -0.00568702128    0.000472891843   12.1104641      
 1.59626344       0.000473162395   12.2263287       0.999537575     -0.00574389115    0.999537575     -0.00574389115    0.000473162395   12.2263286      
 1.61222608       0.000473437307   12.3432251       0.999537512     -0.0058013297     0.999537512     -0.00580132971    0.000473437307   12.3432251      
 1.62834834       0.000473716661   12.4611605       0.999537448     -0.00585934264    0.999537448     -0.00585934264    0.000473716661   12.4611605      
 1.64463182       0.000474000536   12.5801419       0.999537384     -0.00591793569    0.999537384     -0.00591793568    0.000474000536   12.5801419      
 1.66107814       0.000474289015   12.7001763       0.99953732      -0.00597711464    0.99953732      -0.00597711464    0.000474289015   12.7001763      
 1.67768892       0.000474582174   12.821271        0.999537256     -0.00603688542    0.999537256     -0.00603688542    0.000474582174   12.821271       
 1.69446581       0.000474880105   12.943433        0.999537191     -0.00609725387    0.999537191     -0.00609725387    0.000474880105   12.943433       
 1.71141047       0.000475182892   13.0666691       0.999537126     -0.00615822603    0.999537126     -0.00615822602    0.000475182892   13.0666691      
 1.72852457       0.000475490619   13.1909867       0.999537061     -0.00621980785    0.999537061     -0.00621980785    0.000475490619   13.1909867      
 1.74580982       0.000475803378   13.3163926       0.999536996     -0.00628200553    0.999536996     -0.00628200553    0.000475803378   13.3163926      
 1.76326792       0.000476121258   13.4428938       0.99953693      -0.00634482515    0.99953693      -0.00634482515    0.000476121257   13.4428938      
 1.7809006        0.000476444353   13.570497        0.999536863     -0.00640827303    0.999536863     -0.00640827303    0.000476444353   13.570497       
 1.7987096        0.000476772752   13.6992096       0.999536797     -0.00647235535    0.999536797     -0.00647235535    0.000476772752   13.6992096      
 1.8166967        0.000477106552   13.8290383       0.99953673      -0.00653707844    0.99953673      -0.00653707844    0.000477106552   13.8290383      
 1.83486367       0.000477445851   13.95999         0.999536662     -0.00660244875    0.999536662     -0.00660244875    0.000477445851   13.95999        
 1.8532123        0.000477790747   14.0920714       0.999536595     -0.00666847281    0.999536595     -0.00666847281    0.000477790747   14.0920713      
 1.87174443       0.000478141339   14.2252894       0.999536527     -0.00673515705    0.999536527     -0.00673515705    0.000478141339   14.2252894      
 1.89046187       0.000478497733   14.3596505       0.999536459     -0.00680250818    0.999536459     -0.00680250818    0.000478497733   14.3596505      
 1.90936649       0.000478860029   14.4951615       0.99953639      -0.00687053283    0.99953639      -0.00687053283    0.000478860029   14.4951615      
 1.92846015       0.000479228331   14.6318293       0.999536321     -0.00693923769    0.999536321     -0.00693923769    0.000479228331   14.6318293      
 1.94774475       0.000479602751   14.7696603       0.999536252     -0.00700862956    0.999536252     -0.00700862956    0.000479602751   14.7696603      
 1.9672222        0.000479983394   14.9086611       0.999536182     -0.00707871536    0.999536182     -0.00707871536    0.000479983394   14.9086611      
 1.98689442       0.000480370372   15.0488381       0.999536112     -0.00714950201    0.999536112     -0.00714950201    0.000480370372   15.0488381      
 2.00676337       0.000480763799   15.1901978       0.999536041     -0.00722099652    0.999536041     -0.00722099652    0.000480763799   15.1901978      
 2.026831         0.00048116379    15.3327465       0.999535971     -0.00729320597    0.999535971     -0.00729320597    0.00048116379    15.3327465      
 2.04709931       0.000481570461   15.4764905       0.9995359       -0.00736613754    0.9995359       -0.00736613754    0.000481570461   15.4764905      
 2.06757031       0.000481983932   15.6214361       0.999535828     -0.00743979835    0.999535828     -0.00743979835    0.000481983932   15.6214361      
 2.08824601       0.000482404321   15.7675892       0.999535756     -0.00751419584    0.999535756     -0.00751419584    0.000482404321   15.7675892      
 2.10912847       0.000482831752   15.9149563       0.999535684     -0.00758933725    0.999535684     -0.00758933725    0.000482831752   15.9149563      
 2.13021975       0.00048326635    16.0635431       0.999535612     -0.00766523005    0.999535612     -0.00766523005    0.00048326635    16.0635431      
 2.15152195       0.000483708243   16.2133556       0.999535539     -0.0077418818     0.999535539     -0.0077418818     0.000483708243   16.2133556      
 2.17303717       0.00048415756    16.3643994       0.999535465     -0.0078193001     0.999535465     -0.0078193001     0.00048415756    16.3643994      
 2.19476754       0.00048461443    16.5166807       0.999535392     -0.00789749248    0.999535392     -0.00789749248    0.00048461443    16.5166807      
 2.21671522       0.000485078988   16.6702047       0.999535318     -0.00797646681    0.999535318     -0.00797646681    0.000485078988   16.6702047      
 2.23888237       0.000485551369   16.8249771       0.999535243     -0.0080562309     0.999535243     -0.0080562309     0.000485551369   16.8249771      
 2.26127119       0.000486031711   16.9810035       0.999535169     -0.00813679259    0.999535169     -0.00813679259    0.000486031711   16.9810035      
 2.2838839        0.000486520153   17.1382889       0.999535093     -0.00821815991    0.999535093     -0.00821815991    0.000486520153   17.1382889      
 2.30672274       0.000487016842   17.2968386       0.999535018     -0.00830034089    0.999535018     -0.00830034089    0.000487016842   17.2968386      
 2.32978997       0.000487521917   17.4566579       0.999534942     -0.00838334366    0.999534942     -0.00838334366    0.000487521917   17.4566579      
 2.35308787       0.000488035528   17.6177516       0.999534866     -0.00846717647    0.999534866     -0.00846717647    0.000488035528   17.6177516      
 2.37661875       0.000488557825   17.7801245       0.999534789     -0.00855184761    0.999534789     -0.00855184761    0.000488557825   17.7801245      
 2.40038494       0.000489088957   17.9437815       0.999534712     -0.00863736541    0.999534712     -0.00863736541    0.000489088957   17.9437816      
 2.42438879       0.00048962908    18.1087273       0.999534635     -0.00872373834    0.999534635     -0.00872373834    0.00048962908    18.1087273      
 2.44863267       0.000490178352   18.2749658       0.999534557     -0.00881097509    0.999534557     -0.00881097509    0.000490178352   18.2749659      
 2.473119         0.000490736931   18.4425019       0.999534479     -0.00889908415    0.999534479     -0.00889908415    0.000490736931   18.4425019      
 2.49785019       0.000491304978   18.6113395       0.9995344       -0.00898807429    0.9995344       -0.00898807429    0.000491304978   18.6113395      
 2.52282869       0.00049188266    18.7814827       0.999534321     -0.0090779543     0.999534321     -0.0090779543     0.00049188266    18.7814827      
 2.54805698       0.000492470141   18.9529352       0.999534242     -0.00916873315    0.999534242     -0.00916873315    0.000492470141   18.9529352      
 2.57353755       0.000493067593   19.125701        0.999534162     -0.00926041974    0.999534162     -0.00926041974    0.000493067593   19.125701       
 2.59927293       0.000493675188   19.2997833       0.999534082     -0.0093530232     0.999534082     -0.0093530232     0.000493675188   19.2997833      
 2.62526565       0.000494293101   19.4751855       0.999534001     -0.00944655271    0.999534001     -0.00944655271    0.000494293101   19.4751855      
 2.65151831       0.000494921507   19.6519112       0.99953392      -0.00954101744    0.99953392      -0.00954101744    0.000494921506   19.6519112      
 2.67803349       0.00049556059    19.8299629       0.999533839     -0.00963642685    0.999533839     -0.00963642685    0.00049556059    19.8299629      
 2.70481383       0.000496210532   20.0093436       0.999533757     -0.00973279035    0.999533757     -0.00973279034    0.000496210532   20.0093436      
 2.73186197       0.000496871518   20.1900561       0.999533674     -0.00983011743    0.999533674     -0.00983011743    0.000496871518   20.1900561      
 2.75918059       0.000497543739   20.3721026       0.999533592     -0.00992841783    0.999533592     -0.00992841783    0.000497543739   20.3721026      
 2.78677239       0.000498227385   20.5554855       0.999533509     -0.0100277012     0.999533509     -0.0100277012     0.000498227385   20.5554855      
 2.81464012       0.000498922651   20.7402069       0.999533425     -0.0101279773     0.999533425     -0.0101279773     0.000498922651   20.7402069      
 2.84278652       0.000499629737   20.9262682       0.999533341     -0.0102292563     0.999533341     -0.0102292563     0.000499629737   20.9262682      
 2.87121438       0.00050034884    21.1136715       0.999533257     -0.010331548      0.999533257     -0.010331548      0.00050034884    21.1136715      
 2.89992653       0.000501080165   21.3024179       0.999533172     -0.0104348626     0.999533172     -0.0104348626     0.000501080165   21.3024179      
 2.92892579       0.000501823919   21.4925087       0.999533087     -0.0105392103     0.999533087     -0.0105392103     0.000501823919   21.4925087      
 2.95821505       0.000502580313   21.6839447       0.999533001     -0.0106446015     0.999533001     -0.0106446015     0.000502580313   21.6839447      
 2.9877972        0.000503349555   21.8767268       0.999532915     -0.0107510466     0.999532915     -0.0107510466     0.000503349555   21.8767268      
 3.01767517       0.000504131866   22.0708553       0.999532829     -0.0108585561     0.999532829     -0.0108585561     0.000504131866   22.0708553      
 3.04785192       0.000504927465   22.2663303       0.999532742     -0.0109671408     0.999532742     -0.0109671408     0.000504927465   22.2663303      
 3.07833044       0.00050573657    22.4631519       0.999532655     -0.0110768112     0.999532655     -0.0110768112     0.00050573657    22.4631519      
 3.10911375       0.000506559409   22.6613198       0.999532567     -0.0111875784     0.999532567     -0.0111875784     0.000506559409   22.6613198      
 3.14020489       0.00050739621    22.8608334       0.999532479     -0.0112994532     0.999532479     -0.0112994532     0.00050739621    22.8608334      
 3.17160693       0.000508247205   23.0616919       0.99953239      -0.0114124467     0.99953239      -0.0114124467     0.000508247205   23.0616918      
 3.203323         0.000509112629   23.2638941       0.999532301     -0.0115265702     0.999532301     -0.0115265702     0.000509112629   23.2638941      
 3.23535623       0.000509992722   23.4674386       0.999532211     -0.0116418349     0.999532211     -0.0116418349     0.000509992722   23.4674386      
 3.2677098        0.000510887722   23.6723239       0.999532121     -0.0117582522     0.999532121     -0.0117582522     0.000510887723   23.6723239      
 3.30038689       0.000511797878   23.878548        0.999532031     -0.0118758336     0.999532031     -0.0118758336     0.000511797878   23.878548       
 3.33339076       0.000512723437   24.0861085       0.99953194      -0.0119945909     0.99953194      -0.0119945909     0.000512723437   24.0861085      
 3.36672467       0.000513664649   24.2950031       0.999531848     -0.0121145357     0.999531848     -0.0121145357     0.000513664649   24.2950031      
 3.40039192       0.000514621773   24.5052286       0.999531756     -0.01223568       0.999531756     -0.01223568       0.000514621773   24.5052286      
 3.43439584       0.000515595066   24.716782        0.999531664     -0.0123580357     0.999531664     -0.0123580357     0.000515595066   24.716782       
 3.4687398        0.00051658479    24.9296601       0.999531571     -0.0124816148     0.999531571     -0.0124816148     0.00051658479    24.9296601      
 3.50342719       0.00051759121    25.1438589       0.999531478     -0.0126064298     0.999531478     -0.0126064298     0.00051759121    25.1438589      
