# MHz           S          MA           R         50
!Freq             MagS11           AngS11           MagS21           AngS21           MagS12           AngS12           MagS22           AngS22
 1                0.0224161179     15.5650956       0.978424455     -0.35223506       0.978424455     -0.35223506       0.0224161179     15.5650956      
 1.01             0.0224423535     15.705565        0.978414382     -0.355753794      0.978414382     -0.355753794      0.0224423535     15.705565       
 1.0201           0.0224689476     15.8471293       0.978404253     -0.359307659      0.978404253     -0.359307659      0.0224689476     15.8471293      
 1.030301         0.0224959063     15.9897928       0.978394067     -0.362897006      0.978394067     -0.362897006      0.0224959063     15.9897928      
 1.04060401       0.0225232353     16.1335599       0.978383826     -0.36652219       0.978383826     -0.36652219       0.0225232353     16.1335599      
 1.05101005       0.0225509406     16.2784347       0.978373527     -0.370183567      0.978373527     -0.370183567      0.0225509406     16.2784347      
 1.06152015       0.0225790283     16.4244213       0.978363172     -0.373881498      0.978363172     -0.373881498      0.0225790283     16.4244213      
 1.07213535       0.0226075047     16.5715237       0.978352759     -0.377616349      0.978352759     -0.377616349      0.0226075047     16.5715237      
 1.08285671       0.022636376      16.7197458       0.978342287     -0.381388487      0.978342287     -0.381388487      0.022636376      16.7197458      
 1.09368527       0.0226656485     16.8690913       0.978331758     -0.385198284      0.978331758     -0.385198284      0.0226656485     16.8690913      
 1.10462213       0.0226953289     17.0195639       0.978321169     -0.389046116      0.978321169     -0.389046116      0.0226953289     17.0195639      
 1.11566835       0.0227254236     17.1711672       0.978310521     -0.392932362      0.978310521     -0.392932362      0.0227254236     17.1711672      
 1.12682503       0.0227559393     17.3239045       0.978299814     -0.396857406      0.978299814     -0.396857406      0.0227559393     17.3239045      
 1.13809328       0.0227868828     17.4777793       0.978289046     -0.400821633      0.978289046     -0.400821633      0.0227868828     17.4777793      
 1.14947421       0.0228182611     17.6327946       0.978278218     -0.404825436      0.978278218     -0.404825436      0.0228182611     17.6327946      
 1.16096896       0.0228500811     17.7889535       0.978267328     -0.408869209      0.978267328     -0.408869209      0.0228500811     17.7889535      
 1.17257864       0.0228823499     17.946259        0.978256378     -0.41295335       0.978256378     -0.41295335       0.0228823499     17.946259       
 1.18430443       0.0229150748     18.1047138       0.978245365     -0.417078262      0.978245365     -0.417078262      0.0229150748     18.1047138      
 1.19614748       0.0229482631     18.2643206       0.97823429      -0.421244352      0.97823429      -0.421244352      0.0229482631     18.2643206      
 1.20810895       0.0229819221     18.4250818       0.978223152     -0.425452029      0.978223152     -0.425452029      0.0229819221     18.4250818      
 1.22019004       0.0230160596     18.5869999       0.978211951     -0.42970171       0.978211951     -0.42970171       0.0230160596     18.5869999      
 1.23239194       0.0230506831     18.750077        0.978200686     -0.433993812      0.978200686     -0.433993812      0.0230506831     18.750077       
 1.24471586       0.0230858004     18.9143151       0.978189356     -0.438328759      0.978189356     -0.438328759      0.0230858004     18.9143151      
 1.25716302       0.0231214194     19.0797162       0.978177962     -0.442706978      0.978177962     -0.442706978      0.0231214194     19.0797162      
 1.26973465       0.0231575481     19.2462819       0.978166503     -0.447128901      0.978166503     -0.447128901      0.0231575481     19.2462819      
 1.282432         0.0231941947     19.4140138       0.978154978     -0.451594963      0.978154978     -0.451594963      0.0231941947     19.4140138      
 1.29525631       0.0232313674     19.5829134       0.978143387     -0.456105604      0.978143387     -0.456105604      0.0232313674     19.5829134      
 1.30820888       0.0232690746     19.7529817       0.978131729     -0.460661269      0.978131729     -0.460661269      0.0232690746     19.7529817      
 1.32129097       0.0233073249     19.9242199       0.978120003     -0.465262407      0.978120003     -0.465262407      0.0233073249     19.9242199      
 1.33450388       0.0233461267     20.0966287       0.97810821      -0.469909471      0.97810821      -0.469909471      0.0233461267     20.0966287      
 1.34784892       0.0233854889     20.2702088       0.978096349     -0.474602919      0.978096349     -0.474602919      0.0233854889     20.2702088      
 1.3613274        0.0234254203     20.4449607       0.978084419     -0.479343213      0.978084419     -0.479343213      0.0234254203     20.4449607      
 1.37494068       0.02346593       20.6208847       0.978072419     -0.484130821      0.978072419     -0.484130821      0.02346593       20.6208847      
 1.38869009       0.0235070271     20.7979807       0.978060349     -0.488966214      0.978060349     -0.488966214      0.0235070271     20.7979807      
 1.40257699       0.0235487209     20.9762487       0.978048209     -0.493849869      0.978048209     -0.493849869      0.0235487209     20.9762487      
 1.41660276       0.0235910207     21.1556884       0.978035998     -0.498782266      0.978035998     -0.498782266      0.0235910207     21.1556884      
 1.43076878       0.023633936      21.3362991       0.978023715     -0.503763892      0.978023715     -0.503763892      0.023633936      21.3362991      
 1.44507647       0.0236774766     21.5180801       0.978011361     -0.508795238      0.978011361     -0.508795238      0.0236774766     21.5180801      
 1.45952724       0.0237216523     21.7010304       0.977998933     -0.513876798      0.977998933     -0.513876798      0.0237216523     21.7010304      
 1.47412251       0.0237664729     21.8851488       0.977986432     -0.519009074      0.977986432     -0.519009074      0.0237664729     21.8851488      
 1.48886373       0.0238119486     22.0704338       0.977973857     -0.524192571      0.977973857     -0.524192571      0.0238119486     22.0704338      
 1.50375237       0.0238580896     22.2568837       0.977961207     -0.5294278        0.977961207     -0.5294278        0.0238580896     22.2568837      
 1.51878989       0.0239049061     22.4444967       0.977948483     -0.534715276      0.977948483     -0.534715276      0.0239049061     22.4444967      
 1.53397779       0.0239524089     22.6332706       0.977935682     -0.54005552       0.977935682     -0.54005552       0.0239524089     22.6332706      
 1.54931757       0.0240006083     22.8232029       0.977922805     -0.545449058      0.977922805     -0.545449058      0.0240006083     22.8232029      
 1.56481075       0.0240495154     23.0142911       0.977909851     -0.550896421      0.977909851     -0.550896421      0.0240495154     23.0142911      
 1.58045885       0.0240991409     23.2065321       0.977896819     -0.556398146      0.977896819     -0.556398146      0.0240991409     23.2065321      
 1.59626344       0.0241494959     23.399923        0.977883709     -0.561954774      0.977883709     -0.561954774      0.0241494959     23.399923       
 1.61222608       0.0242005918     23.5944602       0.97787052      -0.567566853      0.97787052      -0.567566853      0.0242005918     23.5944602      
 1.62834834       0.0242524397     23.7901401       0.977857252     -0.573234935      0.977857252     -0.573234935      0.0242524397     23.7901401      
 1.64463182       0.0243050514     23.9869587       0.977843903     -0.578959578      0.977843903     -0.578959578      0.0243050514     23.9869587      
 1.66107814       0.0243584384     24.1849118       0.977830472     -0.584741346      0.977830472     -0.584741346      0.0243584384     24.1849118      
 1.67768892       0.0244126126     24.383995        0.977816961     -0.590580808      0.977816961     -0.590580808      0.0244126126     24.383995       
 1.69446581       0.024467586      24.5842034       0.977803366     -0.596478539      0.977803366     -0.596478539      0.024467586      24.5842034      
 1.71141047       0.0245233706     24.785532        0.977789689     -0.60243512       0.977789689     -0.60243512       0.0245233706     24.785532       
 1.72852457       0.0245799788     24.9879756       0.977775927     -0.608451137      0.977775927     -0.608451137      0.0245799788     24.9879756      
 1.74580982       0.024637423      25.1915284       0.977762081     -0.614527182      0.977762081     -0.614527182      0.024637423      25.1915284      
 1.76326792       0.0246957159     25.3961847       0.97774815      -0.620663853      0.97774815      -0.620663853      0.0246957159     25.3961847      
 1.7809006        0.0247548701     25.6019381       0.977734132     -0.626861755      0.977734132     -0.626861755      0.0247548701     25.6019381      
 1.7987096        0.0248148986     25.8087822       0.977720028     -0.633121498      0.977720028     -0.633121498      0.0248148986     25.8087822      
 1.8166967        0.0248758145     26.0167102       0.977705836     -0.639443697      0.977705836     -0.639443697      0.0248758145     26.0167102      
 1.83486367       0.0249376311     26.2257151       0.977691555     -0.645828974      0.977691555     -0.645828974      0.0249376311     26.2257151      
 1.8532123        0.0250003616     26.4357894       0.977677185     -0.652277959      0.977677185     -0.652277959      0.0250003616     26.4357894      
 1.87174443       0.0250640198     26.6469254       0.977662725     -0.658791286      0.977662725     -0.658791286      0.0250640198     26.6469254      
 1.89046187       0.0251286192     26.8591152       0.977648174     -0.665369595      0.977648174     -0.665369595      0.0251286192     26.8591152      
 1.90936649       0.0251941739     27.0723505       0.977633532     -0.672013535      0.977633532     -0.672013535      0.0251941739     27.0723505      
 1.92846015       0.0252606978     27.2866225       0.977618796     -0.678723758      0.977618796     -0.678723758      0.0252606978     27.2866225      
 1.94774475       0.0253282052     27.5019225       0.977603968     -0.685500926      0.977603968     -0.685500926      0.0253282052     27.5019225      
 1.9672222        0.0253967105     27.718241        0.977589045     -0.692345704      0.977589045     -0.692345704      0.0253967105     27.718241       
 1.98689442       0.0254662283     27.9355687       0.977574027     -0.699258766      0.977574027     -0.699258766      0.0254662283     27.9355687      
 2.00676337       0.0255367732     28.1538956       0.977558913     -0.706240793      0.977558913     -0.706240793      0.0255367732     28.1538956      
 2.026831         0.0256083602     28.3732114       0.977543702     -0.713292471      0.977543702     -0.713292471      0.0256083602     28.3732114      
 2.04709931       0.0256810043     28.5935058       0.977528393     -0.720414494      0.977528393     -0.720414494      0.0256810043     28.5935058      
 2.06757031       0.0257547208     28.8147678       0.977512985     -0.727607562      0.977512985     -0.727607562      0.0257547208     28.8147678      
 2.08824601       0.025829525      29.0369863       0.977497477     -0.734872382      0.977497477     -0.734872382      0.025829525      29.0369863      
 2.10912847       0.0259054326     29.2601498       0.977481869     -0.742209671      0.977481869     -0.742209671      0.0259054326     29.2601498      
 2.13021975       0.0259824594     29.4842466       0.977466159     -0.749620148      0.977466159     -0.749620148      0.0259824594     29.4842466      
 2.15152195       0.0260606211     29.7092645       0.977450346     -0.757104542      0.977450346     -0.757104542      0.0260606211     29.7092645      
 2.17303717       0.026139934      29.935191        0.977434429     -0.764663591      0.977434429     -0.764663591      0.026139934      29.935191       
 2.19476754       0.0262204143     30.1620135       0.977418408     -0.772298036      0.977418408     -0.772298036      0.0262204143     30.1620135      
 2.21671522       0.0263020785     30.3897188       0.977402281     -0.780008629      0.977402281     -0.780008629      0.0263020785     30.3897188      
 2.23888237       0.0263849431     30.6182936       0.977386047     -0.787796128      0.977386047     -0.787796128      0.0263849431     30.6182936      
 2.26127119       0.026469025      30.8477241       0.977369706     -0.795661298      0.977369706     -0.795661298      0.026469025      30.8477241      
 2.2838839        0.0265543411     31.0779963       0.977353255     -0.803604913      0.977353255     -0.803604913      0.0265543411     31.0779963      
 2.30672274       0.0266409086     31.3090959       0.977336694     -0.811627753      0.977336694     -0.811627753      0.0266409086     31.3090959      
 2.32978997       0.0267287448     31.5410082       0.977320022     -0.819730607      0.977320022     -0.819730607      0.0267287448     31.5410082      
 2.35308787       0.0268178673     31.7737183       0.977303238     -0.827914272      0.977303238     -0.827914272      0.0268178673     31.7737183      
 2.37661875       0.0269082936     32.0072108       0.977286341     -0.836179552      0.977286341     -0.836179552      0.0269082936     32.0072108      
 2.40038494       0.0270000417     32.2414702       0.977269328     -0.844527259      0.977269328     -0.844527259      0.0270000417     32.2414702      
 2.42438879       0.0270931296     32.4764807       0.9772522       -0.852958213      0.9772522       -0.852958213      0.0270931296     32.4764807      
 2.44863267       0.0271875754     32.712226        0.977234955     -0.861473243      0.977234955     -0.861473243      0.0271875754     32.712226       
 2.473119         0.0272833977     32.9486896       0.977217592     -0.870073186      0.977217592     -0.870073186      0.0272833977     32.9486896      
 2.49785019       0.027380615      33.1858548       0.977200109     -0.878758886      0.977200109     -0.878758886      0.027380615      33.1858548      
 2.52282869       0.0274792459     33.4237045       0.977182506     -0.887531198      0.977182506     -0.887531198      0.0274792459     33.4237045      
 2.54805698       0.0275793095     33.6622213       0.977164781     -0.896390982      0.977164781     -0.896390982      0.0275793095     33.6622213      
 2.57353755       0.0276808249     33.9013876       0.977146932     -0.90533911       0.977146932     -0.90533911       0.0276808249     33.9013876      
 2.59927293       0.0277838112     34.1411856       0.977128959     -0.91437646       0.977128959     -0.91437646       0.0277838112     34.1411856      
 2.62526565       0.0278882881     34.3815969       0.977110859     -0.923503919      0.977110859     -0.923503919      0.0278882881     34.3815969      
 2.65151831       0.0279942752     34.6226031       0.977092633     -0.932722385      0.977092633     -0.932722385      0.0279942752     34.6226031      
 2.67803349       0.0281017922     34.8641856       0.977074278     -0.942032762      0.977074278     -0.942032762      0.0281017922     34.8641856      
 2.70481383       0.0282108592     35.1063253       0.977055792     -0.951435965      0.977055792     -0.951435965      0.0282108592     35.1063253      
 2.73186197       0.0283214964     35.349003        0.977037176     -0.960932917      0.977037176     -0.960932917      0.0283214964     35.349003       
 2.75918059       0.0284337242     35.5921991       0.977018426     -0.970524551      0.977018426     -0.970524551      0.0284337242     35.5921991      
 2.78677239       0.028547563      35.835894        0.976999542     -0.980211808      0.976999542     -0.980211808      0.028547563      35.835894       
 2.81464012       0.0286630337     36.0800677       0.976980522     -0.98999564       0.976980522     -0.98999564       0.0286630337     36.0800677      
 2.84278652       0.0287801571     36.3247001       0.976961364     -0.999877006      0.976961364     -0.999877006      0.0287801571     36.3247001      
 2.87121438       0.0288989544     36.5697705       0.976942068     -1.00985688       0.976942068     -1.00985688       0.0288989544     36.5697705      
 2.89992653       0.0290194468     36.8152585       0.97692263      -1.01993623       0.97692263      -1.01993623       0.0290194468     36.8152585      
 2.92892579       0.0291416557     37.0611432       0.976903051     -1.03011606       0.976903051     -1.03011606       0.0291416557     37.0611432      
 2.95821505       0.0292656029     37.3074035       0.976883328     -1.04039736       0.976883328     -1.04039736       0.0292656029     37.3074035      
 2.9877972        0.02939131       37.5540181       0.97686346      -1.05078114       0.97686346      -1.05078114       0.02939131       37.5540181      
 3.01767517       0.0295187992     37.8009657       0.976843445     -1.06126842       0.976843445     -1.06126842       0.0295187992     37.8009657      
 3.04785192       0.0296480926     38.0482246       0.97682328      -1.07186023       0.97682328      -1.07186023       0.0296480926     38.0482246      
 3.07833044       0.0297792126     38.2957729       0.976802966     -1.08255761       0.976802966     -1.08255761       0.0297792126     38.2957729      
 3.10911375       0.0299121816     38.5435888       0.976782499     -1.09336161       0.976782499     -1.09336161       0.0299121816     38.5435888      
 3.14020489       0.0300470226     38.7916502       0.976761878     -1.10427328       0.976761878     -1.10427328       0.0300470226     38.7916502      
 3.17160693       0.0301837582     39.0399346       0.976741101     -1.1152937        0.976741101     -1.1152937        0.0301837582     39.0399346      
 3.203323         0.0303224117     39.2884198       0.976720166     -1.12642395       0.976720166     -1.12642395       0.0303224117     39.2884198      
 3.23535623       0.0304630064     39.5370832       0.976699072     -1.13766511       0.976699072     -1.13766511       0.0304630064     39.5370832      
 3.2677098        0.0306055656     39.785902        0.976677817     -1.1490183        0.976677817     -1.1490183        0.0306055656     39.785902       
 3.30038689       0.030750113      40.0348536       0.976656398     -1.16048462       0.976656398     -1.16048462       0.030750113      40.0348536      
 3.33339076       0.0308966725     40.2839151       0.976634813     -1.1720652        0.976634813     -1.1720652        0.0308966725     40.2839151      
 3.36672467       0.031045268      40.5330633       0.976613062     -1.18376118       0.976613062     -1.18376118       0.031045268      40.5330633      
 3.40039192       0.0311959238     40.7822753       0.976591141     -1.19557369       0.976591141     -1.19557369       0.0311959238     40.7822753      
 3.43439584       0.0313486642     41.0315279       0.976569048     -1.2075039        0.976569048     -1.2075039        0.0313486642     41.0315279      
 3.4687398        0.0315035138     41.2807978       0.976546782     -1.21955298       0.976546782     -1.21955298       0.0315035138     41.2807978      
 3.50342719       0.0316604973     41.5300618       0.97652434      -1.2317221        0.97652434      -1.2317221        0.0316604973     41.5300618      
