# MHz           S          MA           R         50

!Freq             MagS11           AngS11           MagS21           AngS21           MagS12           AngS12           MagS22           AngS22
 1                0.0175495956     16.4865279       0.983184544     -0.290237468      0.983184544     -0.290237468      0.0175495956     16.4865279      
 1.01             0.0175716015     16.6344318       0.983176625     -0.29313751       0.983176625     -0.29313751       0.0175716015     16.6344318      
 1.0201           0.0175939136     16.7834658       0.983168663     -0.296066517      0.983168663     -0.296066517      0.0175939136     16.7834658      
 1.030301         0.0176165369     16.9336336       0.983160657     -0.299024777      0.983160657     -0.299024777      0.0176165369     16.9336336      
 1.04060401       0.0176394764     17.0849392       0.983152607     -0.302012583      0.983152607     -0.302012583      0.0176394764     17.0849392      
 1.05101005       0.0176627373     17.2373861       0.983144513     -0.30503023       0.983144513     -0.30503023       0.0176627373     17.2373861      
 1.06152015       0.0176863247     17.3909779       0.983136375     -0.308078015      0.983136375     -0.308078015      0.0176863247     17.3909779      
 1.07213535       0.0177102439     17.5457182       0.983128192     -0.311156239      0.983128192     -0.311156239      0.0177102439     17.5457182      
 1.08285671       0.0177345003     17.7016101       0.983119965     -0.314265207      0.983119965     -0.314265207      0.0177345003     17.7016101      
 1.09368527       0.0177590993     17.8586569       0.983111692     -0.317405224      0.983111692     -0.317405224      0.0177590993     17.8586569      
 1.10462213       0.0177840465     18.0168616       0.983103373     -0.3205766        0.983103373     -0.3205766        0.0177840465     18.0168616      
 1.11566835       0.0178093474     18.1762271       0.983095008     -0.32377965       0.983095008     -0.32377965       0.0178093474     18.1762271      
 1.12682503       0.0178350078     18.3367563       0.983086597     -0.327014688      0.983086597     -0.327014688      0.0178350078     18.3367563      
 1.13809328       0.0178610334     18.4984517       0.98307814      -0.330282034      0.98307814      -0.330282034      0.0178610334     18.4984517      
 1.14947421       0.0178874301     18.6613159       0.983069636     -0.33358201       0.983069636     -0.33358201       0.0178874301     18.6613159      
 1.16096896       0.0179142039     18.8253511       0.983061084     -0.336914943      0.983061084     -0.336914943      0.0179142039     18.8253511      
 1.17257864       0.0179413608     18.9905595       0.983052485     -0.34028116       0.983052485     -0.34028116       0.0179413608     18.9905595      
 1.18430443       0.017968907      19.1569433       0.983043838     -0.343680994      0.983043838     -0.343680994      0.017968907      19.1569433      
 1.19614748       0.0179968486     19.3245042       0.983035143     -0.347114781      0.983035143     -0.347114781      0.0179968486     19.3245042      
 1.20810895       0.0180251921     19.4932439       0.983026399     -0.350582859      0.983026399     -0.350582859      0.0180251921     19.4932439      
 1.22019004       0.0180539438     19.6631639       0.983017606     -0.354085571      0.983017606     -0.354085571      0.0180539438     19.6631639      
 1.23239194       0.0180831102     19.8342657       0.983008764     -0.357623261      0.983008764     -0.357623261      0.0180831102     19.8342657      
 1.24471586       0.018112698      20.0065503       0.982999872     -0.36119628       0.982999872     -0.36119628       0.018112698      20.0065503      
 1.25716302       0.0181427139     20.1800188       0.982990931     -0.364804979      0.982990931     -0.364804979      0.0181427139     20.1800188      
 1.26973465       0.0181731646     20.354672        0.982981939     -0.368449715      0.982981939     -0.368449715      0.0181731646     20.354672       
 1.282432         0.0182040571     20.5305104       0.982972896     -0.372130847      0.982972896     -0.372130847      0.0182040571     20.5305104      
 1.29525631       0.0182353983     20.7075345       0.982963802     -0.375848738      0.982963802     -0.375848738      0.0182353983     20.7075345      
 1.30820888       0.0182671955     20.8857445       0.982954657     -0.379603755      0.982954657     -0.379603755      0.0182671955     20.8857445      
 1.32129097       0.0182994557     21.0651404       0.98294546      -0.383396269      0.98294546      -0.383396269      0.0182994557     21.0651404      
 1.33450388       0.0183321863     21.245722        0.98293621      -0.387226653      0.98293621      -0.387226653      0.0183321863     21.245722       
 1.34784892       0.0183653947     21.4274889       0.982926908     -0.391095286      0.982926908     -0.391095286      0.0183653947     21.4274889      
 1.3613274        0.0183990884     21.6104405       0.982917553     -0.395002549      0.982917553     -0.395002549      0.0183990884     21.6104405      
 1.37494068       0.0184332751     21.7945759       0.982908144     -0.398948827      0.982908144     -0.398948827      0.0184332751     21.7945759      
 1.38869009       0.0184679624     21.9798942       0.982898682     -0.40293451       0.982898682     -0.40293451       0.0184679624     21.9798942      
 1.40257699       0.0185031582     22.1663938       0.982889165     -0.406959991      0.982889165     -0.406959991      0.0185031582     22.1663938      
 1.41660276       0.0185388705     22.3540735       0.982879594     -0.411025667      0.982879594     -0.411025667      0.0185388705     22.3540735      
 1.43076878       0.0185751074     22.5429313       0.982869968     -0.415131938      0.982869968     -0.415131938      0.0185751074     22.5429313      
 1.44507647       0.0186118769     22.7329654       0.982860286     -0.419279211      0.982860286     -0.419279211      0.0186118769     22.7329654      
 1.45952724       0.0186491873     22.9241734       0.982850548     -0.423467893      0.982850548     -0.423467893      0.0186491873     22.9241734      
 1.47412251       0.0186870471     23.1165528       0.982840754     -0.427698398      0.982840754     -0.427698398      0.0186870471     23.1165528      
 1.48886373       0.0187254647     23.310101        0.982830903     -0.431971143      0.982830903     -0.431971143      0.0187254647     23.310101       
 1.50375237       0.0187644489     23.5048149       0.982820995     -0.43628655       0.982820995     -0.43628655       0.0187644489     23.5048149      
 1.51878989       0.0188040082     23.7006912       0.982811029     -0.440645044      0.982811029     -0.440645044      0.0188040082     23.7006912      
 1.53397779       0.0188441516     23.8977266       0.982801005     -0.445047055      0.982801005     -0.445047055      0.0188441516     23.8977266      
 1.54931757       0.0188848879     24.095917        0.982790923     -0.449493017      0.982790923     -0.449493017      0.0188848879     24.095917       
 1.56481075       0.0189262264     24.2952586       0.982780781     -0.453983367      0.982780781     -0.453983367      0.0189262264     24.2952586      
 1.58045885       0.0189681762     24.495747        0.98277058      -0.458518551      0.98277058      -0.458518551      0.0189681762     24.495747       
 1.59626344       0.0190107466     24.6973776       0.982760319     -0.463099013      0.982760319     -0.463099013      0.0190107466     24.6973776      
 1.61222608       0.0190539471     24.9001455       0.982749997     -0.467725206      0.982749997     -0.467725206      0.0190539471     24.9001455      
 1.62834834       0.0190977873     25.1040455       0.982739614     -0.472397586      0.982739614     -0.472397586      0.0190977873     25.1040455      
 1.64463182       0.0191422767     25.3090722       0.98272917      -0.477116614      0.98272917      -0.477116614      0.0191422767     25.3090722      
 1.66107814       0.0191874253     25.5152199       0.982718664     -0.481882754      0.982718664     -0.481882754      0.0191874253     25.5152199      
 1.67768892       0.0192332429     25.7224825       0.982708095     -0.486696478      0.982708095     -0.486696478      0.0192332429     25.7224825      
 1.69446581       0.0192797396     25.9308537       0.982697463     -0.491558259      0.982697463     -0.491558259      0.0192797396     25.9308537      
 1.71141047       0.0193269257     26.1403268       0.982686768     -0.496468576      0.982686768     -0.496468576      0.0193269257     26.1403268      
 1.72852457       0.0193748113     26.350895        0.982676008     -0.501427914      0.982676008     -0.501427914      0.0193748113     26.350895       
 1.74580982       0.0194234069     26.5625511       0.982665184     -0.506436761      0.982665184     -0.506436761      0.0194234069     26.5625511      
 1.76326792       0.0194727232     26.7752874       0.982654295     -0.511495612      0.982654295     -0.511495612      0.0194727232     26.7752874      
 1.7809006        0.0195227707     26.9890963       0.98264334      -0.516604964      0.98264334      -0.516604964      0.0195227707     26.9890963      
 1.7987096        0.0195735604     27.2039694       0.982632319     -0.521765322      0.982632319     -0.521765322      0.0195735604     27.2039694      
 1.8166967        0.019625103      27.4198984       0.982621231     -0.526977194      0.982621231     -0.526977194      0.019625103      27.4198984      
 1.83486367       0.0196774098     27.6368745       0.982610075     -0.532241094      0.982610075     -0.532241094      0.0196774098     27.6368745      
 1.8532123        0.0197304919     27.8548886       0.982598852     -0.53755754       0.982598852     -0.53755754       0.0197304919     27.8548886      
 1.87174443       0.0197843607     28.0739314       0.98258756      -0.542927057      0.98258756      -0.542927057      0.0197843607     28.0739314      
 1.89046187       0.0198390276     28.293993        0.982576199     -0.548350173      0.982576199     -0.548350173      0.0198390276     28.293993       
 1.90936649       0.0198945042     28.5150636       0.982564768     -0.553827424      0.982564768     -0.553827424      0.0198945042     28.5150636      
 1.92846015       0.0199508023     28.7371326       0.982553266     -0.559359348      0.982553266     -0.559359348      0.0199508023     28.7371326      
 1.94774475       0.0200079336     28.9601895       0.982541694     -0.564946491      0.982541694     -0.564946491      0.0200079336     28.9601895      
 1.9672222        0.0200659104     29.1842233       0.98253005      -0.570589404      0.98253005      -0.570589404      0.0200659104     29.1842233      
 1.98689442       0.0201247445     29.4092226       0.982518333     -0.576288642      0.982518333     -0.576288642      0.0201247445     29.4092226      
 2.00676337       0.0201844484     29.6351758       0.982506544     -0.582044767      0.982506544     -0.582044767      0.0201844484     29.6351758      
 2.026831         0.0202450344     29.862071        0.982494681     -0.587858346      0.982494681     -0.587858346      0.0202450344     29.862071       
 2.04709931       0.020306515      30.0898959       0.982482744     -0.593729952      0.982482744     -0.593729952      0.020306515      30.0898959      
 2.06757031       0.020368903      30.3186379       0.982470732     -0.599660164      0.982470732     -0.599660164      0.020368903      30.3186379      
 2.08824601       0.0204322112     30.5482841       0.982458644     -0.605649565      0.982458644     -0.605649565      0.0204322112     30.5482841      
 2.10912847       0.0204964524     30.7788212       0.98244648      -0.611698745      0.98244648      -0.611698745      0.0204964524     30.7788212      
 2.13021975       0.0205616398     31.0102358       0.982434239     -0.617808301      0.982434239     -0.617808301      0.0205616398     31.0102358      
 2.15152195       0.0206277866     31.2425139       0.982421921     -0.623978835      0.982421921     -0.623978835      0.0206277866     31.2425139      
 2.17303717       0.0206949061     31.4756413       0.982409524     -0.630210953      0.982409524     -0.630210953      0.0206949061     31.4756413      
 2.19476754       0.0207630119     31.7096037       0.982397047     -0.63650527       0.982397047     -0.63650527       0.0207630119     31.7096037      
 2.21671522       0.0208321176     31.9443861       0.982384491     -0.642862407      0.982384491     -0.642862407      0.0208321176     31.9443861      
 2.23888237       0.020902237      32.1799735       0.982371854     -0.649282988      0.982371854     -0.649282988      0.020902237      32.1799735      
 2.26127119       0.0209733839     32.4163503       0.982359135     -0.655767646      0.982359135     -0.655767646      0.0209733839     32.4163503      
 2.2838839        0.0210455724     32.6535011       0.982346335     -0.66231702       0.982346335     -0.66231702       0.0210455724     32.6535011      
 2.30672274       0.0211188168     32.8914096       0.982333451     -0.668931755      0.982333451     -0.668931755      0.0211188168     32.8914096      
 2.32978997       0.0211931313     33.1300595       0.982320483     -0.675612503      0.982320483     -0.675612503      0.0211931313     33.1300595      
 2.35308787       0.0212685304     33.3694343       0.982307431     -0.68235992       0.982307431     -0.68235992       0.0212685304     33.3694343      
 2.37661875       0.0213450288     33.6095171       0.982294294     -0.689174672      0.982294294     -0.689174672      0.0213450288     33.6095171      
 2.40038494       0.0214226411     33.8502906       0.98228107      -0.696057429      0.98228107      -0.696057429      0.0214226411     33.8502906      
 2.42438879       0.0215013823     34.0917373       0.982267759     -0.703008869      0.982267759     -0.703008869      0.0215013823     34.0917373      
 2.44863267       0.0215812674     34.3338396       0.982254359     -0.710029677      0.982254359     -0.710029677      0.0215812674     34.3338396      
 2.473119         0.0216623116     34.5765793       0.982240871     -0.717120543      0.982240871     -0.717120543      0.0216623116     34.5765793      
 2.49785019       0.0217445301     34.8199382       0.982227294     -0.724282166      0.982227294     -0.724282166      0.0217445301     34.8199382      
 2.52282869       0.0218279385     35.0638977       0.982213625     -0.73151525       0.982213625     -0.73151525       0.0218279385     35.0638977      
 2.54805698       0.0219125524     35.308439        0.982199865     -0.738820508      0.982199865     -0.738820508      0.0219125524     35.308439       
 2.57353755       0.0219983874     35.553543        0.982186013     -0.746198658      0.982186013     -0.746198658      0.0219983874     35.553543       
 2.59927293       0.0220854594     35.7991903       0.982172067     -0.753650427      0.982172067     -0.753650427      0.0220854594     35.7991903      
 2.62526565       0.0221737846     36.0453614       0.982158026     -0.761176549      0.982158026     -0.761176549      0.0221737846     36.0453614      
 2.65151831       0.0222633789     36.2920365       0.98214389      -0.768777763      0.98214389      -0.768777763      0.0222633789     36.2920365      
 2.67803349       0.0223542589     36.5391955       0.982129658     -0.776454818      0.982129658     -0.776454818      0.0223542589     36.5391955      
 2.70481383       0.0224464407     36.7868182       0.982115328     -0.784208469      0.982115328     -0.784208469      0.0224464407     36.7868182      
 2.73186197       0.0225399412     37.0348841       0.9821009       -0.792039479      0.9821009       -0.792039479      0.0225399412     37.0348841      
 2.75918059       0.0226347769     37.2833725       0.982086373     -0.79994862       0.982086373     -0.79994862       0.0226347769     37.2833725      
 2.78677239       0.0227309649     37.5322624       0.982071745     -0.807936668      0.982071745     -0.807936668      0.0227309649     37.5322624      
 2.81464012       0.022828522      37.7815328       0.982057016     -0.81600441       0.982057016     -0.81600441       0.022828522      37.7815328      
 2.84278652       0.0229274654     38.0311625       0.982042183     -0.824152639      0.982042183     -0.824152639      0.0229274654     38.0311625      
 2.87121438       0.0230278125     38.2811299       0.982027248     -0.832382157      0.982027248     -0.832382157      0.0230278125     38.2811299      
 2.89992653       0.0231295806     38.5314134       0.982012207     -0.840693774      0.982012207     -0.840693774      0.0231295806     38.5314134      
 2.92892579       0.0232327874     38.7819912       0.98199706      -0.849088308      0.98199706      -0.849088308      0.0232327874     38.7819912      
 2.95821505       0.0233374506     39.0328414       0.981981806     -0.857566582      0.981981806     -0.857566582      0.0233374506     39.0328414      
 2.9877972        0.023443588      39.2839418       0.981966444     -0.866129433      0.981966444     -0.866129433      0.023443588      39.2839418      
 3.01767517       0.0235512177     39.5352702       0.981950973     -0.874777701      0.981950973     -0.874777701      0.0235512177     39.5352702      
 3.04785192       0.0236603579     39.7868042       0.98193539      -0.883512237      0.98193539      -0.883512237      0.0236603579     39.7868042      
 3.07833044       0.0237710267     40.0385213       0.981919696     -0.8923339        0.981919696     -0.8923339        0.0237710267     40.0385213      
 3.10911375       0.0238832427     40.2903988       0.981903889     -0.901243558      0.981903889     -0.901243558      0.0238832427     40.2903988      
 3.14020489       0.0239970245     40.5424141       0.981887967     -0.910242086      0.981887967     -0.910242086      0.0239970245     40.5424141      
 3.17160693       0.0241123907     40.7945443       0.98187193      -0.919330369      0.98187193      -0.919330369      0.0241123907     40.7945443      
 3.203323         0.0242293603     41.0467665       0.981855775     -0.928509301      0.981855775     -0.928509301      0.0242293603     41.0467665      
 3.23535623       0.0243479523     41.2990577       0.981839502     -0.937779784      0.981839502     -0.937779784      0.0243479523     41.2990577      
 3.2677098        0.0244681858     41.5513948       0.981823109     -0.947142729      0.981823109     -0.947142729      0.0244681858     41.5513948      
 3.30038689       0.0245900801     41.8037548       0.981806596     -0.956599056      0.981806596     -0.956599056      0.0245900801     41.8037548      
 3.33339076       0.0247136548     42.0561143       0.981789959     -0.966149695      0.981789959     -0.966149695      0.0247136548     42.0561143      
 3.36672467       0.0248389294     42.3084503       0.981773199     -0.975795584      0.981773199     -0.975795584      0.0248389294     42.3084503      
 3.40039192       0.0249659236     42.5607395       0.981756314     -0.985537672      0.981756314     -0.985537672      0.0249659236     42.5607395      
 3.43439584       0.0250946574     42.8129586       0.981739302     -0.995376915      0.981739302     -0.995376915      0.0250946574     42.8129586      
 3.4687398        0.0252251507     43.0650842       0.981722161     -1.00531428       0.981722161     -1.00531428       0.0252251507     43.0650842      
 3.50342719       0.0253574239     43.3170932       0.981704891     -1.01535074       0.981704891     -1.01535074       0.0253574239     43.3170932      
