! 250R05L1R0CV4
! Data taken January 31, 2003
! Data taken on a HP 8720C VNA using a shunt-through test fixture and TRL* de-embedding
#	mhz	s	ma	r	50
0	0.00000	-90.00000	0.99999	0.00000	0.99999	0.00000	0.00000	-90.00000
50	0.00997	-100.27593	0.99741	-1.9112	0.99741	-1.9112	0.00997	-100.27593
70	0.01004	-94.64138	0.99937	-1.70029	0.99937	-1.70029	0.01004	-94.64138
90	0.01459	-92.47357	0.99999	-1.72655	0.99999	-1.72655	0.01459	-92.47357
110	0.02014	-90.28918	0.99871	-2.05459	0.99871	-2.05459	0.02014	-90.28918
130	0.02467	-88.19999	0.99531	-2.52226	0.99531	-2.52226	0.02467	-88.19999
150	0.02758	-89.91283	0.99311	-2.74063	0.99311	-2.74063	0.02758	-89.91283
170	0.03056	-89.04412	0.99905	-3.16396	0.99905	-3.16396	0.03056	-89.04412
190	0.03335	-88.5238	0.99654	-3.61609	0.99654	-3.61609	0.03335	-88.5238
210	0.03673	-89.52519	0.99613	-3.96944	0.99613	-3.96944	0.03673	-89.52519
230	0.04057	-91.44155	0.99965	-4.30831	0.99965	-4.30831	0.04057	-91.44155
250	0.04381	-91.88605	0.99999	-4.92885	0.99999	-4.92885	0.04381	-91.88605
270	0.0479	-91.48881	0.9974	-4.84843	0.9974	-4.84843	0.0479	-91.48881
290	0.05179	-91.92841	0.99717	-5.21996	0.99717	-5.21996	0.05179	-91.92841
310	0.05504	-92.00409	0.99616	-5.63825	0.99616	-5.63825	0.05504	-92.00409
330	0.05772	-91.56231	0.99452	-5.96414	0.99452	-5.96414	0.05772	-91.56231
350	0.06039	-91.49677	0.99593	-6.32449	0.99593	-6.32449	0.06039	-91.49677
370	0.06351	-92.6121	0.99795	-6.66984	0.99795	-6.66984	0.06351	-92.6121
390	0.06699	-93.72834	0.99635	-7.06903	0.99635	-7.06903	0.06699	-93.72834
410	0.07067	-94.64953	0.9960	-7.55713	0.9960	-7.55713	0.07067	-94.64953
430	0.07445	-95.03048	0.99753	-7.98871	0.99753	-7.98871	0.07445	-95.03048
450	0.07828	-94.37686	0.99741	-8.03788	0.99741	-8.03788	0.07828	-94.37686
470	0.08204	-94.16518	0.9968	-8.45981	0.9968	-8.45981	0.08204	-94.16518
490	0.07583	-96.77559	0.99719	-8.58082	0.99719	-8.58082	0.07583	-96.77559
510	0.07134	-98.88196	0.99347	-8.8672	0.99347	-8.8672	0.07134	-98.88196
530	0.07282	-99.78345	0.98762	-9.31454	0.98762	-9.31454	0.07282	-99.78345
550	0.07707	-101.40448	0.98869	-9.44779	0.98869	-9.44779	0.07707	-101.40448
570	0.08186	-101.78055	0.99139	-9.79368	0.99139	-9.79368	0.08186	-101.78055
590	0.08578	-102.11448	0.99052	-10.1198	0.99052	-10.1198	0.08578	-102.11448
610	0.08952	-102.2202	0.98994	-10.43416	0.98994	-10.43416	0.08952	-102.2202
630	0.09311	-101.94554	0.99074	-10.76799	0.99074	-10.76799	0.09311	-101.94554
650	0.0959	-101.17226	0.99118	-11.1757	0.99118	-11.1757	0.0959	-101.17226
670	0.09763	-101.46529	0.99298	-11.62634	0.99298	-11.62634	0.09763	-101.46529
690	0.09957	-102.60706	0.98916	-11.97325	0.98916	-11.97325	0.09957	-102.60706
710	0.10173	-103.79101	0.98699	-12.29202	0.98699	-12.29202	0.10173	-103.79101
730	0.10459	-104.80519	0.98855	-12.60995	0.98855	-12.60995	0.10459	-104.80519
750	0.10912	-106.03234	0.99073	-12.90612	0.99073	-12.90612	0.10912	-106.03234
770	0.11425	-107.1695	0.9910	-13.53636	0.9910	-13.53636	0.11425	-107.1695
790	0.11995	-107.63482	0.99005	-13.74963	0.99005	-13.74963	0.11995	-107.63482
810	0.12488	-107.38802	0.98819	-13.92061	0.98819	-13.92061	0.12488	-107.38802
830	0.12867	-106.68436	0.98507	-14.23334	0.98507	-14.23334	0.12867	-106.68436
850	0.13193	-106.07465	0.97968	-14.68124	0.97968	-14.68124	0.13193	-106.07465
870	0.13496	-106.09158	0.98706	-15.00239	0.98706	-15.00239	0.13496	-106.09158
890	0.13676	-106.52038	0.98734	-15.39605	0.98734	-15.39605	0.13676	-106.52038
910	0.13896	-107.01909	0.98579	-15.74913	0.98579	-15.74913	0.13896	-107.01909
930	0.14222	-107.50581	0.98513	-16.04181	0.98513	-16.04181	0.14222	-107.50581
950	0.14615	-108.15876	0.98558	-16.34749	0.98558	-16.34749	0.14615	-108.15876
970	0.15013	-108.27287	0.98209	-16.62152	0.98209	-16.62152	0.15013	-108.27287
990	0.15445	-108.57952	0.98227	-17.05112	0.98227	-17.05112	0.15445	-108.57952
1010	0.15823	-108.60401	0.98393	-17.46491	0.98393	-17.46491	0.15823	-108.60401
1030	0.1612	-108.3673	0.98502	-17.85897	0.98502	-17.85897	0.1612	-108.3673
1050	0.16375	-108.38599	0.98362	-18.39672	0.98362	-18.39672	0.16375	-108.38599
1070	0.16535	-108.84417	0.98219	-18.61382	0.98219	-18.61382	0.16535	-108.84417
1090	0.167	-109.31166	0.98241	-18.97719	0.98241	-18.97719	0.167	-109.31166
1110	0.16988	-109.85616	0.98306	-19.26537	0.98306	-19.26537	0.16988	-109.85616
1130	0.17391	-110.57809	0.98246	-19.53128	0.98246	-19.53128	0.17391	-110.57809
1150	0.17778	-111.61055	0.97849	-20.10219	0.97849	-20.10219	0.17778	-111.61055
1170	0.18147	-111.70414	0.97965	-20.32694	0.97965	-20.32694	0.18147	-111.70414
1190	0.18486	-112.05285	0.98004	-20.64173	0.98004	-20.64173	0.18486	-112.05285
1210	0.18842	-112.30783	0.97948	-20.98579	0.97948	-20.98579	0.18842	-112.30783
1230	0.19173	-112.51603	0.9781	-21.37726	0.9781	-21.37726	0.19173	-112.51603
1250	0.19352	-113.12029	0.97636	-21.91315	0.97636	-21.91315	0.19352	-113.12029
1270	0.19598	-113.61271	0.97512	-22.17497	0.97512	-22.17497	0.19598	-113.61271
1290	0.19831	-114.09453	0.9749	-22.52454	0.9749	-22.52454	0.19831	-114.09453
1310	0.20167	-114.64633	0.97581	-22.84239	0.97581	-22.84239	0.20167	-114.64633
1330	0.20555	-115.43387	0.97624	-23.1782	0.97624	-23.1782	0.20555	-115.43387
1350	0.20778	-116.70806	0.9729	-23.75081	0.9729	-23.75081	0.20778	-116.70806
1370	0.21279	-117.14605	0.97305	-24.06786	0.97305	-24.06786	0.21279	-117.14605
1390	0.21703	-117.5975	0.97251	-24.37077	0.97251	-24.37077	0.21703	-117.5975
1410	0.22161	-118.11768	0.97121	-24.78638	0.97121	-24.78638	0.22161	-118.11768
1430	0.22643	-118.64716	0.96976	-25.24479	0.96976	-25.24479	0.22643	-118.64716
1450	0.23018	-119.01181	0.96947	-25.47932	0.96947	-25.47932	0.23018	-119.01181
1470	0.23341	-119.33899	0.9677	-25.97279	0.9677	-25.97279	0.23341	-119.33899
1490	0.23763	-119.63857	0.96763	-26.45311	0.96763	-26.45311	0.23763	-119.63857
1510	0.24166	-119.91203	0.96759	-26.78879	0.96759	-26.78879	0.24166	-119.91203
1530	0.24489	-120.26127	0.96668	-27.06005	0.96668	-27.06005	0.24489	-120.26127
1550	0.24729	-120.88857	0.96475	-27.55882	0.96475	-27.55882	0.24729	-120.88857
1570	0.25052	-121.27994	0.96203	-27.90008	0.96203	-27.90008	0.25052	-121.27994
1590	0.25514	-122.04694	0.96026	-28.32553	0.96026	-28.32553	0.25514	-122.04694
1610	0.25966	-122.75618	0.9597	-28.67127	0.9597	-28.67127	0.25966	-122.75618
1630	0.2638	-123.2345	0.95938	-28.96205	0.95938	-28.96205	0.2638	-123.2345
1650	0.26851	-123.56906	0.95702	-29.4113	0.95702	-29.4113	0.26851	-123.56906
1670	0.27211	-123.77386	0.95708	-29.7253	0.95708	-29.7253	0.27211	-123.77386
1690	0.27602	-123.9335	0.95641	-30.04805	0.95641	-30.04805	0.27602	-123.9335
1710	0.27902	-124.1893	0.95599	-30.37076	0.95599	-30.37076	0.27902	-124.1893
1730	0.2814	-124.62737	0.95607	-30.74613	0.95607	-30.74613	0.2814	-124.62737
1750	0.28486	-125.27866	0.95617	-31.28835	0.95617	-31.28835	0.28486	-125.27866
1770	0.28859	-126.04529	0.95375	-31.77673	0.95375	-31.77673	0.28859	-126.04529
1790	0.29327	-126.39964	0.95181	-32.12344	0.95181	-32.12344	0.29327	-126.39964
1810	0.29782	-126.79043	0.94938	-32.41532	0.94938	-32.41532	0.29782	-126.79043
1830	0.30198	-127.24821	0.94744	-32.76314	0.94744	-32.76314	0.30198	-127.24821
1850	0.30632	-127.38535	0.94891	-33.30166	0.94891	-33.30166	0.30632	-127.38535
1870	0.30974	-127.64947	0.94564	-33.65591	0.94564	-33.65591	0.30974	-127.64947
1890	0.31335	-127.59691	0.94691	-33.83334	0.94691	-33.83334	0.31335	-127.59691
1910	0.31645	-127.90601	0.94679	-34.1102	0.94679	-34.1102	0.31645	-127.90601
1930	0.31881	-128.61027	0.94366	-34.56349	0.94366	-34.56349	0.31881	-128.61027
1950	0.32068	-129.09836	0.94024	-35.07094	0.94024	-35.07094	0.32068	-129.09836
1970	0.32416	-129.6768	0.93885	-35.37364	0.93885	-35.37364	0.32416	-129.6768
1990	0.3291	-130.30134	0.93587	-35.65809	0.93587	-35.65809	0.3291	-130.30134
2010	0.33363	-130.76949	0.93435	-36.10316	0.93435	-36.10316	0.33363	-130.76949
2030	0.3372	-131.07537	0.93441	-36.65384	0.93441	-36.65384	0.3372	-131.07537
2050	0.34064	-131.40974	0.93325	-37.02128	0.93325	-37.02128	0.34064	-131.40974
2070	0.34532	-131.88867	0.93094	-37.378	0.93094	-37.378	0.34532	-131.88867
2090	0.34882	-132.28903	0.92772	-37.77506	0.92772	-37.77506	0.34882	-132.28903
2110	0.35152	-132.81072	0.92655	-38.3037	0.92655	-38.3037	0.35152	-132.81072
2130	0.35392	-133.33947	0.9273	-38.82244	0.9273	-38.82244	0.35392	-133.33947
2150	0.35666	-133.44678	0.92673	-38.95713	0.92673	-38.95713	0.35666	-133.44678
2170	0.36086	-134.17006	0.9227	-39.43321	0.9227	-39.43321	0.36086	-134.17006
2190	0.36605	-134.62972	0.92004	-39.82614	0.92004	-39.82614	0.36605	-134.62972
2210	0.37115	-135.11774	0.91959	-40.2775	0.91959	-40.2775	0.37115	-135.11774
2230	0.37527	-135.69701	0.91947	-40.7889	0.91947	-40.7889	0.37527	-135.69701
2250	0.37774	-136.20133	0.91505	-41.22206	0.91505	-41.22206	0.37774	-136.20133
2270	0.38204	-136.23689	0.91636	-41.29019	0.91636	-41.29019	0.38204	-136.23689
2290	0.3873	-136.71185	0.91693	-41.9312	0.91693	-41.9312	0.3873	-136.71185
2310	0.39019	-137.15267	0.91384	-42.44009	0.91384	-42.44009	0.39019	-137.15267
2330	0.3917	-137.42134	0.90826	-42.64096	0.90826	-42.64096	0.3917	-137.42134
2350	0.3972	-137.71535	0.90541	-42.88699	0.90541	-42.88699	0.3972	-137.71535
2370	0.4027	-138.40154	0.90759	-43.59706	0.90759	-43.59706	0.4027	-138.40154
2390	0.40632	-138.88709	0.90518	-44.0433	0.90518	-44.0433	0.40632	-138.88709
2410	0.40975	-139.10354	0.90198	-44.32084	0.90198	-44.32084	0.40975	-139.10354
2430	0.41402	-139.29311	0.89992	-44.58849	0.89992	-44.58849	0.41402	-139.29311
2450	0.41944	-140.00868	0.89908	-45.06876	0.89908	-45.06876	0.41944	-140.00868
2470	0.42236	-140.52345	0.89804	-45.63515	0.89804	-45.63515	0.42236	-140.52345
2490	0.42589	-140.84166	0.89344	-46.02714	0.89344	-46.02714	0.42589	-140.84166
2510	0.43045	-141.14378	0.89024	-46.29234	0.89024	-46.29234	0.43045	-141.14378
2530	0.43574	-141.48755	0.8887	-46.58247	0.8887	-46.58247	0.43574	-141.48755
2550	0.44071	-141.80801	0.88442	-47.15338	0.88442	-47.15338	0.44071	-141.80801
2570	0.44533	-141.85553	0.88634	-47.55507	0.88634	-47.55507	0.44533	-141.85553
2590	0.44967	-142.19264	0.88412	-48.01808	0.88412	-48.01808	0.44967	-142.19264
2610	0.45227	-142.67826	0.88157	-48.48937	0.88157	-48.48937	0.45227	-142.67826
2630	0.45384	-143.10266	0.87931	-48.91552	0.87931	-48.91552	0.45384	-143.10266
2650	0.45731	-143.18746	0.87474	-49.24282	0.87474	-49.24282	0.45731	-143.18746
2670	0.46323	-143.62018	0.8751	-49.72518	0.8751	-49.72518	0.46323	-143.62018
2690	0.46765	-144.05083	0.87258	-50.16648	0.87258	-50.16648	0.46765	-144.05083
2710	0.47275	-144.34595	0.87002	-50.52901	0.87002	-50.52901	0.47275	-144.34595
2730	0.47829	-144.60771	0.86863	-50.90205	0.86863	-50.90205	0.47829	-144.60771
2750	0.48158	-145.17396	0.86804	-51.50189	0.86804	-51.50189	0.48158	-145.17396
2770	0.47884	-145.44741	0.86249	-51.9454	0.86249	-51.9454	0.47884	-145.44741
2790	0.48396	-145.57474	0.86079	-52.14221	0.86079	-52.14221	0.48396	-145.57474
2810	0.48987	-145.94474	0.85904	-52.62742	0.85904	-52.62742	0.48987	-145.94474
2830	0.49334	-146.5124	0.85617	-53.32696	0.85617	-53.32696	0.49334	-146.5124
2850	0.49495	-146.79886	0.85401	-53.55761	0.85401	-53.55761	0.49495	-146.79886
2870	0.49811	-147.19939	0.85301	-53.95149	0.85301	-53.95149	0.49811	-147.19939
2890	0.50354	-147.50761	0.84904	-54.24191	0.84904	-54.24191	0.50354	-147.50761
2910	0.50935	-147.67288	0.84618	-54.56454	0.84618	-54.56454	0.50935	-147.67288
2930	0.51463	-147.75787	0.84518	-54.98611	0.84518	-54.98611	0.51463	-147.75787
2950	0.51937	-147.93859	0.84347	-55.5044	0.84347	-55.5044	0.51937	-147.93859
2970	0.52198	-148.53212	0.84023	-56.02773	0.84023	-56.02773	0.52198	-148.53212
2990	0.52374	-148.80544	0.83655	-56.33061	0.83655	-56.33061	0.52374	-148.80544
3010	0.52647	-149.06055	0.83452	-56.57228	0.83452	-56.57228	0.52647	-149.06055
3030	0.5306	-149.53022	0.83317	-56.9479	0.83317	-56.9479	0.5306	-149.53022
3050	0.53512	-150.37792	0.82848	-57.68857	0.82848	-57.68857	0.53512	-150.37792
3070	0.53482	-150.97469	0.8226	-58.22738	0.8226	-58.22738	0.53482	-150.97469
3090	0.54149	-151.08361	0.82415	-58.44622	0.82415	-58.44622	0.54149	-151.08361
3110	0.5479	-151.13666	0.8246	-58.74097	0.8246	-58.74097	0.5479	-151.13666
3130	0.55175	-151.30457	0.82106	-59.20288	0.82106	-59.20288	0.55175	-151.30457
3150	0.55566	-151.49678	0.81629	-59.61852	0.81629	-59.61852	0.55566	-151.49678
3170	0.55821	-151.61874	0.81265	-59.80141	0.81265	-59.80141	0.55821	-151.61874
3190	0.56051	-152.06817	0.81004	-60.27065	0.81004	-60.27065	0.56051	-152.06817
3210	0.56322	-152.68402	0.80688	-60.76269	0.80688	-60.76269	0.56322	-152.68402
3230	0.56707	-153.22826	0.80297	-61.21343	0.80297	-61.21343	0.56707	-153.22826
3250	0.57284	-153.38581	0.79945	-61.7582	0.79945	-61.7582	0.57284	-153.38581
3270	0.57952	-154.21522	0.80139	-62.39667	0.80139	-62.39667	0.57952	-154.21522
3290	0.58325	-154.64463	0.7963	-62.7135	0.7963	-62.7135	0.58325	-154.64463
3310	0.58757	-154.70032	0.79193	-62.96689	0.79193	-62.96689	0.58757	-154.70032
3330	0.59307	-154.59663	0.79102	-63.28406	0.79102	-63.28406	0.59307	-154.59663
3350	0.59749	-154.73595	0.79128	-63.66125	0.79128	-63.66125	0.59749	-154.73595
3370	0.6001	-155.15115	0.78383	-64.14823	0.78383	-64.14823	0.6001	-155.15115
3390	0.60168	-155.56708	0.78093	-64.49542	0.78093	-64.49542	0.60168	-155.56708
3410	0.60509	-155.97253	0.7792	-64.99057	0.7792	-64.99057	0.60509	-155.97253
3430	0.6097	-156.34788	0.77606	-65.58758	0.77606	-65.58758	0.6097	-156.34788
3450	0.61135	-156.66508	0.76969	-65.9065	0.76969	-65.9065	0.61135	-156.66508
3470	0.61578	-156.96589	0.76944	-66.23209	0.76944	-66.23209	0.61578	-156.96589
3490	0.62074	-157.35302	0.76975	-66.73076	0.76975	-66.73076	0.62074	-157.35302
3510	0.62386	-157.73805	0.76669	-67.2142	0.76669	-67.2142	0.62386	-157.73805
3530	0.62621	-158.03537	0.76142	-67.539	0.76142	-67.539	0.62621	-158.03537
3550	0.63229	-158.16213	0.76021	-67.6066	0.76021	-67.6066	0.63229	-158.16213
3570	0.63509	-158.8209	0.75625	-68.34983	0.75625	-68.34983	0.63509	-158.8209
3590	0.63452	-159.19318	0.75225	-68.71695	0.75225	-68.71695	0.63452	-159.19318
3610	0.63844	-159.4351	0.75071	-69.06786	0.75071	-69.06786	0.63844	-159.4351
3630	0.64608	-159.76062	0.74968	-69.53226	0.74968	-69.53226	0.64608	-159.76062
3650	0.64815	-160.44145	0.74272	-70.00965	0.74272	-70.00965	0.64815	-160.44145
3670	0.65129	-160.4964	0.73976	-70.23214	0.73976	-70.23214	0.65129	-160.4964
3690	0.6551	-160.7013	0.73813	-70.73656	0.73813	-70.73656	0.6551	-160.7013
3710	0.65786	-161.1575	0.73428	-71.34148	0.73428	-71.34148	0.65786	-161.1575
3730	0.65948	-161.66345	0.72922	-71.80679	0.72922	-71.80679	0.65948	-161.66345
3750	0.66142	-161.71469	0.72854	-71.83372	0.72854	-71.83372	0.66142	-161.71469
3770	0.66673	-162.24125	0.72335	-72.35212	0.72335	-72.35212	0.66673	-162.24125
3790	0.67045	-162.5359	0.72127	-72.91598	0.72127	-72.91598	0.67045	-162.5359
3810	0.67344	-162.91419	0.71748	-73.36487	0.71748	-73.36487	0.67344	-162.91419
3830	0.67666	-163.44825	0.71168	-73.73438	0.71168	-73.73438	0.67666	-163.44825
3850	0.68119	-163.96681	0.70811	-74.25608	0.70811	-74.25608	0.68119	-163.96681
3870	0.68365	-164.10893	0.70774	-74.60239	0.70774	-74.60239	0.68365	-164.10893
3890	0.68835	-164.49113	0.70564	-74.94226	0.70564	-74.94226	0.68835	-164.49113
3910	0.691	-165.01162	0.70105	-75.4032	0.70105	-75.4032	0.691	-165.01162
3930	0.69201	-165.50253	0.69646	-75.89231	0.69646	-75.89231	0.69201	-165.50253
3950	0.69654	-165.72996	0.69762	-76.09628	0.69762	-76.09628	0.69654	-165.72996
3970	0.70143	-166.18207	0.69278	-76.52353	0.69278	-76.52353	0.70143	-166.18207
3990	0.70305	-166.54383	0.68626	-76.89384	0.68626	-76.89384	0.70305	-166.54383
4010	0.70545	-166.87596	0.68159	-77.2333	0.68159	-77.2333	0.70545	-166.87596
4030	0.70956	-167.23977	0.6795	-77.633	0.6795	-77.633	0.70956	-167.23977
4050	0.71325	-167.69721	0.6779	-78.24897	0.6779	-78.24897	0.71325	-167.69721
4070	0.71545	-168.24475	0.67537	-78.99908	0.67537	-78.99908	0.71545	-168.24475
4090	0.71678	-168.81509	0.66942	-79.33179	0.66942	-79.33179	0.71678	-168.81509
4110	0.71971	-169.18898	0.66523	-79.52532	0.66523	-79.52532	0.71971	-169.18898
4130	0.72367	-169.46221	0.66364	-79.86023	0.66364	-79.86023	0.72367	-169.46221
4150	0.72506	-170.04566	0.66112	-80.61942	0.66112	-80.61942	0.72506	-170.04566
4170	0.72792	-170.49608	0.653	-80.96064	0.653	-80.96064	0.72792	-170.49608
4190	0.73373	-170.6929	0.65165	-81.12053	0.65165	-81.12053	0.73373	-170.6929
4210	0.7387	-171.15267	0.65132	-81.60849	0.65132	-81.60849	0.7387	-171.15267
4230	0.74109	-171.78187	0.64823	-82.30215	0.64823	-82.30215	0.74109	-171.78187
4250	0.74123	-171.8769	0.6406	-82.44738	0.6406	-82.44738	0.74123	-171.8769
4270	0.74383	-172.18804	0.63743	-82.73305	0.63743	-82.73305	0.74383	-172.18804
4290	0.74665	-173.00357	0.63411	-83.40359	0.63411	-83.40359	0.74665	-173.00357
4310	0.74995	-173.65351	0.63065	-83.91545	0.63065	-83.91545	0.74995	-173.65351
4330	0.75475	-174.03739	0.62862	-84.26298	0.62862	-84.26298	0.75475	-174.03739
4350	0.76288	-174.62421	0.63105	-84.97841	0.63105	-84.97841	0.76288	-174.62421
4370	0.76196	-175.08968	0.61997	-85.22015	0.61997	-85.22015	0.76196	-175.08968
4390	0.76679	-175.31145	0.6155	-85.45075	0.6155	-85.45075	0.76679	-175.31145
4410	0.77041	-175.64159	0.61246	-85.89653	0.61246	-85.89653	0.77041	-175.64159
4430	0.77131	-176.12841	0.60897	-86.46925	0.60897	-86.46925	0.77131	-176.12841
4450	0.77346	-176.51645	0.60643	-86.76611	0.60643	-86.76611	0.77346	-176.51645
4470	0.77862	-177.22922	0.60191	-87.43177	0.60191	-87.43177	0.77862	-177.22922
4490	0.77796	-177.54422	0.59552	-87.72582	0.59552	-87.72582	0.77796	-177.54422
4510	0.78177	-177.6995	0.59368	-87.94262	0.59368	-87.94262	0.78177	-177.6995
4530	0.78987	-178.11854	0.59403	-88.39567	0.59403	-88.39567	0.78987	-178.11854
4550	0.79164	-179.41025	0.58545	-89.41759	0.58545	-89.41759	0.79164	-179.41025
4570	0.78958	-179.31475	0.57879	-89.19756	0.57879	-89.19756	0.78958	-179.31475
4590	0.79752	-179.61446	0.58216	-89.53518	0.58216	-89.53518	0.79752	-179.61446
4610	0.8021	180.0000	0.58079	-90.31584	0.58079	-90.31584	0.8021	180.0000
4630	0.80039	179.06752	0.5718	-91.05886	0.5718	-91.05886	0.80039	179.06752
4650	0.79995	178.71026	0.56413	-90.9175	0.56413	-90.9175	0.79995	178.71026
4670	0.80487	178.28243	0.56459	-91.38006	0.56459	-91.38006	0.80487	178.28243
4690	0.80459	177.69253	0.55942	-91.92724	0.55942	-91.92724	0.80459	177.69253
4710	0.80701	177.15232	0.55434	-92.37591	0.55434	-92.37591	0.80701	177.15232
4730	0.8131	176.66043	0.55107	-92.73823	0.55107	-92.73823	0.8131	176.66043
4750	0.81684	176.00238	0.54737	-93.22165	0.54737	-93.22165	0.81684	176.00238
4770	0.82004	175.8181	0.54339	-93.52953	0.54339	-93.52953	0.82004	175.8181
4790	0.82198	175.21109	0.54161	-94.18324	0.54161	-94.18324	0.82198	175.21109
4810	0.82215	174.72998	0.53716	-94.64249	0.53716	-94.64249	0.82215	174.72998
4830	0.82366	174.38607	0.53114	-94.86436	0.53114	-94.86436	0.82366	174.38607
4850	0.83317	173.65332	0.53059	-95.30333	0.53059	-95.30333	0.83317	173.65332
4870	0.83246	173.07589	0.52393	-95.72109	0.52393	-95.72109	0.83246	173.07589
4890	0.83377	172.83525	0.51929	-95.93455	0.51929	-95.93455	0.83377	172.83525
4910	0.83776	172.30244	0.51622	-96.46193	0.51622	-96.46193	0.83776	172.30244
4930	0.84212	171.52452	0.51274	-97.17375	0.51274	-97.17375	0.84212	171.52452
4950	0.84155	171.22461	0.50534	-97.29282	0.50534	-97.29282	0.84155	171.22461
4970	0.84333	171.11578	0.50368	-97.33095	0.50368	-97.33095	0.84333	171.11578
4990	0.84815	170.22341	0.50243	-98.25033	0.50243	-98.25033	0.84815	170.22341
5010	0.84756	169.53793	0.49574	-98.93151	0.49574	-98.93151	0.84756	169.53793
5030	0.84442	169.29153	0.4869	-99.05504	0.4869	-99.05504	0.84442	169.29153
5050	0.85295	168.95823	0.48829	-99.10145	0.48829	-99.10145	0.85295	168.95823
5070	0.85853	167.80636	0.48277	-100.10627	0.48277	-100.10627	0.85853	167.80636
