! 250R05L0R5CV4
! Data taken January 31, 2003
! Data taken on a HP 8720C VNA using a shunt-through test fixture and TRL* de-embedding
#	mhz	s	ma	r	50
0	0.00000	-90.00000	0.99999	0.00000	0.99999	0.00000	0.00000	-90.00000
50	0.01337	-109.58562	0.98854	-1.23118	0.98854	-1.23118	0.01337	-109.58562
70	0.00915	-100.94813	0.99573	-1.25877	0.99573	-1.25877	0.00915	-100.94813
90	0.00926	-91.85587	0.9998	-1.40323	0.9998	-1.40323	0.00926	-91.85587
110	0.01206	-86.19264	0.99999	-1.70768	0.99999	-1.70768	0.01206	-86.19264
130	0.01584	-85.58235	0.99976	-2.09836	0.99976	-2.09836	0.01584	-85.58235
150	0.01878	-89.38907	0.99999	-2.38464	0.99999	-2.38464	0.01878	-89.38907
170	0.02035	-87.11668	0.99753	-2.54967	0.99753	-2.54967	0.02035	-87.11668
190	0.0219	-85.90672	0.99509	-2.93256	0.99509	-2.93256	0.0219	-85.90672
210	0.02378	-86.36568	0.99548	-3.20959	0.99548	-3.20959	0.02378	-86.36568
230	0.02607	-88.00565	0.99723	-3.38961	0.99723	-3.38961	0.02607	-88.00565
250	0.02863	-89.24429	0.99647	-3.81407	0.99647	-3.81407	0.02863	-89.24429
270	0.03121	-89.97235	0.99663	-3.87112	0.99663	-3.87112	0.03121	-89.97235
290	0.03344	-89.13798	0.99806	-4.32756	0.99806	-4.32756	0.03344	-89.13798
310	0.03556	-88.26396	0.99722	-4.60797	0.99722	-4.60797	0.03556	-88.26396
330	0.03758	-88.01636	0.99478	-4.69086	0.99478	-4.69086	0.03758	-88.01636
350	0.03933	-88.20462	0.99559	-5.10873	0.99559	-5.10873	0.03933	-88.20462
370	0.04053	-89.26829	0.99804	-5.27481	0.99804	-5.27481	0.04053	-89.26829
390	0.04268	-90.45283	0.99731	-5.65996	0.99731	-5.65996	0.04268	-90.45283
410	0.04518	-91.23909	0.99714	-6.01859	0.99714	-6.01859	0.04518	-91.23909
430	0.0478	-91.49221	0.99848	-6.27407	0.99848	-6.27407	0.0478	-91.49221
450	0.0507	-91.46162	0.99944	-6.51871	0.99944	-6.51871	0.0507	-91.46162
470	0.05269	-90.60789	0.99743	-6.7608	0.99743	-6.7608	0.05269	-90.60789
490	0.04679	-93.5269	0.99783	-6.97917	0.99783	-6.97917	0.04679	-93.5269
510	0.04273	-95.8969	0.99434	-7.26806	0.99434	-7.26806	0.04273	-95.8969
530	0.04376	-96.96902	0.98922	-7.57587	0.98922	-7.57587	0.04376	-96.96902
550	0.04655	-99.56731	0.99331	-7.70515	0.99331	-7.70515	0.04655	-99.56731
570	0.04971	-100.35134	0.99458	-7.98626	0.99458	-7.98626	0.04971	-100.35134
590	0.05244	-100.05985	0.9943	-8.18726	0.9943	-8.18726	0.05244	-100.05985
610	0.05498	-99.69258	0.99444	-8.4411	0.99444	-8.4411	0.05498	-99.69258
630	0.05724	-99.28688	0.99507	-8.7554	0.99507	-8.7554	0.05724	-99.28688
650	0.05879	-97.9177	0.99433	-9.01249	0.99433	-9.01249	0.05879	-97.9177
670	0.05925	-97.93601	0.99698	-9.28661	0.99698	-9.28661	0.05925	-97.93601
690	0.05983	-99.23509	0.99378	-9.73231	0.99378	-9.73231	0.05983	-99.23509
710	0.06097	-100.86064	0.99238	-10.04826	0.99238	-10.04826	0.06097	-100.86064
730	0.06288	-102.49977	0.99428	-10.19053	0.99428	-10.19053	0.06288	-102.49977
750	0.06555	-104.48102	0.99477	-10.37261	0.99477	-10.37261	0.06555	-104.48102
770	0.06972	-105.50556	0.99511	-10.76521	0.99511	-10.76521	0.06972	-105.50556
790	0.07422	-105.89451	0.99534	-11.0077	0.99534	-11.0077	0.07422	-105.89451
810	0.07803	-105.47163	0.99422	-11.18384	0.99422	-11.18384	0.07803	-105.47163
830	0.08077	-104.38888	0.9918	-11.43832	0.9918	-11.43832	0.08077	-104.38888
850	0.08274	-103.12648	0.98943	-11.97676	0.98943	-11.97676	0.08274	-103.12648
870	0.08439	-102.74094	0.99247	-12.02886	0.99247	-12.02886	0.08439	-102.74094
890	0.08531	-102.88535	0.99193	-12.36137	0.99193	-12.36137	0.08531	-102.88535
910	0.08647	-103.39705	0.99156	-12.61989	0.99156	-12.61989	0.08647	-103.39705
930	0.08829	-104.09949	0.99247	-12.80101	0.99247	-12.80101	0.08829	-104.09949
950	0.09066	-104.80222	0.99312	-13.25221	0.99312	-13.25221	0.09066	-104.80222
970	0.09347	-105.13881	0.99248	-13.51019	0.99248	-13.51019	0.09347	-105.13881
990	0.09694	-105.10533	0.99151	-13.71245	0.99151	-13.71245	0.09694	-105.10533
1010	0.09971	-104.72837	0.9915	-14.01605	0.9915	-14.01605	0.09971	-104.72837
1030	0.10146	-104.10019	0.99176	-14.38717	0.99176	-14.38717	0.10146	-104.10019
1050	0.10287	-103.37872	0.98954	-14.6011	0.98954	-14.6011	0.10287	-103.37872
1070	0.10399	-103.91613	0.99178	-14.93763	0.99178	-14.93763	0.10399	-103.91613
1090	0.10446	-104.43365	0.99156	-15.20281	0.99156	-15.20281	0.10446	-104.43365
1110	0.10538	-105.07036	0.99162	-15.35969	0.99162	-15.35969	0.10538	-105.07036
1130	0.10729	-105.89818	0.99165	-15.5288	0.99165	-15.5288	0.10729	-105.89818
1150	0.11019	-106.9219	0.9883	-15.98817	0.9883	-15.98817	0.11019	-106.9219
1170	0.11295	-107.2195	0.98892	-16.2842	0.98892	-16.2842	0.11295	-107.2195
1190	0.11554	-107.38918	0.98928	-16.64246	0.98928	-16.64246	0.11554	-107.38918
1210	0.11761	-107.37828	0.98888	-16.96857	0.98888	-16.96857	0.11761	-107.37828
1230	0.11927	-107.3538	0.98813	-17.24385	0.98813	-17.24385	0.11927	-107.3538
1250	0.12114	-107.70233	0.98832	-17.52521	0.98832	-17.52521	0.12114	-107.70233
1270	0.12207	-107.80374	0.98886	-17.79141	0.98886	-17.79141	0.12207	-107.80374
1290	0.12324	-108.45644	0.98626	-18.2055	0.98626	-18.2055	0.12324	-108.45644
1310	0.12472	-109.29386	0.98745	-18.53217	0.98745	-18.53217	0.12472	-109.29386
1330	0.12654	-110.13937	0.99119	-18.7599	0.99119	-18.7599	0.12654	-110.13937
1350	0.12864	-111.00628	0.98799	-19.10095	0.98799	-19.10095	0.12864	-111.00628
1370	0.13165	-111.79736	0.98871	-19.27225	0.98871	-19.27225	0.13165	-111.79736
1390	0.13491	-112.40956	0.98744	-19.43477	0.98744	-19.43477	0.13491	-112.40956
1410	0.13798	-112.84571	0.98669	-19.75732	0.98669	-19.75732	0.13798	-112.84571
1430	0.14075	-113.19205	0.98626	-20.16524	0.98626	-20.16524	0.14075	-113.19205
1450	0.14336	-113.6182	0.98331	-20.34043	0.98331	-20.34043	0.14336	-113.6182
1470	0.14629	-113.84533	0.98303	-20.6535	0.98303	-20.6535	0.14629	-113.84533
1490	0.14872	-114.07483	0.98523	-21.11017	0.98523	-21.11017	0.14872	-114.07483
1510	0.15083	-114.29365	0.98627	-21.46002	0.98627	-21.46002	0.15083	-114.29365
1530	0.15268	-114.51374	0.9852	-21.69067	0.9852	-21.69067	0.15268	-114.51374
1550	0.15419	-114.77197	0.98374	-22.02783	0.98374	-22.02783	0.15419	-114.77197
1570	0.1567	-115.33855	0.98241	-22.21461	0.98241	-22.21461	0.1567	-115.33855
1590	0.15919	-116.14865	0.98255	-22.57924	0.98255	-22.57924	0.15919	-116.14865
1610	0.162	-116.75294	0.98298	-22.93827	0.98298	-22.93827	0.162	-116.75294
1630	0.16524	-117.08126	0.98351	-23.21784	0.98351	-23.21784	0.16524	-117.08126
1650	0.16886	-117.44264	0.9849	-23.45362	0.9849	-23.45362	0.16886	-117.44264
1670	0.17098	-117.27401	0.97959	-23.71843	0.97959	-23.71843	0.17098	-117.27401
1690	0.17374	-117.48651	0.97923	-23.9681	0.97923	-23.9681	0.17374	-117.48651
1710	0.17619	-117.70315	0.97981	-24.34774	0.97981	-24.34774	0.17619	-117.70315
1730	0.17792	-117.87626	0.98018	-24.76156	0.98018	-24.76156	0.17792	-117.87626
1750	0.17901	-118.28752	0.98205	-24.87276	0.98205	-24.87276	0.17901	-118.28752
1770	0.18059	-118.92878	0.97937	-25.42437	0.97937	-25.42437	0.18059	-118.92878
1790	0.18355	-119.29502	0.97926	-25.56333	0.97926	-25.56333	0.18355	-119.29502
1810	0.18688	-119.76927	0.97883	-25.78911	0.97883	-25.78911	0.18688	-119.76927
1830	0.1902	-120.31083	0.97817	-26.18073	0.97817	-26.18073	0.1902	-120.31083
1850	0.19372	-120.45525	0.98029	-26.39674	0.98029	-26.39674	0.19372	-120.45525
1870	0.19559	-120.22944	0.97746	-26.8465	0.97746	-26.8465	0.19559	-120.22944
1890	0.19876	-120.26259	0.97705	-27.0462	0.97705	-27.0462	0.19876	-120.26259
1910	0.20087	-120.45051	0.97676	-27.29535	0.97676	-27.29535	0.20087	-120.45051
1930	0.20169	-120.70742	0.97567	-27.62567	0.97567	-27.62567	0.20169	-120.70742
1950	0.20311	-120.96597	0.97434	-27.80108	0.97434	-27.80108	0.20311	-120.96597
1970	0.20426	-121.67789	0.97133	-28.17437	0.97133	-28.17437	0.20426	-121.67789
1990	0.20719	-122.21062	0.97092	-28.40145	0.97092	-28.40145	0.20719	-122.21062
2010	0.20995	-122.61861	0.97211	-28.69033	0.97211	-28.69033	0.20995	-122.61861
2030	0.21237	-122.97112	0.97312	-29.06073	0.97312	-29.06073	0.21237	-122.97112
2050	0.21607	-123.35227	0.97141	-29.34412	0.97141	-29.34412	0.21607	-123.35227
2070	0.21818	-123.3786	0.97161	-29.75294	0.97161	-29.75294	0.21818	-123.3786
2090	0.22045	-123.50837	0.96807	-30.11469	0.96807	-30.11469	0.22045	-123.50837
2110	0.22225	-123.94754	0.96721	-30.53698	0.96721	-30.53698	0.22225	-123.94754
2130	0.22354	-124.53501	0.96899	-30.90029	0.96899	-30.90029	0.22354	-124.53501
2150	0.22486	-124.74261	0.96685	-30.858	0.96685	-30.858	0.22486	-124.74261
2170	0.22751	-125.26784	0.96624	-31.27709	0.96624	-31.27709	0.22751	-125.26784
2190	0.23072	-125.70108	0.96486	-31.63866	0.96486	-31.63866	0.23072	-125.70108
2210	0.2342	-126.11193	0.96502	-31.94268	0.96502	-31.94268	0.2342	-126.11193
2230	0.23738	-126.54523	0.9659	-32.25596	0.9659	-32.25596	0.23738	-126.54523
2250	0.23941	-127.02108	0.96355	-32.71211	0.96355	-32.71211	0.23941	-127.02108
2270	0.24221	-126.91626	0.96439	-32.76807	0.96439	-32.76807	0.24221	-126.91626
2290	0.24541	-127.08178	0.96554	-33.27266	0.96554	-33.27266	0.24541	-127.08178
2310	0.24782	-127.39825	0.96396	-33.65969	0.96396	-33.65969	0.24782	-127.39825
2330	0.24957	-127.75197	0.95992	-33.81707	0.95992	-33.81707	0.24957	-127.75197
2350	0.25216	-128.03493	0.9571	-34.08681	0.9571	-34.08681	0.25216	-128.03493
2370	0.25524	-128.47894	0.96071	-34.4307	0.96071	-34.4307	0.25524	-128.47894
2390	0.25838	-128.91422	0.95999	-34.78969	0.95999	-34.78969	0.25838	-128.91422
2410	0.26082	-129.12303	0.95761	-35.02096	0.95761	-35.02096	0.26082	-129.12303
2430	0.26298	-129.22785	0.95612	-35.20124	0.95612	-35.20124	0.26298	-129.22785
2450	0.26647	-129.69131	0.95796	-35.62679	0.95796	-35.62679	0.26647	-129.69131
2470	0.26976	-130.07893	0.95728	-36.02935	0.95728	-36.02935	0.26976	-130.07893
2490	0.27212	-130.42236	0.95466	-36.36213	0.95466	-36.36213	0.27212	-130.42236
2510	0.27486	-130.69905	0.95424	-36.63908	0.95424	-36.63908	0.27486	-130.69905
2530	0.2784	-130.94923	0.95553	-36.90712	0.95553	-36.90712	0.2784	-130.94923
2550	0.28224	-131.27597	0.95343	-37.24622	0.95343	-37.24622	0.28224	-131.27597
2570	0.28544	-131.09774	0.95235	-37.42708	0.95235	-37.42708	0.28544	-131.09774
2590	0.28817	-131.27483	0.95158	-37.87235	0.95158	-37.87235	0.28817	-131.27483
2610	0.28978	-131.62185	0.95029	-38.33147	0.95029	-38.33147	0.28978	-131.62185
2630	0.29107	-131.96266	0.94865	-38.69119	0.94865	-38.69119	0.29107	-131.96266
2650	0.29441	-132.13046	0.94786	-38.97556	0.94786	-38.97556	0.29441	-132.13046
2670	0.29783	-132.20314	0.9478	-39.21023	0.9478	-39.21023	0.29783	-132.20314
2690	0.30055	-132.49687	0.94622	-39.47223	0.94622	-39.47223	0.30055	-132.49687
2710	0.30356	-132.72786	0.94497	-39.80957	0.94497	-39.80957	0.30356	-132.72786
2730	0.30679	-132.92947	0.94491	-40.22047	0.94491	-40.22047	0.30679	-132.92947
2750	0.30917	-133.45217	0.94586	-40.65343	0.94586	-40.65343	0.30917	-133.45217
2770	0.30816	-133.60457	0.94194	-40.94727	0.94194	-40.94727	0.30816	-133.60457
2790	0.31168	-133.57391	0.94155	-41.17873	0.94155	-41.17873	0.31168	-133.57391
2810	0.31572	-133.72258	0.94071	-41.57623	0.94071	-41.57623	0.31572	-133.72258
2830	0.31828	-134.12632	0.93873	-42.07796	0.93873	-42.07796	0.31828	-134.12632
2850	0.3194	-134.57419	0.93824	-42.33186	0.93824	-42.33186	0.3194	-134.57419
2870	0.32094	-134.83634	0.93924	-42.41583	0.93924	-42.41583	0.32094	-134.83634
2890	0.32471	-135.07079	0.93645	-42.64066	0.93645	-42.64066	0.32471	-135.07079
2910	0.329	-135.291	0.935	-42.9762	0.935	-42.9762	0.329	-135.291
2930	0.3326	-135.39221	0.93568	-43.32031	0.93568	-43.32031	0.3326	-135.39221
2950	0.33474	-135.15144	0.93498	-43.49893	0.93498	-43.49893	0.33474	-135.15144
2970	0.33804	-135.56447	0.93152	-43.96004	0.93152	-43.96004	0.33804	-135.56447
2990	0.3396	-135.73607	0.93117	-44.30121	0.93117	-44.30121	0.3396	-135.73607
3010	0.34098	-135.86704	0.93135	-44.53193	0.93135	-44.53193	0.34098	-135.86704
3030	0.34323	-136.17788	0.93054	-44.78748	0.93054	-44.78748	0.34323	-136.17788
3050	0.34692	-136.90886	0.92824	-45.329	0.92824	-45.329	0.34692	-136.90886
3070	0.3478	-137.5639	0.9246	-45.86683	0.9246	-45.86683	0.3478	-137.5639
3090	0.35142	-137.73713	0.92689	-46.11044	0.92689	-46.11044	0.35142	-137.73713
3110	0.356	-137.72651	0.92786	-46.29473	0.92786	-46.29473	0.356	-137.72651
3130	0.36034	-137.71223	0.925	-46.5557	0.925	-46.5557	0.36034	-137.71223
3150	0.36388	-137.7567	0.92055	-46.93041	0.92055	-46.93041	0.36388	-137.7567
3170	0.36434	-137.78041	0.92025	-47.07301	0.92025	-47.07301	0.36434	-137.78041
3190	0.36608	-138.01672	0.91863	-47.33797	0.91863	-47.33797	0.36608	-138.01672
3210	0.36921	-138.56956	0.91659	-47.81665	0.91659	-47.81665	0.36921	-138.56956
3230	0.37286	-139.18174	0.91467	-48.34427	0.91467	-48.34427	0.37286	-139.18174
3250	0.37521	-139.23493	0.91306	-48.49989	0.91306	-48.49989	0.37521	-139.23493
3270	0.37935	-139.77559	0.91623	-49.11587	0.91623	-49.11587	0.37935	-139.77559
3290	0.38256	-140.12923	0.91484	-49.28662	0.91484	-49.28662	0.38256	-140.12923
3310	0.38642	-140.15431	0.91387	-49.45387	0.91387	-49.45387	0.38642	-140.15431
3330	0.39099	-139.95958	0.91448	-49.72176	0.91448	-49.72176	0.39099	-139.95958
3350	0.39479	-139.90408	0.91397	-49.85689	0.91397	-49.85689	0.39479	-139.90408
3370	0.39549	-140.22915	0.90842	-50.34985	0.90842	-50.34985	0.39549	-140.22915
3390	0.39535	-140.60526	0.90672	-50.60981	0.90672	-50.60981	0.39535	-140.60526
3410	0.39834	-140.92451	0.90619	-50.98584	0.90619	-50.98584	0.39834	-140.92451
3430	0.40348	-141.21166	0.90494	-51.49557	0.90494	-51.49557	0.40348	-141.21166
3450	0.40481	-141.62419	0.90191	-51.82524	0.90191	-51.82524	0.40481	-141.62419
3470	0.40764	-141.75115	0.90181	-52.11771	0.90181	-52.11771	0.40764	-141.75115
3490	0.41173	-142.00172	0.90243	-52.51967	0.90243	-52.51967	0.41173	-142.00172
3510	0.41462	-142.20131	0.90054	-52.91487	0.90054	-52.91487	0.41462	-142.20131
3530	0.4163	-142.29833	0.89749	-53.16909	0.89749	-53.16909	0.4163	-142.29833
3550	0.4192	-142.36427	0.8992	-53.1301	0.8992	-53.1301	0.4192	-142.36427
3570	0.42272	-142.722	0.89952	-53.69083	0.89952	-53.69083	0.42272	-142.722
3590	0.42265	-143.16472	0.89447	-53.95303	0.89447	-53.95303	0.42265	-143.16472
3610	0.42499	-143.43844	0.89343	-54.19794	0.89343	-54.19794	0.42499	-143.43844
3630	0.43024	-143.61028	0.89593	-54.5489	0.89593	-54.5489	0.43024	-143.61028
3650	0.43346	-144.06842	0.89168	-54.97135	0.89168	-54.97135	0.43346	-144.06842
3670	0.43526	-144.20776	0.88919	-55.2947	0.88919	-55.2947	0.43526	-144.20776
3690	0.43793	-144.21595	0.88762	-55.58253	0.88762	-55.58253	0.43793	-144.21595
3710	0.43953	-144.54478	0.88593	-55.95563	0.88593	-55.95563	0.43953	-144.54478
3730	0.44025	-145.0813	0.88425	-56.33847	0.88425	-56.33847	0.44025	-145.0813
3750	0.44239	-145.14786	0.88383	-56.45918	0.88383	-56.45918	0.44239	-145.14786
3770	0.44664	-145.52204	0.88318	-56.84638	0.88318	-56.84638	0.44664	-145.52204
3790	0.45069	-145.69987	0.88236	-57.20003	0.88236	-57.20003	0.45069	-145.69987
3810	0.45298	-146.00114	0.87997	-57.5015	0.87997	-57.5015	0.45298	-146.00114
3830	0.45446	-146.45513	0.87664	-57.80462	0.87664	-57.80462	0.45446	-146.45513
3850	0.45858	-146.80062	0.87502	-58.23567	0.87502	-58.23567	0.45858	-146.80062
3870	0.46035	-146.792	0.87273	-58.51937	0.87273	-58.51937	0.46035	-146.792
3890	0.46374	-147.02987	0.87456	-58.80509	0.87456	-58.80509	0.46374	-147.02987
3910	0.46549	-147.50317	0.8739	-59.12002	0.8739	-59.12002	0.46549	-147.50317
3930	0.46601	-147.99422	0.87058	-59.40962	0.87058	-59.40962	0.46601	-147.99422
3950	0.46946	-148.07871	0.87085	-59.53761	0.87085	-59.53761	0.46946	-148.07871
3970	0.47368	-148.4056	0.86887	-60.05348	0.86887	-60.05348	0.47368	-148.4056
3990	0.47635	-148.77032	0.86574	-60.44278	0.86574	-60.44278	0.47635	-148.77032
4010	0.4792	-149.14149	0.86301	-60.75853	0.86301	-60.75853	0.4792	-149.14149
4030	0.48249	-149.47732	0.86246	-61.03422	0.86246	-61.03422	0.48249	-149.47732
4050	0.485	-149.72566	0.8661	-61.28384	0.8661	-61.28384	0.485	-149.72566
4070	0.48762	-150.23842	0.86416	-62.008	0.86416	-62.008	0.48762	-150.23842
4090	0.48863	-150.70325	0.85909	-62.36764	0.85909	-62.36764	0.48863	-150.70325
4110	0.49023	-150.97851	0.85635	-62.50788	0.85635	-62.50788	0.49023	-150.97851
4130	0.4926	-151.14884	0.8565	-62.6609	0.8565	-62.6609	0.4926	-151.14884
4150	0.49389	-151.52516	0.85523	-63.14602	0.85523	-63.14602	0.49389	-151.52516
4170	0.49753	-151.90449	0.85037	-63.6048	0.85037	-63.6048	0.49753	-151.90449
4190	0.50165	-152.15566	0.8498	-63.84013	0.8498	-63.84013	0.50165	-152.15566
4210	0.50509	-152.45046	0.85096	-64.0758	0.85096	-64.0758	0.50509	-152.45046
4230	0.50726	-152.75046	0.85096	-64.38112	0.85096	-64.38112	0.50726	-152.75046
4250	0.50813	-152.80706	0.84658	-64.67092	0.84658	-64.67092	0.50813	-152.80706
4270	0.51024	-153.12198	0.84504	-65.01471	0.84504	-65.01471	0.51024	-153.12198
4290	0.51247	-153.85009	0.84328	-65.53531	0.84328	-65.53531	0.51247	-153.85009
4310	0.51499	-154.44169	0.84221	-65.90659	0.84221	-65.90659	0.51499	-154.44169
4330	0.51864	-154.81452	0.84314	-66.19892	0.84314	-66.19892	0.51864	-154.81452
4350	0.525	-155.35373	0.84782	-66.87913	0.84782	-66.87913	0.525	-155.35373
4370	0.52427	-155.62514	0.83969	-66.88866	0.83969	-66.88866	0.52427	-155.62514
4390	0.52826	-155.7964	0.83615	-67.11569	0.83615	-67.11569	0.52826	-155.7964
4410	0.5312	-155.96654	0.8345	-67.50923	0.8345	-67.50923	0.5312	-155.96654
4430	0.53194	-156.21816	0.83336	-67.92309	0.83336	-67.92309	0.53194	-156.21816
4450	0.53396	-156.61738	0.83268	-68.11592	0.83268	-68.11592	0.53396	-156.61738
4470	0.53867	-157.20725	0.83137	-68.67342	0.83137	-68.67342	0.53867	-157.20725
4490	0.53859	-157.5397	0.82603	-68.97805	0.82603	-68.97805	0.53859	-157.5397
4510	0.54088	-157.72965	0.82525	-69.14877	0.82525	-69.14877	0.54088	-157.72965
4530	0.54673	-158.04223	0.82825	-69.42282	0.82825	-69.42282	0.54673	-158.04223
4550	0.55143	-158.89283	0.82483	-70.15581	0.82483	-70.15581	0.55143	-158.89283
4570	0.55004	-159.05763	0.81801	-70.1435	0.81801	-70.1435	0.55004	-159.05763
4590	0.55428	-159.31516	0.82291	-70.31625	0.82291	-70.31625	0.55428	-159.31516
4610	0.55732	-159.69632	0.82384	-70.81099	0.82384	-70.81099	0.55732	-159.69632
4630	0.55793	-160.1873	0.81718	-71.44263	0.81718	-71.44263	0.55793	-160.1873
4650	0.56055	-160.72953	0.81144	-71.70406	0.81144	-71.70406	0.56055	-160.72953
4670	0.5627	-160.90316	0.81192	-71.91479	0.81192	-71.91479	0.5627	-160.90316
4690	0.56505	-161.40085	0.80993	-72.27999	0.80993	-72.27999	0.56505	-161.40085
4710	0.56842	-161.95041	0.80736	-72.70303	0.80736	-72.70303	0.56842	-161.95041
4730	0.57209	-162.42673	0.80509	-73.07217	0.80509	-73.07217	0.57209	-162.42673
4750	0.57372	-162.85178	0.80304	-73.2605	0.80304	-73.2605	0.57372	-162.85178
4770	0.57615	-162.9998	0.80248	-73.44316	0.80248	-73.44316	0.57615	-162.9998
4790	0.58027	-163.4877	0.80325	-74.06206	0.80325	-74.06206	0.58027	-163.4877
4810	0.58151	-163.84826	0.80153	-74.4704	0.80153	-74.4704	0.58151	-163.84826
4830	0.58142	-164.0711	0.79806	-74.5838	0.79806	-74.5838	0.58142	-164.0711
4850	0.58768	-164.60266	0.79817	-74.88034	0.79817	-74.88034	0.58768	-164.60266
4870	0.58836	-165.25803	0.79492	-75.3019	0.79492	-75.3019	0.58836	-165.25803
4890	0.59038	-165.46314	0.79158	-75.5131	0.79158	-75.5131	0.59038	-165.46314
4910	0.59422	-165.82255	0.78951	-75.9193	0.78951	-75.9193	0.59422	-165.82255
4930	0.5982	-166.41926	0.78838	-76.46889	0.78838	-76.46889	0.5982	-166.41926
4950	0.59857	-166.81468	0.78606	-76.65325	0.78606	-76.65325	0.59857	-166.81468
4970	0.59754	-166.90931	0.78367	-76.64669	0.78367	-76.64669	0.59754	-166.90931
4990	0.60326	-167.52032	0.78521	-77.36279	0.78521	-77.36279	0.60326	-167.52032
5010	0.60576	-168.16338	0.78198	-77.87708	0.78198	-77.87708	0.60576	-168.16338
5030	0.60464	-168.58234	0.77523	-77.91959	0.77523	-77.91959	0.60464	-168.58234
5050	0.60909	-168.74918	0.77613	-77.87487	0.77613	-77.87487	0.60909	-168.74918
5070	0.61445	-169.40579	0.77658	-78.645	0.77658	-78.645	0.61445	-169.40579
