!{R05L2R4}
!Johanson Technology Inc.
!www.johansontechnology.com
!Test Board Conditions:
!Substrate Type  RO4350B
!Substrate Thickness        10 mil
!Substrate Dk      3.66
!TL Type: GCPW 
!TL Trace Width  22 mil
!TL Gap  25 mil
!Electrode orientation      Horizontal
!DUT TOPOLOGY	SERIES
!Mounting Pad LxW         11x14.5 mil
! Created Wed Nov 25 17:33:21 2020
! 2 Port Network Data from SP1.SP block
! freq  magS11  angS11  magS21  angS21  magS12  angS12  magS22  angS22  
! 
# khz S ma R 50    
   3.000000e+02   9.981163e-01   -1.280000e-01    4.513505e-04    8.687400e+01    4.803014e-04    7.896800e+01    9.999971e-01   -9.300000e-02
   1.300000e+03   9.998727e-01   -5.800000e-02    2.015323e-03    8.830900e+01    1.989274e-03    8.974400e+01    9.999878e-01   -1.040000e-01
   2.300000e+03   9.999914e-01   -2.790000e-01    3.419255e-03    9.044000e+01    3.460839e-03    8.986200e+01    9.993507e-01   -2.760000e-01
   3.300000e+03   9.995259e-01   -3.770000e-01    4.986479e-03    8.960100e+01    5.007766e-03    8.962300e+01    9.999863e-01   -3.690000e-01
   4.300000e+03   9.998534e-01   -4.950000e-01    6.459313e-03    8.994700e+01    6.493612e-03    8.958400e+01    9.999685e-01   -5.010000e-01
   5.300000e+03   9.999653e-01   -5.800000e-01    8.005435e-03    8.922300e+01    8.041460e-03    8.967200e+01    9.997351e-01   -5.960000e-01
   6.300000e+03   9.999426e-01   -6.790000e-01    9.465097e-03    8.917300e+01    9.517548e-03    8.914000e+01    9.998275e-01   -6.770000e-01
   7.300000e+03   9.999302e-01   -7.430000e-01    1.100195e-02    8.917600e+01    1.098550e-02    8.900500e+01    9.998151e-01   -7.520000e-01
   8.300000e+03   9.994562e-01   -8.150000e-01    1.247280e-02    8.901000e+01    1.252604e-02    8.900800e+01    9.999166e-01   -8.410000e-01
   9.300000e+03   9.998841e-01   -9.310000e-01    1.402976e-02    8.914800e+01    1.408155e-02    8.895700e+01    9.998573e-01   -9.280000e-01
   1.030000e+04   9.990775e-01   -9.810000e-01    1.550601e-02    8.904700e+01    1.556682e-02    8.879400e+01    9.996166e-01   -9.650000e-01
   1.130000e+04   9.983895e-01   -1.014000e+00    1.703139e-02    8.888900e+01    1.708834e-02    8.887900e+01    9.986194e-01   -1.034000e+00
   1.230000e+04   9.981596e-01   -1.074000e+00    1.847779e-02    8.869100e+01    1.856522e-02    8.899000e+01    9.977001e-01   -1.069000e+00
   1.330000e+04   9.979298e-01   -1.155000e+00    1.997331e-02    8.883600e+01    2.005395e-02    8.878900e+01    9.972407e-01   -1.180000e+00
   1.430000e+04   9.977001e-01   -1.232000e+00    2.149067e-02    8.876600e+01    2.156999e-02    8.878100e+01    9.979298e-01   -1.236000e+00
   1.530000e+04   9.979298e-01   -1.344000e+00    2.301972e-02    8.857900e+01    2.305420e-02    8.864900e+01    9.975852e-01   -1.307000e+00
   1.630000e+04   9.983895e-01   -1.415000e+00    2.448218e-02    8.846700e+01    2.460084e-02    8.845600e+01    9.985044e-01   -1.441000e+00
   1.730000e+04   9.991909e-01   -1.539000e+00    2.601657e-02    8.843600e+01    2.617882e-02    8.843700e+01    9.986194e-01   -1.542000e+00
   1.830000e+04   9.993405e-01   -1.644000e+00    2.753912e-02    8.833600e+01    2.760260e-02    8.833100e+01    9.993945e-01   -1.656000e+00
   1.930000e+04   9.995661e-01   -1.750000e+00    2.896424e-02    8.816500e+01    2.915830e-02    8.820300e+01    9.986251e-01   -1.802000e+00
   2.030000e+04   9.995248e-01   -1.886000e+00    3.050362e-02    8.805900e+01    3.063736e-02    8.810900e+01    9.988132e-01   -1.882000e+00
   2.130000e+04   9.994661e-01   -1.951000e+00    3.201483e-02    8.800300e+01    3.213669e-02    8.805600e+01    9.992812e-01   -1.978000e+00
   2.230000e+04   9.991521e-01   -2.075000e+00    3.353535e-02    8.791000e+01    3.366300e-02    8.786400e+01    9.994174e-01   -2.061000e+00
   2.330000e+04   9.993465e-01   -2.156000e+00    3.501788e-02    8.776600e+01    3.518762e-02    8.777800e+01    9.991381e-01   -2.168000e+00
   2.430000e+04   9.993028e-01   -2.277000e+00    3.650853e-02    8.770200e+01    3.672352e-02    8.766800e+01    9.988446e-01   -2.267000e+00
   2.530000e+04   9.992381e-01   -2.338000e+00    3.804426e-02    8.760700e+01    3.817589e-02    8.755100e+01    9.990787e-01   -2.359000e+00
   2.630000e+04   9.991789e-01   -2.402000e+00    3.958384e-02    8.748600e+01    3.971622e-02    8.761100e+01    9.990384e-01   -2.390000e+00
   2.730000e+04   9.991114e-01   -2.481000e+00    4.103055e-02    8.743100e+01    4.118673e-02    8.745800e+01    9.989500e-01   -2.491000e+00
   2.830000e+04   9.987550e-01   -2.554000e+00    4.257090e-02    8.732900e+01    4.272311e-02    8.735200e+01    9.990595e-01   -2.593000e+00
   2.930000e+04   9.988648e-01   -2.650000e+00    4.406120e-02    8.729600e+01    4.425948e-02    8.725100e+01    9.989386e-01   -2.647000e+00
   3.030000e+04   9.987186e-01   -2.738000e+00    4.552909e-02    8.717100e+01    4.568661e-02    8.722600e+01    9.989241e-01   -2.753000e+00
   3.130000e+04   9.988553e-01   -2.830000e+00    4.700422e-02    8.712300e+01    4.722662e-02    8.712700e+01    9.984801e-01   -2.841000e+00
   3.230000e+04   9.988011e-01   -2.881000e+00    4.849789e-02    8.701900e+01    4.872735e-02    8.711400e+01    9.978674e-01   -2.908000e+00
   3.330000e+04   9.982348e-01   -3.006000e+00    4.999452e-02    8.689400e+01    5.022529e-02    8.690200e+01    9.986992e-01   -2.986000e+00
   3.430000e+04   9.983106e-01   -3.096059e+00    5.150109e-02    8.683790e+01    5.168533e-02    8.690691e+01    9.986409e-01   -3.096087e+00
   3.530000e+04   9.985622e-01   -3.155098e+00    5.295455e-02    8.673591e+01    5.324182e-02    8.681681e+01    9.976780e-01   -3.183079e+00
   3.630000e+04   9.984627e-01   -3.253095e+00    5.453728e-02    8.664593e+01    5.478281e-02    8.662892e+01    9.978899e-01   -3.262086e+00
   3.730000e+04   9.978550e-01   -3.348097e+00    5.592768e-02    8.657894e+01    5.628281e-02    8.655197e+01    9.983553e-01   -3.348099e+00
   3.830000e+04   9.983093e-01   -3.445102e+00    5.752175e-02    8.651582e+01    5.776065e-02    8.651888e+01    9.977488e-01   -3.447087e+00
   3.930000e+04   9.976230e-01   -3.547002e+00    5.898838e-02    8.633105e+01    5.923349e-02    8.639503e+01    9.982101e-01   -3.534072e+00
   4.030000e+04   9.977786e-01   -3.549169e+00    6.047264e-02    8.637888e+01    6.084265e-02    8.642978e+01    9.980658e-01   -3.606098e+00
   4.130000e+04   9.980107e-01   -3.718057e+00    6.200766e-02    8.626182e+01    6.227956e-02    8.620598e+01    9.976657e-01   -3.704095e+00
   4.230000e+04   9.979319e-01   -3.775100e+00    6.345440e-02    8.608100e+01    6.375460e-02    8.618585e+01    9.972434e-01   -3.799088e+00
   4.330000e+04   9.977647e-01   -3.875171e+00    6.502618e-02    8.608183e+01    6.530386e-02    8.603195e+01    9.976497e-01   -3.887108e+00
   4.430000e+04   9.976701e-01   -4.046033e+00    6.653204e-02    8.591188e+01    6.690833e-02    8.598582e+01    9.974041e-01   -3.995147e+00
   4.530000e+04   9.976140e-01   -4.079084e+00    6.799957e-02    8.579002e+01    6.828208e-02    8.580493e+01    9.971429e-01   -4.142046e+00
   4.630000e+04   9.971306e-01   -4.163178e+00    6.943156e-02    8.580873e+01    6.981607e-02    8.573690e+01    9.974790e-01   -4.188072e+00
   4.730000e+04   9.972421e-01   -4.341025e+00    7.107363e-02    8.554098e+01    7.122136e-02    8.563689e+01    9.973556e-01   -4.260145e+00
   4.830000e+04   9.973105e-01   -4.366068e+00    7.237384e-02    8.552595e+01    7.280834e-02    8.553085e+01    9.961448e-01   -4.405097e+00
   4.930000e+04   9.971389e-01   -4.434188e+00    7.394385e-02    8.548088e+01    7.431076e-02    8.538296e+01    9.967819e-01   -4.502052e+00
   5.030000e+04   9.970894e-01   -4.622081e+00    7.546718e-02    8.535784e+01    7.578072e-02    8.534084e+01    9.964370e-01   -4.554112e+00
   5.130000e+04   9.969139e-01   -4.703079e+00    7.689821e-02    8.520299e+01    7.732423e-02    8.518291e+01    9.963407e-01   -4.666138e+00
   5.230000e+04   9.967235e-01   -4.782086e+00    7.840310e-02    8.519384e+01    7.872874e-02    8.509400e+01    9.967228e-01   -4.804056e+00
   5.330000e+04   9.967354e-01   -4.868134e+00    7.994581e-02    8.503200e+01    8.028710e-02    8.509183e+01    9.959497e-01   -4.860103e+00
   5.430000e+04   9.966328e-01   -5.001982e+00    8.142244e-02    8.503283e+01    8.178875e-02    8.491899e+01    9.953735e-01   -4.963097e+00
   5.530000e+04   9.956900e-01   -4.984182e+00    8.302925e-02    8.485798e+01    8.329736e-02    8.491387e+01    9.964911e-01   -5.060023e+00
   5.630000e+04   9.963776e-01   -5.166076e+00    8.442706e-02    8.483486e+01    8.471927e-02    8.478174e+01    9.955773e-01   -5.083159e+00
   5.730000e+04   9.946354e-01   -5.242087e+00    8.577713e-02    8.469882e+01    8.618294e-02    8.452399e+01    9.962389e-01   -5.242123e+00
   5.830000e+04   9.953710e-01   -5.329094e+00    8.734604e-02    8.451693e+01    8.771878e-02    8.451192e+01    9.960585e-01   -5.365111e+00
   5.930000e+04   9.954758e-01   -5.423091e+00    8.901994e-02    8.444303e+01    8.926626e-02    8.443592e+01    9.959339e-01   -5.476060e+00
   6.030000e+04   9.957293e-01   -5.514128e+00    9.039593e-02    8.447380e+01    9.065652e-02    8.435191e+01    9.957299e-01   -5.536088e+00
   6.130000e+04   9.950027e-01   -5.642104e+00    9.191391e-02    8.427884e+01    9.221066e-02    8.426285e+01    9.956895e-01   -5.624130e+00
   6.230000e+04   9.953487e-01   -5.746016e+00    9.342901e-02    8.411899e+01    9.370926e-02    8.410905e+01    9.953491e-01   -5.754013e+00
   6.330000e+04   9.949749e-01   -5.762108e+00    9.479145e-02    8.411290e+01    9.523996e-02    8.416083e+01    9.953193e-01   -5.767176e+00
   6.430000e+04   9.942312e-01   -5.870127e+00    9.624848e-02    8.400894e+01    9.671492e-02    8.399294e+01    9.952597e-01   -5.943010e+00
   6.530000e+04   9.951366e-01   -5.997083e+00    9.777761e-02    8.394684e+01    9.816111e-02    8.393085e+01    9.939930e-01   -5.953141e+00
   6.630000e+04   9.946067e-01   -6.080058e+00    9.923367e-02    8.378795e+01    9.963425e-02    8.378194e+01    9.948370e-01   -6.094089e+00
   6.730000e+04   9.933532e-01   -6.138106e+00    1.008577e-01    8.373588e+01    1.011718e-01    8.372294e+01    9.948394e-01   -6.183081e+00
   6.830000e+04   9.945449e-01   -6.244107e+00    1.022658e-01    8.361992e+01    1.026787e-01    8.365883e+01    9.943163e-01   -6.264099e+00
   6.930000e+04   9.942258e-01   -6.351045e+00    1.036910e-01    8.353995e+01    1.040619e-01    8.348594e+01    9.943406e-01   -6.363120e+00
   7.030000e+04   9.937947e-01   -6.396064e+00    1.051242e-01    8.348489e+01    1.056702e-01    8.342702e+01    9.942513e-01   -6.483048e+00
   7.130000e+04   9.941431e-01   -6.460113e+00    1.065873e-01    8.336996e+01    1.071286e-01    8.345085e+01    9.934581e-01   -6.531080e+00
   7.230000e+04   9.932036e-01   -6.573096e+00    1.081047e-01    8.332491e+01    1.086036e-01    8.329993e+01    9.940040e-01   -6.611071e+00
   7.330000e+04   9.933557e-01   -6.669081e+00    1.097262e-01    8.323886e+01    1.101312e-01    8.322686e+01    9.938132e-01   -6.682119e+00
   7.430000e+04   9.931427e-01   -6.750100e+00    1.110752e-01    8.310196e+01    1.115366e-01    8.308491e+01    9.935995e-01   -6.801022e+00
   7.530000e+04   9.933396e-01   -6.850077e+00    1.125261e-01    8.305684e+01    1.130457e-01    8.299596e+01    9.931115e-01   -6.823121e+00
   7.630000e+04   9.927965e-01   -6.927116e+00    1.139375e-01    8.289793e+01    1.146346e-01    8.295379e+01    9.931397e-01   -6.944122e+00
   7.730000e+04   9.925081e-01   -7.043119e+00    1.156216e-01    8.282690e+01    1.160218e-01    8.274597e+01    9.930786e-01   -7.066083e+00
   7.830000e+04   9.928917e-01   -7.162022e+00    1.170059e-01    8.272798e+01    1.175459e-01    8.271699e+01    9.924356e-01   -7.149055e+00
   7.930000e+04   9.922149e-01   -7.184099e+00    1.184708e-01    8.270485e+01    1.189491e-01    8.270890e+01    9.927859e-01   -7.204057e+00
   8.030000e+04   9.922221e-01   -7.283061e+00    1.199540e-01    8.255895e+01    1.204521e-01    8.260489e+01    9.924502e-01   -7.261133e+00
   8.130000e+04   9.923121e-01   -7.344104e+00    1.215355e-01    8.251087e+01    1.219421e-01    8.248992e+01    9.920833e-01   -7.394068e+00
   8.230000e+04   9.921578e-01   -7.448093e+00    1.228390e-01    8.238285e+01    1.234203e-01    8.241390e+01    9.915867e-01   -7.462111e+00
   8.330000e+04   9.919293e-01   -7.541134e+00    1.243471e-01    8.222996e+01    1.250074e-01    8.230986e+01    9.912446e-01   -7.573080e+00
   8.430000e+04   9.917135e-01   -7.675078e+00    1.257742e-01    8.218493e+01    1.264274e-01    8.217089e+01    9.912567e-01   -7.653113e+00
   8.530000e+04   9.915961e-01   -7.753085e+00    1.273034e-01    8.211792e+01    1.279057e-01    8.205992e+01    9.909123e-01   -7.766066e+00
   8.630000e+04   9.910548e-01   -7.838091e+00    1.287368e-01    8.203690e+01    1.293161e-01    8.198098e+01    9.912833e-01   -7.832061e+00
   8.730000e+04   9.906520e-01   -7.929089e+00    1.302045e-01    8.193692e+01    1.307604e-01    8.195989e+01    9.912210e-01   -7.893115e+00
   8.830000e+04   9.910499e-01   -8.018067e+00    1.317045e-01    8.185392e+01    1.323276e-01    8.185390e+01    9.902524e-01   -8.008086e+00
   8.930000e+04   9.905766e-01   -8.085090e+00    1.331352e-01    8.177789e+01    1.337959e-01    8.175096e+01    9.905760e-01   -8.094069e+00
   9.030000e+04   9.905918e-01   -8.175089e+00    1.345860e-01    8.166996e+01    1.352383e-01    8.170884e+01    9.900226e-01   -8.163112e+00
   9.130000e+04   9.899880e-01   -8.264081e+00    1.361239e-01    8.162688e+01    1.367366e-01    8.154994e+01    9.903301e-01   -8.275074e+00
   9.230000e+04   9.896458e-01   -8.345122e+00    1.374942e-01    8.150389e+01    1.382403e-01    8.149385e+01    9.901013e-01   -8.349101e+00
   9.330000e+04   9.896085e-01   -8.467045e+00    1.389691e-01    8.139497e+01    1.397551e-01    8.134898e+01    9.897224e-01   -8.450085e+00
   9.430000e+04   9.895242e-01   -8.512147e+00    1.404529e-01    8.136588e+01    1.411013e-01    8.132886e+01    9.896378e-01   -8.535068e+00
   9.530000e+04   9.893935e-01   -8.659043e+00    1.418645e-01    8.124293e+01    1.426178e-01    8.118694e+01    9.891657e-01   -8.603098e+00
   9.630000e+04   9.891895e-01   -8.702121e+00    1.433455e-01    8.116992e+01    1.440901e-01    8.112991e+01    9.889628e-01   -8.701083e+00
   9.730000e+04   9.883813e-01   -8.823041e+00    1.447701e-01    8.109183e+01    1.454887e-01    8.104391e+01    9.891776e-01   -8.784125e+00
   9.830000e+04   9.884466e-01   -8.864091e+00    1.462540e-01    8.092394e+01    1.470981e-01    8.095887e+01    9.886733e-01   -8.909080e+00
   9.930000e+04   9.886535e-01   -8.955089e+00    1.478251e-01    8.086391e+01    1.484052e-01    8.082398e+01    9.879723e-01   -8.989069e+00
   1.003000e+05   9.876373e-01   -9.044266e+00    1.491098e-01    8.077693e+01    1.499703e-01    8.080668e+01    9.884318e-01   -9.058128e+00
   1.013000e+05   9.880344e-01   -9.177136e+00    1.506368e-01    8.074083e+01    1.513667e-01    8.064880e+01    9.879218e-01   -9.122266e+00
   1.023000e+05   9.875440e-01   -9.245186e+00    1.521300e-01    8.065768e+01    1.527264e-01    8.054981e+01    9.879976e-01   -9.255214e+00
   1.033000e+05   9.876779e-01   -9.338168e+00    1.536115e-01    8.049894e+01    1.540724e-01    8.045684e+01    9.874517e-01   -9.362154e+00
   1.043000e+05   9.871363e-01   -9.422254e+00    1.550014e-01    8.046672e+01    1.556812e-01    8.037876e+01    9.874771e-01   -9.439162e+00
   1.053000e+05   9.868706e-01   -9.549078e+00    1.564836e-01    8.032477e+01    1.572781e-01    8.025997e+01    9.870986e-01   -9.520204e+00
   1.063000e+05   9.864474e-01   -9.588178e+00    1.579728e-01    8.020887e+01    1.586833e-01    8.024471e+01    9.870156e-01   -9.622134e+00
   1.073000e+05   9.861282e-01   -9.677260e+00    1.594374e-01    8.014372e+01    1.599711e-01    8.010185e+01    9.868084e-01   -9.689274e+00
   1.083000e+05   9.862588e-01   -9.807110e+00    1.607309e-01    8.000406e+01    1.615099e-01    8.002673e+01    9.863724e-01   -9.826130e+00
   1.093000e+05   9.860298e-01   -9.862176e+00    1.622738e-01    8.003269e+01    1.630223e-01    7.989197e+01    9.861431e-01   -9.891076e+00
   1.103000e+05   9.858764e-01   -9.950220e+00    1.638248e-01    7.987889e+01    1.642974e-01    7.987784e+01    9.858755e-01   -9.929190e+00
   1.113000e+05   9.858545e-01   -1.006013e+01    1.651852e-01    7.982577e+01    1.658327e-01    7.979977e+01    9.854004e-01   -1.002422e+01
   1.123000e+05   9.856285e-01   -1.012613e+01    1.667135e-01    7.971081e+01    1.671752e-01    7.968586e+01    9.850633e-01   -1.013618e+01
   1.133000e+05   9.848355e-01   -1.019016e+01    1.680243e-01    7.961481e+01    1.687024e-01    7.961778e+01    9.852899e-01   -1.022615e+01
   1.143000e+05   9.843233e-01   -1.027028e+01    1.695683e-01    7.951982e+01    1.700573e-01    7.950962e+01    9.851146e-01   -1.030127e+01
   1.153000e+05   9.846833e-01   -1.041111e+01    1.710032e-01    7.942785e+01    1.716146e-01    7.932110e+01    9.843441e-01   -1.043412e+01
   1.163000e+05   9.843309e-01   -1.046419e+01    1.724440e-01    7.935180e+01    1.730606e-01    7.937272e+01    9.844442e-01   -1.049215e+01
   1.173000e+05   9.839807e-01   -1.055920e+01    1.737579e-01    7.924979e+01    1.744391e-01    7.923184e+01    9.840922e-01   -1.056719e+01
   1.183000e+05   9.840937e-01   -1.066018e+01    1.753857e-01    7.914683e+01    1.759113e-01    7.915282e+01    9.833029e-01   -1.066219e+01
   1.193000e+05   9.834627e-01   -1.075002e+01    1.768539e-01    7.906187e+01    1.772822e-01    7.906184e+01    9.836880e-01   -1.075625e+01
   1.203000e+05   9.834351e-01   -1.076117e+01    1.782389e-01    7.899483e+01    1.787737e-01    7.898390e+01    9.830960e-01   -1.088111e+01
   1.213000e+05   9.830385e-01   -1.084725e+01    1.795675e-01    7.891177e+01    1.803130e-01    7.893579e+01    9.829253e-01   -1.093613e+01
   1.223000e+05   9.827690e-01   -1.097221e+01    1.809919e-01    7.879880e+01    1.816389e-01    7.883178e+01    9.826566e-01   -1.100019e+01
   1.233000e+05   9.823209e-01   -1.107919e+01    1.825195e-01    7.869782e+01    1.830886e-01    7.872382e+01    9.825475e-01   -1.109619e+01
   1.243000e+05   9.818330e-01   -1.117314e+01    1.836937e-01    7.860690e+01    1.846691e-01    7.863586e+01    9.822843e-01   -1.119324e+01
   1.253000e+05   9.819106e-01   -1.124415e+01    1.851097e-01    7.855685e+01    1.860706e-01    7.856384e+01    9.819099e-01   -1.131210e+01
   1.263000e+05   9.818395e-01   -1.132121e+01    1.866589e-01    7.848382e+01    1.873264e-01    7.848279e+01    9.815036e-01   -1.136021e+01
   1.273000e+05   9.805219e-01   -1.142715e+01    1.881539e-01    7.839369e+01    1.889133e-01    7.837776e+01    9.817606e-01   -1.146428e+01
   1.283000e+05   9.813222e-01   -1.150222e+01    1.895916e-01    7.823795e+01    1.902255e-01    7.825588e+01    9.806479e-01   -1.160205e+01
   1.293000e+05   9.801853e-01   -1.161305e+01    1.909916e-01    7.821276e+01    1.915862e-01    7.819591e+01    9.811997e-01   -1.162511e+01
   1.303000e+05   9.804168e-01   -1.163631e+01    1.923831e-01    7.809373e+01    1.929385e-01    7.815163e+01    9.805304e-01   -1.168031e+01
   1.313000e+05   9.798138e-01   -1.178918e+01    1.936423e-01    7.795693e+01    1.946033e-01    7.796689e+01    9.802644e-01   -1.183512e+01
   1.323000e+05   9.797857e-01   -1.187818e+01    1.951363e-01    7.792088e+01    1.961043e-01    7.791082e+01    9.798996e-01   -1.189616e+01
   1.333000e+05   9.792310e-01   -1.196719e+01    1.966033e-01    7.786077e+01    1.973752e-01    7.781884e+01    9.799073e-01   -1.197420e+01
   1.343000e+05   9.789733e-01   -1.206013e+01    1.978236e-01    7.774487e+01    1.989885e-01    7.773982e+01    9.794272e-01   -1.207316e+01
