! 250R05L0R9CV4
! Data taken January 31, 2003
! Data taken on a HP 8720C VNA using a shunt-through test fixture and TRL* de-embedding
#	mhz	s	ma	r	50
0	0.00000	-90.00000	0.99999	0.00000	0.99999	0.00000	0.00000	-90.00000
50	0.01217	-72.91806	0.99087	-1.34477	0.99087	-1.34477	0.01217	-72.91806
70	0.01002	-101.0501	0.99425	-1.47379	0.99425	-1.47379	0.01002	-101.0501
90	0.0126	-98.51442	0.9996	-1.7788	0.9996	-1.7788	0.0126	-98.51442
110	0.01715	-91.02231	0.99999	-2.09741	0.99999	-2.09741	0.01715	-91.02231
130	0.02187	-89.07704	0.99747	-2.38292	0.99747	-2.38292	0.02187	-89.07704
150	0.02592	-87.97385	0.99806	-2.70423	0.99806	-2.70423	0.02592	-87.97385
170	0.02813	-89.57953	0.99984	-2.75542	0.99984	-2.75542	0.02813	-89.57953
190	0.03014	-89.2969	0.99846	-3.24213	0.99846	-3.24213	0.03014	-89.2969
210	0.03303	-89.27529	0.99777	-3.71908	0.99777	-3.71908	0.03303	-89.27529
230	0.03677	-90.18042	0.99858	-4.07771	0.99858	-4.07771	0.03677	-90.18042
250	0.04026	-91.19439	0.99875	-4.54614	0.99875	-4.54614	0.04026	-91.19439
270	0.04378	-91.45281	0.99626	-4.56881	0.99626	-4.56881	0.04378	-91.45281
290	0.04664	-91.35341	0.99887	-5.0457	0.99887	-5.0457	0.04664	-91.35341
310	0.04948	-91.03534	0.99783	-5.38563	0.99783	-5.38563	0.04948	-91.03534
330	0.05244	-90.80514	0.99285	-5.51246	0.99285	-5.51246	0.05244	-90.80514
350	0.05518	-91.13677	0.9921	-5.86509	0.9921	-5.86509	0.05518	-91.13677
370	0.05729	-92.22412	0.99624	-6.29211	0.99624	-6.29211	0.05729	-92.22412
390	0.0604	-93.11469	0.99652	-6.69424	0.99652	-6.69424	0.0604	-93.11469
410	0.06396	-93.72982	0.99666	-7.10158	0.99666	-7.10158	0.06396	-93.72982
430	0.06758	-94.06168	0.99754	-7.4722	0.99754	-7.4722	0.06758	-94.06168
450	0.07108	-94.17325	0.99726	-7.6922	0.99726	-7.6922	0.07108	-94.17325
470	0.07366	-93.98076	0.99599	-7.90344	0.99599	-7.90344	0.07366	-93.98076
490	0.0675	-96.52004	0.99558	-8.22316	0.99558	-8.22316	0.0675	-96.52004
510	0.06351	-98.67428	0.99412	-8.52492	0.99412	-8.52492	0.06351	-98.67428
530	0.06533	-99.72475	0.99181	-8.74727	0.99181	-8.74727	0.06533	-99.72475
550	0.06927	-101.35077	0.99092	-8.89373	0.99092	-8.89373	0.06927	-101.35077
570	0.07315	-101.85666	0.99257	-9.22123	0.99257	-9.22123	0.07315	-101.85666
590	0.07686	-101.98189	0.99282	-9.50392	0.99282	-9.50392	0.07686	-101.98189
610	0.0805	-102.0013	0.9926	-9.82702	0.9926	-9.82702	0.0805	-102.0013
630	0.08365	-101.77013	0.99218	-10.20778	0.99218	-10.20778	0.08365	-101.77013
650	0.08538	-100.72407	0.99117	-10.59549	0.99117	-10.59549	0.08538	-100.72407
670	0.08721	-101.0668	0.99182	-10.97899	0.99182	-10.97899	0.08721	-101.0668
690	0.08869	-102.18166	0.99038	-11.39913	0.99038	-11.39913	0.08869	-102.18166
710	0.0907	-103.62482	0.99039	-11.72352	0.99039	-11.72352	0.0907	-103.62482
730	0.09361	-105.0012	0.99262	-11.96061	0.99262	-11.96061	0.09361	-105.0012
750	0.09731	-105.96452	0.99511	-12.2597	0.99511	-12.2597	0.09731	-105.96452
770	0.10196	-106.97781	0.98803	-13.02389	0.98803	-13.02389	0.10196	-106.97781
790	0.1077	-107.42919	0.98922	-13.03356	0.98922	-13.03356	0.1077	-107.42919
810	0.11258	-107.25477	0.98979	-13.11888	0.98979	-13.11888	0.11258	-107.25477
830	0.11597	-106.63204	0.98709	-13.49955	0.98709	-13.49955	0.11597	-106.63204
850	0.1185	-105.97985	0.98466	-13.78472	0.98466	-13.78472	0.1185	-105.97985
870	0.12149	-105.84619	0.98963	-14.00511	0.98963	-14.00511	0.12149	-105.84619
890	0.12295	-106.01085	0.9878	-14.5115	0.9878	-14.5115	0.12295	-106.01085
910	0.12498	-106.53411	0.98728	-14.92809	0.98728	-14.92809	0.12498	-106.53411
930	0.1280	-107.29409	0.9892	-15.21889	0.9892	-15.21889	0.1280	-107.29409
950	0.1308	-107.98684	0.98778	-15.68766	0.98778	-15.68766	0.1308	-107.98684
970	0.13474	-108.24918	0.9876	-15.79657	0.9876	-15.79657	0.13474	-108.24918
990	0.13945	-108.38454	0.98748	-16.13698	0.98748	-16.13698	0.13945	-108.38454
1010	0.143	-108.33701	0.98669	-16.52115	0.98669	-16.52115	0.143	-108.33701
1030	0.1452	-108.13249	0.98597	-16.859	0.98597	-16.859	0.1452	-108.13249
1050	0.14762	-107.8787	0.98749	-17.15819	0.98749	-17.15819	0.14762	-107.8787
1070	0.14782	-108.21152	0.98412	-17.58575	0.98412	-17.58575	0.14782	-108.21152
1090	0.14976	-108.98519	0.98448	-17.90973	0.98448	-17.90973	0.14976	-108.98519
1110	0.15221	-109.68266	0.9846	-18.09422	0.9846	-18.09422	0.15221	-109.68266
1130	0.15495	-110.27546	0.98305	-18.30253	0.98305	-18.30253	0.15495	-110.27546
1150	0.15878	-111.22371	0.98091	-18.89718	0.98091	-18.89718	0.15878	-111.22371
1170	0.16249	-111.58732	0.98243	-19.22236	0.98243	-19.22236	0.16249	-111.58732
1190	0.16633	-111.91132	0.98393	-19.70368	0.98393	-19.70368	0.16633	-111.91132
1210	0.16958	-112.07189	0.98309	-20.0225	0.98309	-20.0225	0.16958	-112.07189
1230	0.17216	-112.1575	0.98052	-20.22477	0.98052	-20.22477	0.17216	-112.1575
1250	0.17463	-112.46891	0.97982	-20.72105	0.97982	-20.72105	0.17463	-112.46891
1270	0.17649	-112.95664	0.97785	-20.92407	0.97785	-20.92407	0.17649	-112.95664
1290	0.17862	-113.66375	0.97823	-21.42938	0.97823	-21.42938	0.17862	-113.66375
1310	0.18129	-114.48509	0.98065	-21.79382	0.98065	-21.79382	0.18129	-114.48509
1330	0.18441	-115.31182	0.98257	-22.01931	0.98257	-22.01931	0.18441	-115.31182
1350	0.18754	-116.03135	0.97918	-22.55283	0.97918	-22.55283	0.18754	-116.03135
1370	0.1914	-116.80954	0.97741	-22.96265	0.97741	-22.96265	0.1914	-116.80954
1390	0.19524	-117.24041	0.97445	-23.23385	0.97445	-23.23385	0.19524	-117.24041
1410	0.19956	-117.57602	0.9732	-23.51565	0.9732	-23.51565	0.19956	-117.57602
1430	0.2041	-117.93659	0.97362	-23.83527	0.97362	-23.83527	0.2041	-117.93659
1450	0.20791	-118.31044	0.97271	-24.09792	0.97271	-24.09792	0.20791	-118.31044
1470	0.21097	-118.89422	0.97446	-24.58137	0.97446	-24.58137	0.21097	-118.89422
1490	0.21434	-119.27991	0.97447	-24.95583	0.97447	-24.95583	0.21434	-119.27991
1510	0.21722	-119.46472	0.97392	-25.28517	0.97392	-25.28517	0.21722	-119.46472
1530	0.21961	-119.70196	0.97281	-25.60998	0.97281	-25.60998	0.21961	-119.70196
1550	0.22229	-120.50104	0.97004	-25.94755	0.97004	-25.94755	0.22229	-120.50104
1570	0.22624	-120.97362	0.96635	-26.30288	0.96635	-26.30288	0.22624	-120.97362
1590	0.23002	-121.73586	0.96651	-26.74602	0.96651	-26.74602	0.23002	-121.73586
1610	0.23367	-122.4272	0.9657	-27.09522	0.9657	-27.09522	0.23367	-122.4272
1630	0.23757	-122.87206	0.9637	-27.35011	0.9637	-27.35011	0.23757	-122.87206
1650	0.24238	-123.07982	0.96482	-27.69169	0.96482	-27.69169	0.24238	-123.07982
1670	0.24589	-123.23943	0.96441	-28.07893	0.96441	-28.07893	0.24589	-123.23943
1690	0.24834	-123.46977	0.96299	-28.41116	0.96299	-28.41116	0.24834	-123.46977
1710	0.25086	-123.68543	0.96245	-28.76764	0.96245	-28.76764	0.25086	-123.68543
1730	0.25395	-123.98938	0.96321	-29.14698	0.96321	-29.14698	0.25395	-123.98938
1750	0.25754	-124.67304	0.96424	-29.4671	0.96424	-29.4671	0.25754	-124.67304
1770	0.25915	-125.44745	0.96099	-30.19421	0.96099	-30.19421	0.25915	-125.44745
1790	0.26347	-125.87603	0.95922	-30.42983	0.95922	-30.42983	0.26347	-125.87603
1810	0.2685	-126.20668	0.96004	-30.67491	0.96004	-30.67491	0.2685	-126.20668
1830	0.27317	-126.5616	0.96168	-31.04108	0.96168	-31.04108	0.27317	-126.5616
1850	0.27733	-126.93736	0.9595	-31.25066	0.9595	-31.25066	0.27733	-126.93736
1870	0.28046	-126.93014	0.95593	-31.69887	0.95593	-31.69887	0.28046	-126.93014
1890	0.2836	-127.06912	0.95489	-32.04174	0.95489	-32.04174	0.2836	-127.06912
1910	0.28619	-127.43595	0.95446	-32.40926	0.95446	-32.40926	0.28619	-127.43595
1930	0.28802	-127.92654	0.9532	-32.81195	0.9532	-32.81195	0.28802	-127.92654
1950	0.2893	-128.25109	0.95019	-33.1409	0.95019	-33.1409	0.2893	-128.25109
1970	0.29197	-128.95394	0.94958	-33.40657	0.94958	-33.40657	0.29197	-128.95394
1990	0.2963	-129.57477	0.94608	-33.61433	0.94608	-33.61433	0.2963	-129.57477
2010	0.30055	-129.94716	0.94421	-34.0451	0.94421	-34.0451	0.30055	-129.94716
2030	0.30405	-130.21148	0.94487	-34.64729	0.94487	-34.64729	0.30405	-130.21148
2050	0.30722	-130.81489	0.94529	-35.03687	0.94529	-35.03687	0.30722	-130.81489
2070	0.31126	-131.10877	0.94414	-35.3798	0.94414	-35.3798	0.31126	-131.10877
2090	0.31473	-131.46458	0.94062	-35.70154	0.94062	-35.70154	0.31473	-131.46458
2110	0.31708	-131.96069	0.93926	-36.23369	0.93926	-36.23369	0.31708	-131.96069
2130	0.31893	-132.48067	0.93975	-36.77405	0.93975	-36.77405	0.31893	-132.48067
2150	0.32208	-132.71338	0.93697	-36.68664	0.93697	-36.68664	0.32208	-132.71338
2170	0.32643	-133.36624	0.93614	-37.22453	0.93614	-37.22453	0.32643	-133.36624
2190	0.33037	-133.88933	0.93547	-37.6927	0.93547	-37.6927	0.33037	-133.88933
2210	0.33489	-134.27538	0.93422	-38.04639	0.93422	-38.04639	0.33489	-134.27538
2230	0.33943	-134.63039	0.93259	-38.39292	0.93259	-38.39292	0.33943	-134.63039
2250	0.34188	-135.17359	0.93162	-38.99162	0.93162	-38.99162	0.34188	-135.17359
2270	0.34637	-135.23112	0.93138	-39.01891	0.93138	-39.01891	0.34637	-135.23112
2290	0.3502	-135.68621	0.93279	-39.73819	0.93279	-39.73819	0.3502	-135.68621
2310	0.35275	-136.23936	0.92966	-40.22671	0.92966	-40.22671	0.35275	-136.23936
2330	0.35503	-136.66577	0.92327	-40.34675	0.92327	-40.34675	0.35503	-136.66577
2350	0.35969	-136.81525	0.9224	-40.74563	0.9224	-40.74563	0.35969	-136.81525
2370	0.36399	-137.33068	0.9236	-41.17293	0.9236	-41.17293	0.36399	-137.33068
2390	0.36784	-137.79065	0.92167	-41.5405	0.92167	-41.5405	0.36784	-137.79065
2410	0.37134	-138.07355	0.91882	-41.7716	0.91882	-41.7716	0.37134	-138.07355
2430	0.37513	-138.296	0.91713	-42.01445	0.91713	-42.01445	0.37513	-138.296
2450	0.38033	-138.81278	0.91848	-42.64224	0.91848	-42.64224	0.38033	-138.81278
2470	0.38338	-139.43832	0.91597	-43.0813	0.91597	-43.0813	0.38338	-139.43832
2490	0.38613	-139.65362	0.91232	-43.36114	0.91232	-43.36114	0.38613	-139.65362
2510	0.39004	-139.92919	0.91123	-43.66038	0.91123	-43.66038	0.39004	-139.92919
2530	0.39489	-140.38157	0.91153	-44.13443	0.91153	-44.13443	0.39489	-140.38157
2550	0.3988	-140.77322	0.9071	-44.91549	0.9071	-44.91549	0.3988	-140.77322
2570	0.40418	-140.93912	0.90645	-44.89797	0.90645	-44.89797	0.40418	-140.93912
2590	0.40757	-141.1038	0.9045	-45.20463	0.9045	-45.20463	0.40757	-141.1038
2610	0.40967	-141.4875	0.90145	-45.63079	0.90145	-45.63079	0.40967	-141.4875
2630	0.41181	-141.96618	0.89787	-46.06434	0.89787	-46.06434	0.41181	-141.96618
2650	0.41595	-142.07156	0.89469	-46.48573	0.89469	-46.48573	0.41595	-142.07156
2670	0.42193	-142.39509	0.89642	-46.92202	0.89642	-46.92202	0.42193	-142.39509
2690	0.42553	-142.85272	0.89479	-47.19616	0.89479	-47.19616	0.42553	-142.85272
2710	0.43004	-143.1974	0.89375	-47.54727	0.89375	-47.54727	0.43004	-143.1974
2730	0.43492	-143.44507	0.89369	-48.06489	0.89369	-48.06489	0.43492	-143.44507
2750	0.43585	-143.8747	0.89147	-48.68898	0.89147	-48.68898	0.43585	-143.8747
2770	0.43494	-144.08931	0.88733	-48.99484	0.88733	-48.99484	0.43494	-144.08931
2790	0.44013	-144.26917	0.88468	-49.2926	0.88468	-49.2926	0.44013	-144.26917
2810	0.44494	-144.59401	0.88172	-49.82866	0.88172	-49.82866	0.44494	-144.59401
2830	0.44745	-145.05995	0.87897	-50.45782	0.87897	-50.45782	0.44745	-145.05995
2850	0.45025	-145.47948	0.87932	-50.6433	0.87932	-50.6433	0.45025	-145.47948
2870	0.45324	-146.03958	0.87764	-50.79014	0.87764	-50.79014	0.45324	-146.03958
2890	0.45829	-146.24455	0.8743	-51.22276	0.8743	-51.22276	0.45829	-146.24455
2910	0.46394	-146.39116	0.87218	-51.70107	0.87218	-51.70107	0.46394	-146.39116
2930	0.46905	-146.56742	0.87149	-52.07592	0.87149	-52.07592	0.46905	-146.56742
2950	0.47277	-146.65254	0.86981	-52.28899	0.86981	-52.28899	0.47277	-146.65254
2970	0.47557	-147.16456	0.86369	-52.64647	0.86369	-52.64647	0.47557	-147.16456
2990	0.47745	-147.29685	0.86255	-53.14142	0.86255	-53.14142	0.47745	-147.29685
3010	0.48063	-147.52041	0.86276	-53.49742	0.86276	-53.49742	0.48063	-147.52041
3030	0.485	-148.06274	0.86224	-53.79467	0.86224	-53.79467	0.485	-148.06274
3050	0.48812	-148.90785	0.86039	-54.46988	0.86039	-54.46988	0.48812	-148.90785
3070	0.48818	-149.55456	0.85408	-55.13547	0.85408	-55.13547	0.48818	-149.55456
3090	0.49527	-149.71632	0.85415	-55.30381	0.85415	-55.30381	0.49527	-149.71632
3110	0.50205	-149.86558	0.85388	-55.55879	0.85388	-55.55879	0.50205	-149.86558
3130	0.50575	-150.09676	0.85054	-55.99875	0.85054	-55.99875	0.50575	-150.09676
3150	0.50817	-150.12623	0.84541	-56.23651	0.84541	-56.23651	0.50817	-150.12623
3170	0.50929	-150.2307	0.84591	-56.547	0.84591	-56.547	0.50929	-150.2307
3190	0.51116	-150.70319	0.84267	-56.98771	0.84267	-56.98771	0.51116	-150.70319
3210	0.5146	-151.21854	0.83966	-57.48814	0.83966	-57.48814	0.5146	-151.21854
3230	0.51931	-151.61236	0.83733	-57.96409	0.83733	-57.96409	0.51931	-151.61236
3250	0.5239	-151.88098	0.83254	-58.31765	0.83254	-58.31765	0.5239	-151.88098
3270	0.53063	-152.66934	0.83471	-58.99908	0.83471	-58.99908	0.53063	-152.66934
3290	0.53517	-153.02496	0.83142	-59.32331	0.83142	-59.32331	0.53517	-153.02496
3310	0.53964	-153.09122	0.82819	-59.5428	0.82819	-59.5428	0.53964	-153.09122
3330	0.54427	-152.9998	0.82602	-59.82655	0.82602	-59.82655	0.54427	-152.9998
3350	0.54744	-152.87072	0.82135	-60.26014	0.82135	-60.26014	0.54744	-152.87072
3370	0.54997	-153.37778	0.81911	-60.55372	0.81911	-60.55372	0.54997	-153.37778
3390	0.5525	-153.96099	0.81792	-60.98574	0.81792	-60.98574	0.5525	-153.96099
3410	0.55655	-154.42408	0.81589	-61.47474	0.81589	-61.47474	0.55655	-154.42408
3430	0.56073	-154.73032	0.81229	-61.95558	0.81229	-61.95558	0.56073	-154.73032
3450	0.56077	-155.00251	0.80755	-62.37942	0.80755	-62.37942	0.56077	-155.00251
3470	0.56583	-155.39798	0.80769	-62.71655	0.80769	-62.71655	0.56583	-155.39798
3490	0.57116	-155.73178	0.80806	-63.24051	0.80806	-63.24051	0.57116	-155.73178
3510	0.57458	-156.09534	0.80547	-63.66241	0.80547	-63.66241	0.57458	-156.09534
3530	0.57665	-156.46377	0.80095	-63.86395	0.80095	-63.86395	0.57665	-156.46377
3550	0.58063	-156.69583	0.79974	-63.89744	0.79974	-63.89744	0.58063	-156.69583
3570	0.58504	-157.04446	0.7988	-64.71909	0.7988	-64.71909	0.58504	-157.04446
3590	0.58475	-157.41108	0.79544	-65.02326	0.79544	-65.02326	0.58475	-157.41108
3610	0.58767	-157.68926	0.79245	-65.32438	0.79245	-65.32438	0.58767	-157.68926
3630	0.59482	-158.022	0.7901	-65.8453	0.7901	-65.8453	0.59482	-158.022
3650	0.60031	-158.80168	0.78608	-66.51722	0.78608	-66.51722	0.60031	-158.80168
3670	0.60146	-158.80916	0.78291	-66.72038	0.78291	-66.72038	0.60146	-158.80916
3690	0.60465	-159.02459	0.78194	-67.12551	0.78194	-67.12551	0.60465	-159.02459
3710	0.60713	-159.46143	0.77842	-67.57656	0.77842	-67.57656	0.60713	-159.46143
3730	0.60835	-159.94704	0.77286	-67.8945	0.77286	-67.8945	0.60835	-159.94704
3750	0.60998	-160.12269	0.77106	-67.87729	0.77106	-67.87729	0.60998	-160.12269
3770	0.61538	-160.58297	0.76769	-68.57808	0.76769	-68.57808	0.61538	-160.58297
3790	0.61943	-160.94054	0.76749	-69.13618	0.76749	-69.13618	0.61943	-160.94054
3810	0.62293	-161.30538	0.76438	-69.46994	0.76438	-69.46994	0.62293	-161.30538
3830	0.62645	-161.71252	0.7585	-69.71479	0.7585	-69.71479	0.62645	-161.71252
3850	0.63035	-162.12207	0.75628	-70.22331	0.75628	-70.22331	0.63035	-162.12207
3870	0.63309	-162.29906	0.75411	-70.50303	0.75411	-70.50303	0.63309	-162.29906
3890	0.63743	-162.65881	0.75342	-70.9097	0.75342	-70.9097	0.63743	-162.65881
3910	0.63936	-163.12278	0.75091	-71.31483	0.75091	-71.31483	0.63936	-163.12278
3930	0.63985	-163.59212	0.74742	-71.67506	0.74742	-71.67506	0.63985	-163.59212
3950	0.64486	-163.94771	0.748	-72.03224	0.748	-72.03224	0.64486	-163.94771
3970	0.64921	-164.38188	0.74328	-72.66176	0.74328	-72.66176	0.64921	-164.38188
3990	0.65216	-164.70886	0.73692	-72.99495	0.73692	-72.99495	0.65216	-164.70886
4010	0.65535	-165.04772	0.733	-73.30716	0.733	-73.30716	0.65535	-165.04772
4030	0.65885	-165.45908	0.73248	-73.77242	0.73248	-73.77242	0.65885	-165.45908
4050	0.66112	-165.94515	0.73328	-74.46338	0.73328	-74.46338	0.66112	-165.94515
4070	0.66543	-166.40085	0.72843	-74.86775	0.72843	-74.86775	0.66543	-166.40085
4090	0.66726	-166.92878	0.72369	-75.19011	0.72369	-75.19011	0.66726	-166.92878
4110	0.66974	-167.34845	0.72059	-75.42444	0.72059	-75.42444	0.66974	-167.34845
4130	0.6731	-167.73509	0.71883	-75.70328	0.71883	-75.70328	0.6731	-167.73509
4150	0.67468	-168.41967	0.71631	-76.29767	0.71631	-76.29767	0.67468	-168.41967
4170	0.67913	-168.62228	0.70873	-76.7827	0.70873	-76.7827	0.67913	-168.62228
4190	0.68538	-168.85318	0.70689	-77.1944	0.70689	-77.1944	0.68538	-168.85318
4210	0.68887	-169.32653	0.70658	-77.65531	0.70658	-77.65531	0.68887	-169.32653
4230	0.68917	-169.87586	0.70421	-78.06726	0.70421	-78.06726	0.68917	-169.87586
4250	0.68999	-169.954	0.69683	-78.11134	0.69683	-78.11134	0.68999	-169.954
4270	0.69699	-170.24256	0.69501	-78.63278	0.69501	-78.63278	0.69699	-170.24256
4290	0.69817	-171.106	0.69271	-79.21623	0.69271	-79.21623	0.69817	-171.106
4310	0.69989	-171.8094	0.68965	-79.56681	0.68965	-79.56681	0.69989	-171.8094
4330	0.70512	-172.23836	0.68746	-79.85265	0.68746	-79.85265	0.70512	-172.23836
4350	0.71345	-172.899	0.68963	-80.70483	0.68963	-80.70483	0.71345	-172.899
4370	0.71186	-173.29096	0.6795	-80.90572	0.6795	-80.90572	0.71186	-173.29096
4390	0.71659	-173.42306	0.67603	-81.1335	0.67603	-81.1335	0.71659	-173.42306
4410	0.72007	-173.67887	0.67343	-81.5128	0.67343	-81.5128	0.72007	-173.67887
4430	0.72116	-174.14531	0.67014	-82.02319	0.67014	-82.02319	0.72116	-174.14531
4450	0.72516	-174.61259	0.66884	-82.49916	0.66884	-82.49916	0.72516	-174.61259
4470	0.72865	-175.39282	0.66827	-83.00341	0.66827	-83.00341	0.72865	-175.39282
4490	0.72694	-175.73173	0.65943	-83.2995	0.65943	-83.2995	0.72694	-175.73173
4510	0.73083	-175.87642	0.65546	-83.51996	0.65546	-83.51996	0.73083	-175.87642
4530	0.74019	-176.28668	0.65594	-83.95775	0.65594	-83.95775	0.74019	-176.28668
4550	0.74398	-177.63499	0.64687	-85.0662	0.64687	-85.0662	0.74398	-177.63499
4570	0.74014	-177.51283	0.64205	-84.73537	0.64205	-84.73537	0.74014	-177.51283
4590	0.74629	-177.83188	0.64663	-85.01761	0.64663	-85.01761	0.74629	-177.83188
4610	0.75084	-178.39257	0.64602	-85.76088	0.64602	-85.76088	0.75084	-178.39257
4630	0.75066	-178.99733	0.63711	-86.48341	0.63711	-86.48341	0.75066	-178.99733
4650	0.75113	-179.45062	0.62821	-86.37366	0.62821	-86.37366	0.75113	-179.45062
4670	0.75548	-179.77364	0.6299	-86.83243	0.6299	-86.83243	0.75548	-179.77364
4690	0.75747	180.0000	0.62569	-87.36636	0.62569	-87.36636	0.75747	180.0000
4710	0.76096	179.01028	0.62145	-87.85495	0.62145	-87.85495	0.76096	179.01028
4730	0.76596	178.54352	0.61873	-88.26974	0.61873	-88.26974	0.76596	178.54352
4750	0.76862	177.8816	0.61473	-88.67439	0.61473	-88.67439	0.76862	177.8816
4770	0.77081	177.54277	0.6104	-88.8992	0.6104	-88.8992	0.77081	177.54277
4790	0.77591	176.95101	0.60804	-89.59944	0.60804	-89.59944	0.77591	176.95101
4810	0.77745	176.54766	0.60567	-90.13783	0.60567	-90.13783	0.77745	176.54766
4830	0.77731	176.26162	0.60293	-90.37259	0.60293	-90.37259	0.77731	176.26162
4850	0.78577	175.5093	0.60105	-90.65747	0.60105	-90.65747	0.78577	175.5093
4870	0.78405	174.86163	0.59444	-91.22415	0.59444	-91.22415	0.78405	174.86163
4890	0.78439	174.55993	0.5882	-91.25996	0.5882	-91.25996	0.78439	174.55993
4910	0.78923	174.06738	0.58495	-91.65536	0.58495	-91.65536	0.78923	174.06738
4930	0.79547	173.40203	0.58295	-92.44457	0.58295	-92.44457	0.79547	173.40203
4950	0.79448	173.13677	0.5761	-92.80557	0.5761	-92.80557	0.79448	173.13677
4970	0.79842	172.72636	0.57348	-92.79641	0.57348	-92.79641	0.79842	172.72636
4990	0.80364	171.92326	0.57315	-93.7716	0.57315	-93.7716	0.80364	171.92326
5010	0.80354	171.30163	0.56804	-94.24621	0.56804	-94.24621	0.80354	171.30163
5030	0.80124	170.99013	0.56024	-94.03752	0.56024	-94.03752	0.80124	170.99013
5050	0.80959	170.67189	0.56094	-94.26506	0.56094	-94.26506	0.80959	170.67189
5070	0.81341	169.71505	0.5575	-95.30296	0.5575	-95.30296	0.81341	169.71505
