!{R05L1R5}
!Johanson Technology Inc.
!www.johansontechnology.com
!Test Board Conditions:
!Substrate Type  RO4350B
!Substrate Thickness        10 mil
!Substrate Dk      3.66
!TL Type: GCPW 
!TL Trace Width  22 mil
!TL Gap  25 mil
!Electrode orientation      Horizontal
!DUT TOPOLOGY	SERIES
!Mounting Pad LxW         11x14.5 mil
! Created Wed Nov 25 17:33:21 2020
! 2 Port Network Data from SP1.SP block
! freq  magS11  angS11  magS21  angS21  magS12  angS12  magS22  angS22  
! 
# khz S ma R 50  
   3.000000e+02   9.993969e-01   -1.790000e-01    2.782588e-04    7.902300e+01    2.943397e-04    8.873600e+01    9.999974e-01   -1.290000e-01
   1.300000e+03   9.999969e-01   -6.200000e-02    1.333057e-03    9.094300e+01    1.348182e-03    8.812600e+01    9.998818e-01   -9.100000e-02
   2.300000e+03   9.999946e-01   -2.300000e-01    2.265957e-03    8.973100e+01    2.339115e-03    9.013200e+01    9.992175e-01   -2.230000e-01
   3.300000e+03   9.996471e-01   -2.920000e-01    3.321213e-03    8.994000e+01    3.351944e-03    8.985000e+01    9.999924e-01   -2.900000e-01
   4.300000e+03   9.998739e-01   -3.680000e-01    4.290869e-03    8.959700e+01    4.307698e-03    8.957600e+01    9.999891e-01   -3.730000e-01
   5.300000e+03   9.999799e-01   -4.200000e-01    5.319138e-03    8.892100e+01    5.344305e-03    8.914600e+01    9.994450e-01   -4.430000e-01
   6.300000e+03   9.999774e-01   -4.820000e-01    6.338554e-03    8.944700e+01    6.329803e-03    8.935500e+01    9.998623e-01   -4.860000e-01
   7.300000e+03   9.999649e-01   -5.250000e-01    7.274192e-03    8.918200e+01    7.301040e-03    8.941900e+01    9.998874e-01   -5.350000e-01
   8.300000e+03   9.993881e-01   -5.660000e-01    8.314463e-03    8.937000e+01    8.353802e-03    8.944400e+01    9.999636e-01   -6.050000e-01
   9.300000e+03   9.999541e-01   -6.500000e-01    9.358337e-03    8.934200e+01    9.362648e-03    8.919600e+01    9.997800e-01   -6.480000e-01
   1.030000e+04   9.992603e-01   -6.810000e-01    1.033594e-02    8.928300e+01    1.038484e-02    8.942100e+01    9.995624e-01   -6.600000e-01
   1.130000e+04   9.985044e-01   -6.810000e-01    1.132531e-02    8.907300e+01    1.137104e-02    8.913800e+01    9.985044e-01   -6.880000e-01
   1.230000e+04   9.981596e-01   -7.160000e-01    1.234099e-02    8.910700e+01    1.235947e-02    8.939500e+01    9.977001e-01   -7.010000e-01
   1.330000e+04   9.981596e-01   -7.450000e-01    1.327242e-02    8.928100e+01    1.335365e-02    8.919300e+01    9.972407e-01   -7.730000e-01
   1.430000e+04   9.977001e-01   -8.010000e-01    1.434003e-02    8.916300e+01    1.436812e-02    8.909100e+01    9.979298e-01   -8.070000e-01
   1.530000e+04   9.980447e-01   -8.690000e-01    1.529326e-02    8.904900e+01    1.534440e-02    8.919700e+01    9.977001e-01   -8.580000e-01
   1.630000e+04   9.986194e-01   -9.220000e-01    1.632676e-02    8.892100e+01    1.639457e-02    8.911900e+01    9.986194e-01   -9.570000e-01
   1.730000e+04   9.994295e-01   -1.007000e+00    1.732008e-02    8.886700e+01    1.739402e-02    8.895800e+01    9.988494e-01   -1.023000e+00
   1.830000e+04   9.996693e-01   -1.089000e+00    1.835693e-02    8.895500e+01    1.843105e-02    8.887000e+01    9.995879e-01   -1.098000e+00
   1.930000e+04   9.998083e-01   -1.183000e+00    1.935098e-02    8.869200e+01    1.943135e-02    8.876400e+01    9.989625e-01   -1.221000e+00
   2.030000e+04   9.997909e-01   -1.270000e+00    2.034109e-02    8.852400e+01    2.037860e-02    8.886300e+01    9.991073e-01   -1.270000e+00
   2.130000e+04   9.997079e-01   -1.306000e+00    2.131650e-02    8.855400e+01    2.145685e-02    8.852900e+01    9.996491e-01   -1.336000e+00
   2.230000e+04   9.996691e-01   -1.388000e+00    2.236244e-02    8.858200e+01    2.244498e-02    8.858900e+01    9.997259e-01   -1.408000e+00
   2.330000e+04   9.997222e-01   -1.462000e+00    2.335014e-02    8.850000e+01    2.341745e-02    8.853100e+01    9.993677e-01   -1.466000e+00
   2.430000e+04   9.996980e-01   -1.550000e+00    2.433864e-02    8.847200e+01    2.442285e-02    8.842100e+01    9.992032e-01   -1.527000e+00
   2.530000e+04   9.995407e-01   -1.588000e+00    2.531385e-02    8.830600e+01    2.547758e-02    8.823000e+01    9.996003e-01   -1.604000e+00
   2.630000e+04   9.996391e-01   -1.613000e+00    2.633476e-02    8.838700e+01    2.642588e-02    8.836800e+01    9.994714e-01   -1.600000e+00
   2.730000e+04   9.996028e-01   -1.650000e+00    2.734237e-02    8.824900e+01    2.748440e-02    8.828800e+01    9.993226e-01   -1.677000e+00
   2.830000e+04   9.995881e-01   -1.700000e+00    2.839629e-02    8.824000e+01    2.841264e-02    8.817500e+01    9.994321e-01   -1.749000e+00
   2.930000e+04   9.995277e-01   -1.773000e+00    2.938671e-02    8.809600e+01    2.947820e-02    8.804900e+01    9.993306e-01   -1.760000e+00
   3.030000e+04   9.993768e-01   -1.823000e+00    3.032479e-02    8.801000e+01    3.048230e-02    8.814100e+01    9.994815e-01   -1.833000e+00
   3.130000e+04   9.994953e-01   -1.878000e+00    3.137179e-02    8.802900e+01    3.145497e-02    8.807000e+01    9.992115e-01   -1.894000e+00
   3.230000e+04   9.994698e-01   -1.916000e+00    3.239233e-02    8.802100e+01    3.248570e-02    8.803400e+01    9.983559e-01   -1.936000e+00
   3.330000e+04   9.993887e-01   -1.990000e+00    3.338740e-02    8.789200e+01    3.350291e-02    8.794500e+01    9.993158e-01   -1.987000e+00
   3.430000e+04   9.992462e-01   -2.071045e+00    3.433107e-02    8.777996e+01    3.449749e-02    8.790888e+01    9.993456e-01   -2.062076e+00
   3.530000e+04   9.993590e-01   -2.116054e+00    3.533029e-02    8.773904e+01    3.551788e-02    8.778800e+01    9.982564e-01   -2.138044e+00
   3.630000e+04   9.993108e-01   -2.170070e+00    3.636069e-02    8.777495e+01    3.653690e-02    8.779288e+01    9.989784e-01   -2.182033e+00
   3.730000e+04   9.992414e-01   -2.240053e+00    3.737539e-02    8.772290e+01    3.752199e-02    8.767295e+01    9.991594e-01   -2.215067e+00
   3.830000e+04   9.992371e-01   -2.293070e+00    3.834386e-02    8.762792e+01    3.850762e-02    8.762196e+01    9.988227e-01   -2.282073e+00
   3.930000e+04   9.987986e-01   -2.362983e+00    3.932488e-02    8.754899e+01    3.957001e-02    8.758197e+01    9.991785e-01   -2.355051e+00
   4.030000e+04   9.988902e-01   -2.346126e+00    4.033502e-02    8.754189e+01    4.047920e-02    8.754792e+01    9.991538e-01   -2.406086e+00
   4.130000e+04   9.991305e-01   -2.472039e+00    4.138525e-02    8.742995e+01    4.149977e-02    8.746501e+01    9.984953e-01   -2.492064e+00
   4.230000e+04   9.990791e-01   -2.511066e+00    4.239073e-02    8.738313e+01    4.252758e-02    8.747289e+01    9.987921e-01   -2.556030e+00
   4.330000e+04   9.990451e-01   -2.577144e+00    4.347519e-02    8.751671e+01    4.358563e-02    8.735988e+01    9.984775e-01   -2.586072e+00
   4.430000e+04   9.989298e-01   -2.720983e+00    4.432786e-02    8.722486e+01    4.461976e-02    8.723901e+01    9.986951e-01   -2.658116e+00
   4.530000e+04   9.989237e-01   -2.704095e+00    4.530979e-02    8.708502e+01    4.565543e-02    8.724489e+01    9.980709e-01   -2.774024e+00
   4.630000e+04   9.983031e-01   -2.799127e+00    4.629830e-02    8.710388e+01    4.669421e-02    8.713184e+01    9.988458e-01   -2.798072e+00
   4.730000e+04   9.983704e-01   -2.925994e+00    4.735943e-02    8.698587e+01    4.755071e-02    8.697499e+01    9.988337e-01   -2.870090e+00
   4.830000e+04   9.988007e-01   -2.920004e+00    4.830332e-02    8.685205e+01    4.855981e-02    8.696097e+01    9.974361e-01   -2.960072e+00
   4.930000e+04   9.985697e-01   -2.924196e+00    4.941599e-02    8.690300e+01    4.967844e-02    8.693296e+01    9.986448e-01   -3.032029e+00
   5.030000e+04   9.986821e-01   -3.120045e+00    5.029640e-02    8.690180e+01    5.062151e-02    8.689087e+01    9.981014e-01   -3.061060e+00
   5.130000e+04   9.985339e-01   -3.165031e+00    5.140086e-02    8.670507e+01    5.152532e-02    8.676384e+01    9.985598e-01   -3.121123e+00
   5.230000e+04   9.983774e-01   -3.196050e+00    5.240212e-02    8.677285e+01    5.256525e-02    8.660403e+01    9.985644e-01   -3.244009e+00
   5.330000e+04   9.985449e-01   -3.246113e+00    5.340200e-02    8.662605e+01    5.356227e-02    8.663880e+01    9.977353e-01   -3.253087e+00
   5.430000e+04   9.984939e-01   -3.358980e+00    5.423891e-02    8.667883e+01    5.457719e-02    8.644016e+01    9.969280e-01   -3.340089e+00
   5.530000e+04   9.980141e-01   -3.339140e+00    5.530323e-02    8.650396e+01    5.566724e-02    8.659883e+01    9.983747e-01   -3.428994e+00
   5.630000e+04   9.983646e-01   -3.479059e+00    5.635690e-02    8.646109e+01    5.663002e-02    8.642793e+01    9.976050e-01   -3.423087e+00
   5.730000e+04   9.971896e-01   -3.538044e+00    5.733656e-02    8.654673e+01    5.756154e-02    8.635591e+01    9.983350e-01   -3.510119e+00
   5.830000e+04   9.981279e-01   -3.582068e+00    5.828201e-02    8.627799e+01    5.861181e-02    8.626389e+01    9.980224e-01   -3.629048e+00
   5.930000e+04   9.981475e-01   -3.650050e+00    5.924942e-02    8.626406e+01    5.966676e-02    8.615107e+01    9.974770e-01   -3.677052e+00
   6.030000e+04   9.980877e-01   -3.700117e+00    6.042943e-02    8.632379e+01    6.063169e-02    8.621592e+01    9.980296e-01   -3.729072e+00
   6.130000e+04   9.971839e-01   -3.817042e+00    6.129568e-02    8.611702e+01    6.166358e-02    8.613581e+01    9.980646e-01   -3.801110e+00
   6.230000e+04   9.980223e-01   -3.859010e+00    6.235982e-02    8.613993e+01    6.258294e-02    8.594998e+01    9.972375e-01   -3.910977e+00
   6.330000e+04   9.978630e-01   -3.869102e+00    6.327436e-02    8.607084e+01    6.366158e-02    8.592992e+01    9.975183e-01   -3.888154e+00
   6.430000e+04   9.971572e-01   -3.971055e+00    6.430154e-02    8.590694e+01    6.464282e-02    8.585207e+01    9.978578e-01   -4.041991e+00
   6.530000e+04   9.978088e-01   -4.026053e+00    6.549584e-02    8.584899e+01    6.567712e-02    8.592580e+01    9.973740e-01   -4.033103e+00
   6.630000e+04   9.975391e-01   -4.079042e+00    6.637223e-02    8.583792e+01    6.661725e-02    8.572204e+01    9.976555e-01   -4.136034e+00
   6.730000e+04   9.959836e-01   -4.121091e+00    6.726023e-02    8.576289e+01    6.755511e-02    8.576490e+01    9.977035e-01   -4.170082e+00
   6.830000e+04   9.973951e-01   -4.212074e+00    6.830850e-02    8.564990e+01    6.858417e-02    8.566095e+01    9.975101e-01   -4.252033e+00
   6.930000e+04   9.971572e-01   -4.286003e+00    6.947349e-02    8.555101e+01    6.962576e-02    8.561287e+01    9.975017e-01   -4.285094e+00
   7.030000e+04   9.969564e-01   -4.289045e+00    7.033668e-02    8.555696e+01    7.062889e-02    8.548196e+01    9.974145e-01   -4.379025e+00
   7.130000e+04   9.973484e-01   -4.334079e+00    7.128589e-02    8.551792e+01    7.166435e-02    8.543999e+01    9.966612e-01   -4.404040e+00
   7.230000e+04   9.964995e-01   -4.413055e+00    7.231576e-02    8.543290e+01    7.263282e-02    8.542599e+01    9.973022e-01   -4.444064e+00
   7.330000e+04   9.969959e-01   -4.468074e+00    7.333299e-02    8.533506e+01    7.364593e-02    8.541683e+01    9.971109e-01   -4.508089e+00
   7.430000e+04   9.968052e-01   -4.542061e+00    7.433021e-02    8.539384e+01    7.454472e-02    8.524902e+01    9.971489e-01   -4.597003e+00
   7.530000e+04   9.969668e-01   -4.603031e+00    7.521196e-02    8.523494e+01    7.568964e-02    8.526601e+01    9.966231e-01   -4.600079e+00
   7.630000e+04   9.966787e-01   -4.634118e+00    7.627133e-02    8.517296e+01    7.666739e-02    8.527984e+01    9.969080e-01   -4.679115e+00
   7.730000e+04   9.967926e-01   -4.752071e+00    7.735875e-02    8.512990e+01    7.764442e-02    8.511987e+01    9.967920e-01   -4.794032e+00
   7.830000e+04   9.967813e-01   -4.823008e+00    7.819092e-02    8.503102e+01    7.862409e-02    8.498905e+01    9.962091e-01   -4.826034e+00
   7.930000e+04   9.958697e-01   -4.831070e+00    7.927884e-02    8.505089e+01    7.959903e-02    8.503495e+01    9.967861e-01   -4.860054e+00
   8.030000e+04   9.966104e-01   -4.901029e+00    8.021061e-02    8.493993e+01    8.061784e-02    8.498892e+01    9.962664e-01   -4.914080e+00
   8.130000e+04   9.965043e-01   -4.930084e+00    8.138303e-02    8.487290e+01    8.167410e-02    8.490788e+01    9.962748e-01   -4.994052e+00
   8.230000e+04   9.963876e-01   -5.014037e+00    8.224951e-02    8.477197e+01    8.263872e-02    8.478496e+01    9.960431e-01   -5.046043e+00
   8.330000e+04   9.963654e-01   -5.051106e+00    8.320012e-02    8.474096e+01    8.364193e-02    8.474592e+01    9.956781e-01   -5.089086e+00
   8.430000e+04   9.960458e-01   -5.157056e+00    8.419463e-02    8.469898e+01    8.466115e-02    8.467096e+01    9.961595e-01   -5.175076e+00
   8.530000e+04   9.962556e-01   -5.213057e+00    8.519739e-02    8.467391e+01    8.563001e-02    8.462594e+01    9.954536e-01   -5.251029e+00
   8.630000e+04   9.960528e-01   -5.270055e+00    8.626549e-02    8.458298e+01    8.664394e-02    8.456800e+01    9.958239e-01   -5.280043e+00
   8.730000e+04   9.956876e-01   -5.325070e+00    8.717219e-02    8.456691e+01    8.777631e-02    8.456790e+01    9.959159e-01   -5.323067e+00
   8.830000e+04   9.959685e-01   -5.395034e+00    8.816581e-02    8.447497e+01    8.865440e-02    8.446885e+01    9.951663e-01   -5.390071e+00
   8.930000e+04   9.958388e-01   -5.429073e+00    8.909317e-02    8.444291e+01    8.959712e-02    8.432401e+01    9.951517e-01   -5.461017e+00
   9.030000e+04   9.956207e-01   -5.502063e+00    9.017762e-02    8.435493e+01    9.060434e-02    8.433493e+01    9.955062e-01   -5.478100e+00
   9.130000e+04   9.954694e-01   -5.565027e+00    9.117638e-02    8.428298e+01    9.165008e-02    8.426496e+01    9.954696e-01   -5.578036e+00
   9.230000e+04   9.952054e-01   -5.592118e+00    9.208050e-02    8.426088e+01    9.266530e-02    8.422087e+01    9.954347e-01   -5.614079e+00
   9.330000e+04   9.950415e-01   -5.709999e+00    9.310995e-02    8.414199e+01    9.359349e-02    8.409303e+01    9.953848e-01   -5.693063e+00
   9.430000e+04   9.952865e-01   -5.709122e+00    9.417869e-02    8.413191e+01    9.456988e-02    8.412589e+01    9.951720e-01   -5.756030e+00
   9.530000e+04   9.950903e-01   -5.831025e+00    9.514080e-02    8.403897e+01    9.558009e-02    8.401496e+01    9.950901e-01   -5.786071e+00
   9.630000e+04   9.950512e-01   -5.856068e+00    9.607278e-02    8.401194e+01    9.666070e-02    8.396991e+01    9.948235e-01   -5.857055e+00
   9.730000e+04   9.939932e-01   -5.924042e+00    9.705942e-02    8.394989e+01    9.756360e-02    8.388397e+01    9.951373e-01   -5.912086e+00
   9.830000e+04   9.946950e-01   -5.966036e+00    9.808305e-02    8.384195e+01    9.861523e-02    8.385490e+01    9.948085e-01   -5.998081e+00
   9.930000e+04   9.948914e-01   -6.002069e+00    9.901033e-02    8.379395e+01    9.955899e-02    8.375600e+01    9.939769e-01   -6.079027e+00
   1.003000e+05   9.942661e-01   -6.071194e+00    1.000487e-01    8.374187e+01    1.006029e-01    8.375772e+01    9.947237e-01   -6.106060e+00
   1.013000e+05   9.943037e-01   -6.168088e+00    1.010480e-01    8.367884e+01    1.015146e-01    8.361779e+01    9.945324e-01   -6.136256e+00
   1.023000e+05   9.942298e-01   -6.212132e+00    1.020458e-01    8.359790e+01    1.025992e-01    8.351492e+01    9.943429e-01   -6.264074e+00
   1.033000e+05   9.944374e-01   -6.278096e+00    1.030474e-01    8.354788e+01    1.034516e-01    8.347498e+01    9.938683e-01   -6.301138e+00
   1.043000e+05   9.933836e-01   -6.326180e+00    1.040577e-01    8.348788e+01    1.045142e-01    8.346587e+01    9.944114e-01   -6.370104e+00
   1.053000e+05   9.938041e-01   -6.416064e+00    1.049566e-01    8.342987e+01    1.055501e-01    8.340185e+01    9.938048e-01   -6.422140e+00
   1.063000e+05   9.937077e-01   -6.448128e+00    1.060272e-01    8.336394e+01    1.065165e-01    8.332584e+01    9.940519e-01   -6.492098e+00
   1.073000e+05   9.932572e-01   -6.512162e+00    1.070086e-01    8.333578e+01    1.074656e-01    8.324487e+01    9.940562e-01   -6.541158e+00
   1.083000e+05   9.937314e-01   -6.593102e+00    1.079138e-01    8.322597e+01    1.084621e-01    8.318175e+01    9.936168e-01   -6.620112e+00
   1.093000e+05   9.936094e-01   -6.644142e+00    1.089117e-01    8.321077e+01    1.095525e-01    8.305807e+01    9.933809e-01   -6.676022e+00
   1.103000e+05   9.935257e-01   -6.715100e+00    1.099984e-01    8.309790e+01    1.103919e-01    8.309491e+01    9.934111e-01   -6.687160e+00
   1.113000e+05   9.934728e-01   -6.765058e+00    1.109339e-01    8.304590e+01    1.113944e-01    8.305097e+01    9.932427e-01   -6.767098e+00
   1.123000e+05   9.935417e-01   -6.794130e+00    1.120195e-01    8.299388e+01    1.123427e-01    8.303575e+01    9.926298e-01   -6.816168e+00
   1.133000e+05   9.928234e-01   -6.859062e+00    1.128834e-01    8.293186e+01    1.134042e-01    8.291093e+01    9.932810e-01   -6.900110e+00
   1.143000e+05   9.926415e-01   -6.890186e+00    1.139201e-01    8.286287e+01    1.143011e-01    8.287381e+01    9.932115e-01   -6.955186e+00
   1.153000e+05   9.929994e-01   -6.983138e+00    1.149889e-01    8.279592e+01    1.153869e-01    8.277992e+01    9.927710e-01   -7.048062e+00
   1.163000e+05   9.928359e-01   -7.052074e+00    1.158735e-01    8.275676e+01    1.163684e-01    8.273997e+01    9.927211e-01   -7.079082e+00
   1.173000e+05   9.927278e-01   -7.089186e+00    1.167318e-01    8.263793e+01    1.173645e-01    8.272281e+01    9.923841e-01   -7.120196e+00
   1.183000e+05   9.928262e-01   -7.182126e+00    1.179454e-01    8.260469e+01    1.182581e-01    8.262878e+01    9.920282e-01   -7.218102e+00
   1.193000e+05   9.922667e-01   -7.245004e+00    1.189419e-01    8.245116e+01    1.192439e-01    8.251991e+01    9.923796e-01   -7.269142e+00
   1.203000e+05   9.924746e-01   -7.247114e+00    1.198330e-01    8.252882e+01    1.203307e-01    8.247489e+01    9.919041e-01   -7.340106e+00
   1.213000e+05   9.922181e-01   -7.304174e+00    1.207577e-01    8.243789e+01    1.212592e-01    8.241892e+01    9.919898e-01   -7.393044e+00
   1.223000e+05   9.920555e-01   -7.391084e+00    1.217986e-01    8.238084e+01    1.222766e-01    8.237697e+01    9.919413e-01   -7.415142e+00
   1.233000e+05   9.919184e-01   -7.433140e+00    1.226686e-01    8.229988e+01    1.232772e-01    8.236179e+01    9.918053e-01   -7.486132e+00
   1.243000e+05   9.914702e-01   -7.503086e+00    1.236902e-01    8.223795e+01    1.241758e-01    8.225592e+01    9.919255e-01   -7.552172e+00
   1.253000e+05   9.917227e-01   -7.546136e+00    1.245370e-01    8.221380e+01    1.252409e-01    8.221693e+01    9.914939e-01   -7.638076e+00
   1.263000e+05   9.917177e-01   -7.614132e+00    1.256886e-01    8.211599e+01    1.261089e-01    8.217990e+01    9.912643e-01   -7.676150e+00
   1.273000e+05   9.906340e-01   -7.680120e+00    1.266684e-01    8.211178e+01    1.271073e-01    8.212978e+01    9.917715e-01   -7.751182e+00
   1.283000e+05   9.914549e-01   -7.740104e+00    1.275355e-01    8.200296e+01    1.282713e-01    8.201891e+01    9.907734e-01   -7.841958e+00
   1.293000e+05   9.904997e-01   -7.792114e+00    1.286206e-01    8.198385e+01    1.290953e-01    8.197386e+01    9.914097e-01   -7.821132e+00
   1.303000e+05   9.911545e-01   -7.849186e+00    1.296127e-01    8.190671e+01    1.300616e-01    8.190280e+01    9.907005e-01   -7.887194e+00
   1.313000e+05   9.903197e-01   -7.942104e+00    1.304464e-01    8.176107e+01    1.310938e-01    8.180189e+01    9.910013e-01   -7.984120e+00
   1.323000e+05   9.909280e-01   -7.994126e+00    1.315372e-01    8.179490e+01    1.321899e-01    8.174494e+01    9.902456e-01   -8.044094e+00
   1.333000e+05   9.904719e-01   -8.057186e+00    1.324642e-01    8.174480e+01    1.330759e-01    8.171582e+01    9.906998e-01   -8.091116e+00
   1.343000e+05   9.903232e-01   -8.150034e+00    1.334240e-01    8.164600e+01    1.341634e-01    8.162687e+01    9.904406e-01   -8.149050e+00
