! 250R05L0R7CV4
! Data taken January 31, 2003
! Data taken on a HP 8720C VNA using a shunt-through test fixture and TRL* de-embedding
#	mhz	s	ma	r	50
0	0.00000	-90.00000	0.99999	0.00000	0.99999	0.00000	0.00000	-90.00000
50	0.00887	-102.59627	0.99999	-1.14828	0.99999	-1.14828	0.00887	-102.59627
70	0.00643	-93.86463	0.99666	-1.3302	0.99666	-1.3302	0.00643	-93.86463
90	0.00814	-86.92872	0.99669	-1.37378	0.99669	-1.37378	0.00814	-86.92872
110	0.01213	-83.7062	0.99759	-1.63837	0.99759	-1.63837	0.01213	-83.7062
130	0.01624	-84.64158	0.99832	-2.14681	0.99832	-2.14681	0.01624	-84.64158
150	0.01804	-88.70624	0.99999	-2.58543	0.99999	-2.58543	0.01804	-88.70624
170	0.02036	-88.63465	0.99859	-2.54185	0.99859	-2.54185	0.02036	-88.63465
190	0.02198	-86.47193	0.99677	-2.89247	0.99677	-2.89247	0.02198	-86.47193
210	0.02359	-86.34538	0.99715	-3.20981	0.99715	-3.20981	0.02359	-86.34538
230	0.02574	-88.44145	0.99828	-3.40157	0.99828	-3.40157	0.02574	-88.44145
250	0.02891	-89.00572	0.99592	-3.7106	0.99592	-3.7106	0.02891	-89.00572
270	0.03114	-88.34182	0.99573	-3.87889	0.99573	-3.87889	0.03114	-88.34182
290	0.03353	-88.46644	0.99654	-4.19922	0.99654	-4.19922	0.03353	-88.46644
310	0.03563	-88.59985	0.99597	-4.57753	0.99597	-4.57753	0.03563	-88.59985
330	0.03741	-88.35561	0.99403	-4.87596	0.99403	-4.87596	0.03741	-88.35561
350	0.03924	-87.74056	0.99315	-4.91277	0.99315	-4.91277	0.03924	-87.74056
370	0.04094	-88.55256	0.99758	-5.28469	0.99758	-5.28469	0.04094	-88.55256
390	0.04306	-90.06009	0.99724	-5.7019	0.99724	-5.7019	0.04306	-90.06009
410	0.04547	-91.31447	0.99705	-6.10935	0.99705	-6.10935	0.04547	-91.31447
430	0.04802	-91.66792	0.99858	-6.44323	0.99858	-6.44323	0.04802	-91.66792
450	0.05057	-90.77369	0.99999	-6.63098	0.99999	-6.63098	0.05057	-90.77369
470	0.05264	-90.20079	0.99839	-6.85653	0.99839	-6.85653	0.05264	-90.20079
490	0.04699	-93.4153	0.99889	-6.97638	0.99889	-6.97638	0.04699	-93.4153
510	0.04304	-95.74687	0.99433	-7.08848	0.99433	-7.08848	0.04304	-95.74687
530	0.04394	-96.52046	0.9881	-7.28255	0.9881	-7.28255	0.04394	-96.52046
550	0.0466	-99.05638	0.99415	-7.64009	0.99415	-7.64009	0.0466	-99.05638
570	0.04971	-99.65786	0.99539	-8.05594	0.99539	-8.05594	0.04971	-99.65786
590	0.05238	-99.83539	0.99377	-8.27956	0.99377	-8.27956	0.05238	-99.83539
610	0.05489	-99.67677	0.99322	-8.44689	0.99322	-8.44689	0.05489	-99.67677
630	0.05711	-98.99401	0.99444	-8.66774	0.99444	-8.66774	0.05711	-98.99401
650	0.05851	-97.32334	0.99483	-9.02571	0.99483	-9.02571	0.05851	-97.32334
670	0.05929	-97.41005	0.99592	-9.36854	0.99592	-9.36854	0.05929	-97.41005
690	0.06012	-99.08991	0.99565	-9.70326	0.99565	-9.70326	0.06012	-99.08991
710	0.06106	-100.74074	0.99429	-9.95295	0.99429	-9.95295	0.06106	-100.74074
730	0.06266	-102.02857	0.99307	-10.15251	0.99307	-10.15251	0.06266	-102.02857
750	0.06596	-103.90766	0.99418	-10.44863	0.99418	-10.44863	0.06596	-103.90766
770	0.07002	-105.40598	0.99556	-10.84844	0.99556	-10.84844	0.07002	-105.40598
790	0.07434	-105.7505	0.99524	-11.02467	0.99524	-11.02467	0.07434	-105.7505
810	0.07808	-105.06912	0.99386	-11.19665	0.99386	-11.19665	0.07808	-105.06912
830	0.08094	-103.75982	0.99309	-11.52904	0.99309	-11.52904	0.08094	-103.75982
850	0.08314	-102.4906	0.99556	-12.1318	0.99556	-12.1318	0.08314	-102.4906
870	0.0847	-102.5907	0.99587	-12.07921	0.99587	-12.07921	0.0847	-102.5907
890	0.08527	-102.73117	0.99381	-12.46044	0.99381	-12.46044	0.08527	-102.73117
910	0.08629	-103.08844	0.99223	-12.7601	0.99223	-12.7601	0.08629	-103.08844
930	0.08831	-103.69903	0.99186	-12.91037	0.99186	-12.91037	0.08831	-103.69903
950	0.09093	-104.45948	0.99134	-13.29102	0.99134	-13.29102	0.09093	-104.45948
970	0.09365	-104.92204	0.99299	-13.5204	0.99299	-13.5204	0.09365	-104.92204
990	0.0967	-104.68408	0.99203	-13.79739	0.99203	-13.79739	0.0967	-104.68408
1010	0.0994	-104.13539	0.99128	-14.08413	0.99128	-14.08413	0.0994	-104.13539
1030	0.10152	-103.5343	0.99163	-14.36568	0.99163	-14.36568	0.10152	-103.5343
1050	0.10328	-103.00762	0.99209	-14.65009	0.99209	-14.65009	0.10328	-103.00762
1070	0.10339	-103.35813	0.99165	-15.00419	0.99165	-15.00419	0.10339	-103.35813
1090	0.10406	-103.93643	0.99163	-15.24045	0.99163	-15.24045	0.10406	-103.93643
1110	0.10541	-104.54272	0.992	-15.36759	0.992	-15.36759	0.10541	-104.54272
1130	0.10754	-105.24718	0.9918	-15.56095	0.9918	-15.56095	0.10754	-105.24718
1150	0.11048	-106.38999	0.98911	-16.16248	0.98911	-16.16248	0.11048	-106.38999
1170	0.11281	-106.77742	0.98807	-16.33038	0.98807	-16.33038	0.11281	-106.77742
1190	0.11544	-106.84625	0.99085	-16.65148	0.99085	-16.65148	0.11544	-106.84625
1210	0.11776	-106.8257	0.99273	-16.95368	0.99273	-16.95368	0.11776	-106.8257
1230	0.11961	-106.91268	0.99173	-17.22909	0.99173	-17.22909	0.11961	-106.91268
1250	0.12124	-107.27186	0.98866	-17.63404	0.98866	-17.63404	0.12124	-107.27186
1270	0.12211	-107.42662	0.98811	-17.79569	0.98811	-17.79569	0.12211	-107.42662
1290	0.1232	-107.90237	0.98896	-18.18133	0.98896	-18.18133	0.1232	-107.90237
1310	0.12483	-108.66909	0.99059	-18.48196	0.99059	-18.48196	0.12483	-108.66909
1330	0.12683	-109.66289	0.99109	-18.65659	0.99109	-18.65659	0.12683	-109.66289
1350	0.12856	-110.78607	0.98725	-18.9323	0.98725	-18.9323	0.12856	-110.78607
1370	0.13165	-111.45024	0.98809	-19.36518	0.98809	-19.36518	0.13165	-111.45024
1390	0.13483	-111.86587	0.98775	-19.58151	0.98775	-19.58151	0.13483	-111.86587
1410	0.13809	-112.30673	0.9875	-19.80802	0.9875	-19.80802	0.13809	-112.30673
1430	0.14116	-112.78661	0.98733	-20.0889	0.98733	-20.0889	0.14116	-112.78661
1450	0.14352	-113.05941	0.98602	-20.28581	0.98602	-20.28581	0.14352	-113.05941
1470	0.14606	-113.2271	0.98609	-20.66902	0.98609	-20.66902	0.14606	-113.2271
1490	0.14881	-113.51243	0.98759	-21.01865	0.98759	-21.01865	0.14881	-113.51243
1510	0.15088	-113.74095	0.98726	-21.33046	0.98726	-21.33046	0.15088	-113.74095
1530	0.15243	-114.01655	0.98498	-21.66693	0.98498	-21.66693	0.15243	-114.01655
1550	0.15463	-114.72144	0.98378	-22.1572	0.98378	-22.1572	0.15463	-114.72144
1570	0.15683	-114.83672	0.98261	-22.33586	0.98261	-22.33586	0.15683	-114.83672
1590	0.15934	-115.545	0.98279	-22.67435	0.98279	-22.67435	0.15934	-115.545
1610	0.16221	-116.18489	0.98328	-23.00662	0.98328	-23.00662	0.16221	-116.18489
1630	0.16535	-116.54483	0.98303	-23.26756	0.98303	-23.26756	0.16535	-116.54483
1650	0.16856	-116.86312	0.98097	-23.49302	0.98097	-23.49302	0.16856	-116.86312
1670	0.17157	-116.69001	0.98013	-23.70452	0.98013	-23.70452	0.17157	-116.69001
1690	0.17383	-116.86205	0.98024	-23.9389	0.98024	-23.9389	0.17383	-116.86205
1710	0.176	-117.08455	0.98019	-24.27969	0.98019	-24.27969	0.176	-117.08455
1730	0.17807	-117.28963	0.97981	-24.67932	0.97981	-24.67932	0.17807	-117.28963
1750	0.17941	-117.63621	0.97981	-24.95911	0.97981	-24.95911	0.17941	-117.63621
1770	0.18131	-118.2412	0.97868	-25.29494	0.97868	-25.29494	0.18131	-118.2412
1790	0.18429	-118.72947	0.97941	-25.55346	0.97941	-25.55346	0.18429	-118.72947
1810	0.18746	-119.16801	0.97812	-25.81237	0.97812	-25.81237	0.18746	-119.16801
1830	0.19054	-119.52961	0.97621	-26.11864	0.97621	-26.11864	0.19054	-119.52961
1850	0.19385	-119.69286	0.98036	-26.48848	0.98036	-26.48848	0.19385	-119.69286
1870	0.19674	-119.47263	0.97719	-26.72529	0.97719	-26.72529	0.19674	-119.47263
1890	0.19909	-119.56325	0.97596	-26.93751	0.97596	-26.93751	0.19909	-119.56325
1910	0.20095	-119.79418	0.97628	-27.25146	0.97628	-27.25146	0.20095	-119.79418
1930	0.20226	-120.04509	0.97694	-27.62189	0.97694	-27.62189	0.20226	-120.04509
1950	0.20281	-120.24589	0.9759	-27.83198	0.9759	-27.83198	0.20281	-120.24589
1970	0.20482	-120.93059	0.97408	-28.1165	0.97408	-28.1165	0.20482	-120.93059
1990	0.20767	-121.5302	0.97275	-28.43246	0.97275	-28.43246	0.20767	-121.5302
2010	0.21035	-121.95703	0.97188	-28.73191	0.97188	-28.73191	0.21035	-121.95703
2030	0.21279	-122.261	0.9716	-29.0501	0.9716	-29.0501	0.21279	-122.261
2050	0.21586	-122.62961	0.97215	-29.5055	0.97215	-29.5055	0.21586	-122.62961
2070	0.21888	-122.87827	0.97009	-29.7838	0.97009	-29.7838	0.21888	-122.87827
2090	0.2207	-123.08137	0.96803	-30.04382	0.96803	-30.04382	0.2207	-123.08137
2110	0.22234	-123.36866	0.96797	-30.44306	0.96797	-30.44306	0.22234	-123.36866
2130	0.2241	-123.68729	0.96915	-30.85931	0.96915	-30.85931	0.2241	-123.68729
2150	0.22551	-123.80189	0.96807	-30.89065	0.96807	-30.89065	0.22551	-123.80189
2170	0.22817	-124.46605	0.96763	-31.27792	0.96763	-31.27792	0.22817	-124.46605
2190	0.23132	-124.95558	0.96776	-31.62559	0.96776	-31.62559	0.23132	-124.95558
2210	0.2349	-125.3674	0.96732	-31.94206	0.96732	-31.94206	0.2349	-125.3674
2230	0.23831	-125.71318	0.96615	-32.27063	0.96615	-32.27063	0.23831	-125.71318
2250	0.24044	-125.91937	0.96505	-32.6895	0.96505	-32.6895	0.24044	-125.91937
2270	0.24259	-126.08487	0.96391	-32.75556	0.96391	-32.75556	0.24259	-126.08487
2290	0.24528	-126.42021	0.96547	-33.40233	0.96547	-33.40233	0.24528	-126.42021
2310	0.24768	-126.79403	0.964	-33.82167	0.964	-33.82167	0.24768	-126.79403
2330	0.2499	-127.10251	0.95959	-33.87977	0.95959	-33.87977	0.2499	-127.10251
2350	0.25306	-127.26927	0.95815	-34.11725	0.95815	-34.11725	0.25306	-127.26927
2370	0.25582	-127.66799	0.96151	-34.45482	0.96151	-34.45482	0.25582	-127.66799
2390	0.25886	-127.98964	0.9604	-34.85015	0.9604	-34.85015	0.25886	-127.98964
2410	0.26139	-128.15533	0.95831	-35.0691	0.95831	-35.0691	0.26139	-128.15533
2430	0.26378	-128.34453	0.95747	-35.21311	0.95747	-35.21311	0.26378	-128.34453
2450	0.26754	-128.99511	0.95884	-35.71914	0.95884	-35.71914	0.26754	-128.99511
2470	0.27005	-129.35399	0.95763	-36.13621	0.95763	-36.13621	0.27005	-129.35399
2490	0.27229	-129.56256	0.95466	-36.4237	0.95466	-36.4237	0.27229	-129.56256
2510	0.27538	-129.77678	0.95398	-36.6011	0.95398	-36.6011	0.27538	-129.77678
2530	0.27923	-130.06724	0.95474	-36.8153	0.95474	-36.8153	0.27923	-130.06724
2550	0.28262	-130.4191	0.95117	-37.3405	0.95117	-37.3405	0.28262	-130.4191
2570	0.28608	-130.34648	0.95301	-37.59078	0.95301	-37.59078	0.28608	-130.34648
2590	0.28863	-130.3684	0.9531	-37.90472	0.9531	-37.90472	0.28863	-130.3684
2610	0.29015	-130.64457	0.95235	-38.27321	0.95235	-38.27321	0.29015	-130.64457
2630	0.29161	-131.03189	0.95003	-38.62583	0.95003	-38.62583	0.29161	-131.03189
2650	0.295	-131.08444	0.94377	-38.83081	0.94377	-38.83081	0.295	-131.08444
2670	0.29805	-131.40476	0.94776	-39.17756	0.94776	-39.17756	0.29805	-131.40476
2690	0.30119	-131.7175	0.94597	-39.7161	0.94597	-39.7161	0.30119	-131.7175
2710	0.30521	-131.98292	0.94525	-40.00601	0.94525	-40.00601	0.30521	-131.98292
2730	0.30914	-132.20741	0.94687	-40.13825	0.94687	-40.13825	0.30914	-132.20741
2750	0.31035	-132.44348	0.94654	-40.73514	0.94654	-40.73514	0.31035	-132.44348
2770	0.30885	-132.61558	0.9415	-40.97275	0.9415	-40.97275	0.30885	-132.61558
2790	0.31245	-132.56092	0.93928	-41.2467	0.93928	-41.2467	0.31245	-132.56092
2810	0.31607	-132.82376	0.93938	-41.72596	0.93938	-41.72596	0.31607	-132.82376
2830	0.31808	-133.36493	0.93998	-42.24386	0.93998	-42.24386	0.31808	-133.36493
2850	0.32026	-133.56178	0.93799	-42.29814	0.93799	-42.29814	0.32026	-133.56178
2870	0.3219	-133.92977	0.93859	-42.49078	0.93859	-42.49078	0.3219	-133.92977
2890	0.32563	-134.15839	0.93597	-42.6739	0.93597	-42.6739	0.32563	-134.15839
2910	0.32991	-134.37074	0.9346	-43.03221	0.9346	-43.03221	0.32991	-134.37074
2930	0.3338	-134.53274	0.93478	-43.48948	0.93478	-43.48948	0.3338	-134.53274
2950	0.33689	-134.45315	0.93259	-43.70859	0.93259	-43.70859	0.33689	-134.45315
2970	0.33974	-134.71631	0.93055	-44.13017	0.93055	-44.13017	0.33974	-134.71631
2990	0.34125	-134.79129	0.9304	-44.35545	0.9304	-44.35545	0.34125	-134.79129
3010	0.34268	-134.93379	0.93075	-44.53265	0.93075	-44.53265	0.34268	-134.93379
3030	0.34505	-135.32569	0.9301	-44.86425	0.9301	-44.86425	0.34505	-135.32569
3050	0.34907	-136.07504	0.9269	-45.60694	0.9269	-45.60694	0.34907	-136.07504
3070	0.34925	-136.58436	0.92446	-45.94904	0.92446	-45.94904	0.34925	-136.58436
3090	0.35273	-136.66901	0.92602	-46.13695	0.92602	-46.13695	0.35273	-136.66901
3110	0.35754	-136.73317	0.92629	-46.35013	0.92629	-46.35013	0.35754	-136.73317
3130	0.36203	-136.85492	0.92345	-46.62859	0.92345	-46.62859	0.36203	-136.85492
3150	0.36484	-136.78621	0.91912	-46.87285	0.91912	-46.87285	0.36484	-136.78621
3170	0.36531	-136.85976	0.9202	-47.0771	0.9202	-47.0771	0.36531	-136.85976
3190	0.36736	-137.06965	0.91873	-47.43321	0.91873	-47.43321	0.36736	-137.06965
3210	0.36988	-137.54434	0.9168	-47.86053	0.9168	-47.86053	0.36988	-137.54434
3230	0.37246	-138.06208	0.91499	-48.29164	0.91499	-48.29164	0.37246	-138.06208
3250	0.37545	-138.05087	0.91234	-48.67237	0.91234	-48.67237	0.37545	-138.05087
3270	0.38122	-138.76872	0.91689	-49.12072	0.91689	-49.12072	0.38122	-138.76872
3290	0.38487	-139.15664	0.91471	-49.35255	0.91471	-49.35255	0.38487	-139.15664
3310	0.38839	-139.24015	0.91115	-49.60382	0.91115	-49.60382	0.38839	-139.24015
3330	0.39245	-139.10091	0.91007	-49.89505	0.91007	-49.89505	0.39245	-139.10091
3350	0.39641	-138.87673	0.91386	-50.03127	0.91386	-50.03127	0.39641	-138.87673
3370	0.39578	-139.31655	0.90737	-50.53137	0.90737	-50.53137	0.39578	-139.31655
3390	0.39783	-139.64807	0.90612	-50.84414	0.90612	-50.84414	0.39783	-139.64807
3410	0.40125	-139.88058	0.90588	-51.20829	0.90588	-51.20829	0.40125	-139.88058
3430	0.4046	-140.10418	0.90407	-51.61408	0.90407	-51.61408	0.4046	-140.10418
3450	0.40624	-140.48982	0.89969	-51.80337	0.89969	-51.80337	0.40624	-140.48982
3470	0.40992	-140.67985	0.90154	-52.24349	0.90154	-52.24349	0.40992	-140.67985
3490	0.41324	-140.93866	0.90302	-52.55803	0.90302	-52.55803	0.41324	-140.93866
3510	0.41598	-141.1749	0.9013	-52.84513	0.9013	-52.84513	0.41598	-141.1749
3530	0.41854	-141.33742	0.89812	-53.09735	0.89812	-53.09735	0.41854	-141.33742
3550	0.42199	-141.41526	0.89973	-53.20162	0.89973	-53.20162	0.42199	-141.41526
3570	0.42471	-141.92423	0.89682	-53.78881	0.89682	-53.78881	0.42471	-141.92423
3590	0.42453	-142.22104	0.89367	-54.10412	0.89367	-54.10412	0.42453	-142.22104
3610	0.42672	-142.30542	0.89292	-54.33635	0.89292	-54.33635	0.42672	-142.30542
3630	0.43163	-142.4382	0.8936	-54.6114	0.8936	-54.6114	0.43163	-142.4382
3650	0.43474	-143.14136	0.89108	-54.99223	0.89108	-54.99223	0.43474	-143.14136
3670	0.43709	-143.17262	0.88916	-55.32385	0.88916	-55.32385	0.43709	-143.17262
3690	0.43974	-143.20304	0.88968	-55.76892	0.88968	-55.76892	0.43974	-143.20304
3710	0.44186	-143.45258	0.88757	-56.17388	0.88757	-56.17388	0.44186	-143.45258
3730	0.44358	-143.85013	0.88364	-56.46388	0.88364	-56.46388	0.44358	-143.85013
3750	0.44598	-144.03345	0.88463	-56.64269	0.88463	-56.64269	0.44598	-144.03345
3770	0.4485	-144.41529	0.88376	-56.93108	0.88376	-56.93108	0.4485	-144.41529
3790	0.45237	-144.63758	0.88433	-57.31828	0.88433	-57.31828	0.45237	-144.63758
3810	0.45551	-144.99685	0.88121	-57.66483	0.88121	-57.66483	0.45551	-144.99685
3830	0.45781	-145.46397	0.87559	-57.95941	0.87559	-57.95941	0.45781	-145.46397
3850	0.46116	-145.68422	0.87498	-58.31892	0.87498	-58.31892	0.46116	-145.68422
3870	0.46327	-145.77825	0.87374	-58.55604	0.87374	-58.55604	0.46327	-145.77825
3890	0.46697	-145.95159	0.87425	-58.84587	0.87425	-58.84587	0.46697	-145.95159
3910	0.46896	-146.32163	0.87308	-59.25703	0.87308	-59.25703	0.46896	-146.32163
3930	0.46938	-146.77687	0.87045	-59.66566	0.87045	-59.66566	0.46938	-146.77687
3950	0.47189	-146.97691	0.87022	-59.75542	0.87022	-59.75542	0.47189	-146.97691
3970	0.47706	-147.26659	0.86749	-60.01566	0.86749	-60.01566	0.47706	-147.26659
3990	0.4791	-147.67116	0.86367	-60.46825	0.86367	-60.46825	0.4791	-147.67116
4010	0.48152	-148.01054	0.86132	-60.88868	0.86132	-60.88868	0.48152	-148.01054
4030	0.4849	-148.26423	0.86175	-61.25414	0.86175	-61.25414	0.4849	-148.26423
4050	0.48694	-148.57129	0.86508	-61.74346	0.86508	-61.74346	0.48694	-148.57129
4070	0.49002	-148.88069	0.86203	-62.11675	0.86203	-62.11675	0.49002	-148.88069
4090	0.49095	-149.35231	0.85802	-62.41651	0.85802	-62.41651	0.49095	-149.35231
4110	0.49263	-149.69815	0.85638	-62.71196	0.85638	-62.71196	0.49263	-149.69815
4130	0.49541	-149.93802	0.85656	-63.01501	0.85656	-63.01501	0.49541	-149.93802
4150	0.49717	-150.39951	0.85411	-63.28022	0.85411	-63.28022	0.49717	-150.39951
4170	0.50126	-150.72477	0.8495	-63.70929	0.8495	-63.70929	0.50126	-150.72477
4190	0.50535	-150.85995	0.85002	-63.9448	0.85002	-63.9448	0.50535	-150.85995
4210	0.50864	-151.15161	0.85039	-64.32182	0.85039	-64.32182	0.50864	-151.15161
4230	0.51059	-151.55422	0.84842	-64.79227	0.84842	-64.79227	0.51059	-151.55422
4250	0.51092	-151.63017	0.84502	-64.92498	0.84502	-64.92498	0.51092	-151.63017
4270	0.51252	-151.73955	0.84364	-65.24135	0.84364	-65.24135	0.51252	-151.73955
4290	0.5157	-152.51662	0.84281	-65.74954	0.84281	-65.74954	0.5157	-152.51662
4310	0.51841	-153.19106	0.841	-66.10148	0.841	-66.10148	0.51841	-153.19106
4330	0.52144	-153.61781	0.84017	-66.34027	0.84017	-66.34027	0.52144	-153.61781
4350	0.52841	-154.27702	0.84583	-66.90021	0.84583	-66.90021	0.52841	-154.27702
4370	0.5288	-154.49996	0.83611	-67.21665	0.83611	-67.21665	0.5288	-154.49996
4390	0.53226	-154.53811	0.83243	-67.47856	0.83243	-67.47856	0.53226	-154.53811
4410	0.53489	-154.70908	0.8315	-67.73377	0.8315	-67.73377	0.53489	-154.70908
4430	0.53588	-155.04391	0.83102	-68.00326	0.83102	-68.00326	0.53588	-155.04391
4450	0.53754	-155.28711	0.82971	-68.28116	0.82971	-68.28116	0.53754	-155.28711
4470	0.54228	-155.91147	0.82944	-68.80612	0.82944	-68.80612	0.54228	-155.91147
4490	0.54221	-156.2524	0.8249	-69.23534	0.8249	-69.23534	0.54221	-156.2524
4510	0.54431	-156.37187	0.82373	-69.41242	0.82373	-69.41242	0.54431	-156.37187
4530	0.54986	-156.64757	0.82529	-69.5718	0.82529	-69.5718	0.54986	-156.64757
4550	0.55448	-157.77287	0.82067	-70.33872	0.82067	-70.33872	0.55448	-157.77287
4570	0.55372	-157.83892	0.81531	-70.32249	0.81531	-70.32249	0.55372	-157.83892
4590	0.55731	-158.0575	0.82038	-70.56793	0.82038	-70.56793	0.55731	-158.0575
4610	0.56045	-158.38171	0.82193	-71.06523	0.82193	-71.06523	0.56045	-158.38171
4630	0.56168	-158.80839	0.81598	-71.6031	0.81598	-71.6031	0.56168	-158.80839
4650	0.56296	-159.37816	0.80856	-71.76884	0.80856	-71.76884	0.56296	-159.37816
4670	0.56673	-159.61336	0.81008	-72.15981	0.81008	-72.15981	0.56673	-159.61336
4690	0.56869	-160.1197	0.80718	-72.56003	0.80718	-72.56003	0.56869	-160.1197
4710	0.57143	-160.63048	0.80429	-72.91285	0.80429	-72.91285	0.57143	-160.63048
4730	0.57533	-161.05699	0.80266	-73.24438	0.80266	-73.24438	0.57533	-161.05699
4750	0.57855	-161.48859	0.80038	-73.6636	0.80038	-73.6636	0.57855	-161.48859
4770	0.58032	-161.61831	0.7997	-73.77333	0.7997	-73.77333	0.58032	-161.61831
4790	0.58384	-162.19223	0.79968	-74.29452	0.79968	-74.29452	0.58384	-162.19223
4810	0.58521	-162.58882	0.79823	-74.65691	0.79823	-74.65691	0.58521	-162.58882
4830	0.58586	-162.78275	0.79667	-74.81071	0.79667	-74.81071	0.58586	-162.78275
4850	0.59255	-163.34485	0.79969	-75.22661	0.79969	-75.22661	0.59255	-163.34485
4870	0.59301	-163.87929	0.79273	-75.60359	0.79273	-75.60359	0.59301	-163.87929
4890	0.5944	-164.0936	0.78834	-75.78751	0.78834	-75.78751	0.5944	-164.0936
4910	0.59786	-164.44236	0.78713	-76.10249	0.78713	-76.10249	0.59786	-164.44236
4930	0.60211	-165.00036	0.78689	-76.6036	0.78689	-76.6036	0.60211	-165.00036
4950	0.60339	-165.46264	0.78258	-77.07689	0.78258	-77.07689	0.60339	-165.46264
4970	0.60247	-165.50468	0.78058	-76.86095	0.78058	-76.86095	0.60247	-165.50468
4990	0.6081	-166.06997	0.78358	-77.5601	0.78358	-77.5601	0.6081	-166.06997
5010	0.61048	-166.67699	0.78052	-78.19862	0.78052	-78.19862	0.61048	-166.67699
5030	0.60885	-167.07751	0.77255	-78.38629	0.77255	-78.38629	0.60885	-167.07751
5050	0.6115	-167.25657	0.77306	-78.31834	0.77306	-78.31834	0.6115	-167.25657
5070	0.61956	-167.93112	0.77378	-79.08112	0.77378	-79.08112	0.61956	-167.93112
