! 250R05L0R6CV4
! Data taken January 31, 2003
! Data taken on a HP 8720C VNA using a shunt-through test fixture and TRL* de-embedding
#	mhz	s	ma	r	50
0	0.00000	-90.00000	0.99999	0.00000	0.99999	0.00000	0.00000	-90.00000
50	0.0096	-75.60821	0.99458	-1.58421	0.99458	-1.58421	0.0096	-75.60821
70	0.00796	-90.40271	0.99699	-1.45414	0.99699	-1.45414	0.00796	-90.40271
90	0.00953	-87.133	0.9991	-1.47195	0.9991	-1.47195	0.00953	-87.133
110	0.01228	-82.8756	0.99864	-1.65307	0.99864	-1.65307	0.01228	-82.8756
130	0.0151	-84.39402	0.99589	-2.00932	0.99589	-2.00932	0.0151	-84.39402
150	0.01779	-88.13873	0.99366	-2.54887	0.99366	-2.54887	0.01779	-88.13873
170	0.01956	-87.70807	0.99999	-2.43642	0.99999	-2.43642	0.01956	-87.70807
190	0.02068	-87.07203	0.9984	-2.85106	0.9984	-2.85106	0.02068	-87.07203
210	0.02249	-86.72957	0.99715	-3.23539	0.99715	-3.23539	0.02249	-86.72957
230	0.02525	-87.32478	0.99899	-3.45304	0.99899	-3.45304	0.02525	-87.32478
250	0.02816	-89.64685	0.99852	-3.78868	0.99852	-3.78868	0.02816	-89.64685
270	0.0301	-89.24322	0.99428	-4.00957	0.99428	-4.00957	0.0301	-89.24322
290	0.03229	-88.53496	0.99519	-4.25416	0.99519	-4.25416	0.03229	-88.53496
310	0.03454	-88.07099	0.99652	-4.50281	0.99652	-4.50281	0.03454	-88.07099
330	0.03657	-87.98192	0.99655	-4.78894	0.99655	-4.78894	0.03657	-87.98192
350	0.03809	-87.97998	0.99653	-5.19904	0.99653	-5.19904	0.03809	-87.97998
370	0.03975	-89.05615	0.99618	-5.32923	0.99618	-5.32923	0.03975	-89.05615
390	0.04155	-90.22419	0.99624	-5.55347	0.99624	-5.55347	0.04155	-90.22419
410	0.04377	-91.26867	0.99631	-5.8918	0.99631	-5.8918	0.04377	-91.26867
430	0.04644	-91.84421	0.99699	-6.2115	0.99699	-6.2115	0.04644	-91.84421
450	0.04933	-91.4755	0.99992	-6.22703	0.99992	-6.22703	0.04933	-91.4755
470	0.05083	-90.57171	0.99819	-6.76283	0.99819	-6.76283	0.05083	-90.57171
490	0.04493	-93.58387	0.99679	-7.04679	0.99679	-7.04679	0.04493	-93.58387
510	0.04091	-96.05569	0.99382	-7.28682	0.99382	-7.28682	0.04091	-96.05569
530	0.04185	-97.11158	0.99064	-7.5017	0.99064	-7.5017	0.04185	-97.11158
550	0.04469	-99.45669	0.99184	-7.52102	0.99184	-7.52102	0.04469	-99.45669
570	0.04763	-100.16222	0.99432	-7.88243	0.99432	-7.88243	0.04763	-100.16222
590	0.05025	-100.16213	0.99392	-8.09301	0.99392	-8.09301	0.05025	-100.16213
610	0.05268	-100.10237	0.99479	-8.4221	0.99479	-8.4221	0.05268	-100.10237
630	0.05488	-99.73495	0.99654	-8.80483	0.99654	-8.80483	0.05488	-99.73495
650	0.05669	-97.91798	0.99427	-8.84216	0.99427	-8.84216	0.05669	-97.91798
670	0.05702	-97.96426	0.99662	-9.23452	0.99662	-9.23452	0.05702	-97.96426
690	0.05761	-99.34167	0.9946	-9.65954	0.9946	-9.65954	0.05761	-99.34167
710	0.05865	-101.07722	0.99309	-9.91746	0.99309	-9.91746	0.05865	-101.07722
730	0.06032	-102.75754	0.99377	-10.01777	0.99377	-10.01777	0.06032	-102.75754
750	0.06285	-104.52884	0.99516	-10.17928	0.99516	-10.17928	0.06285	-104.52884
770	0.06708	-105.82105	0.9958	-10.76125	0.9958	-10.76125	0.06708	-105.82105
790	0.07179	-106.245	0.99526	-10.85331	0.99526	-10.85331	0.07179	-106.245
810	0.07555	-105.83017	0.99425	-11.03598	0.99425	-11.03598	0.07555	-105.83017
830	0.07796	-104.68503	0.99391	-11.48498	0.99391	-11.48498	0.07796	-104.68503
850	0.07969	-102.99708	0.99578	-11.97114	0.99578	-11.97114	0.07969	-102.99708
870	0.08154	-102.61506	0.99428	-11.84847	0.99428	-11.84847	0.08154	-102.61506
890	0.0823	-102.8096	0.99274	-12.20839	0.99274	-12.20839	0.0823	-102.8096
910	0.08313	-103.44048	0.99215	-12.53575	0.99215	-12.53575	0.08313	-103.44048
930	0.08474	-104.23464	0.99227	-12.72206	0.99227	-12.72206	0.08474	-104.23464
950	0.08738	-104.78609	0.99168	-13.06545	0.99168	-13.06545	0.08738	-104.78609
970	0.09011	-105.02045	0.99151	-13.35755	0.99151	-13.35755	0.09011	-105.02045
990	0.09366	-104.87272	0.99084	-13.63109	0.99084	-13.63109	0.09366	-104.87272
1010	0.09647	-104.528	0.99211	-13.91907	0.99211	-13.91907	0.09647	-104.528
1030	0.09808	-104.06532	0.99422	-14.23106	0.99422	-14.23106	0.09808	-104.06532
1050	0.09913	-103.45766	0.99248	-14.55328	0.99248	-14.55328	0.09913	-103.45766
1070	0.0995	-103.61391	0.99135	-14.82706	0.99135	-14.82706	0.0995	-103.61391
1090	0.10044	-104.17768	0.99157	-15.10905	0.99157	-15.10905	0.10044	-104.17768
1110	0.10163	-104.89748	0.99256	-15.29364	0.99256	-15.29364	0.10163	-104.89748
1130	0.10321	-105.71386	0.99257	-15.48633	0.99257	-15.48633	0.10321	-105.71386
1150	0.10578	-106.75941	0.9887	-16.0037	0.9887	-16.0037	0.10578	-106.75941
1170	0.10854	-107.20684	0.98978	-16.17093	0.98978	-16.17093	0.10854	-107.20684
1190	0.11138	-107.31936	0.99233	-16.45631	0.99233	-16.45631	0.11138	-107.31936
1210	0.11356	-107.26728	0.99194	-16.70781	0.99194	-16.70781	0.11356	-107.26728
1230	0.11508	-107.26056	0.98897	-16.93956	0.98897	-16.93956	0.11508	-107.26056
1250	0.1167	-107.54888	0.98855	-17.33187	0.98855	-17.33187	0.1167	-107.54888
1270	0.11782	-107.83073	0.98893	-17.57116	0.98893	-17.57116	0.11782	-107.83073
1290	0.1188	-108.49684	0.98702	-17.80438	0.98702	-17.80438	0.1188	-108.49684
1310	0.12015	-109.26935	0.98735	-18.11926	0.98735	-18.11926	0.12015	-109.26935
1330	0.12202	-110.14494	0.9894	-18.49052	0.9894	-18.49052	0.12202	-110.14494
1350	0.12419	-111.39485	0.98757	-18.77984	0.98757	-18.77984	0.12419	-111.39485
1370	0.12715	-112.0867	0.98837	-19.17425	0.98837	-19.17425	0.12715	-112.0867
1390	0.13029	-112.56818	0.98655	-19.24628	0.98655	-19.24628	0.13029	-112.56818
1410	0.1332	-112.93219	0.98617	-19.55483	0.98617	-19.55483	0.1332	-112.93219
1430	0.1359	-113.25682	0.98733	-20.07295	0.98733	-20.07295	0.1359	-113.25682
1450	0.1389	-113.60523	0.98618	-20.18791	0.98618	-20.18791	0.1389	-113.60523
1470	0.14131	-113.95359	0.98488	-20.4006	0.98488	-20.4006	0.14131	-113.95359
1490	0.14336	-114.25136	0.98637	-20.88044	0.98637	-20.88044	0.14336	-114.25136
1510	0.14537	-114.37013	0.98698	-21.19348	0.98698	-21.19348	0.14537	-114.37013
1530	0.14747	-114.50066	0.98563	-21.34911	0.98563	-21.34911	0.14747	-114.50066
1550	0.14952	-115.15289	0.98381	-21.80009	0.98381	-21.80009	0.14952	-115.15289
1570	0.15156	-115.50408	0.98328	-22.0133	0.98328	-22.0133	0.15156	-115.50408
1590	0.15401	-116.23016	0.98337	-22.24463	0.98337	-22.24463	0.15401	-116.23016
1610	0.15673	-116.82516	0.98366	-22.53221	0.98366	-22.53221	0.15673	-116.82516
1630	0.15973	-117.169	0.98366	-22.86984	0.98366	-22.86984	0.15973	-117.169
1650	0.16311	-117.5275	0.98278	-23.207	0.98278	-23.207	0.16311	-117.5275
1670	0.1653	-117.52426	0.98073	-23.49784	0.98073	-23.49784	0.1653	-117.52426
1690	0.1678	-117.62405	0.98128	-23.69528	0.98128	-23.69528	0.1678	-117.62405
1710	0.16993	-117.70029	0.98106	-23.93818	0.98106	-23.93818	0.16993	-117.70029
1730	0.17165	-117.82693	0.97978	-24.23662	0.97978	-24.23662	0.17165	-117.82693
1750	0.17357	-118.27841	0.98018	-24.47201	0.98018	-24.47201	0.17357	-118.27841
1770	0.17514	-118.9996	0.98105	-25.04088	0.98105	-25.04088	0.17514	-118.9996
1790	0.17769	-119.39939	0.9802	-25.22185	0.9802	-25.22185	0.17769	-119.39939
1810	0.18077	-119.79772	0.9792	-25.39336	0.9792	-25.39336	0.18077	-119.79772
1830	0.18412	-120.24049	0.97927	-25.70944	0.97927	-25.70944	0.18412	-120.24049
1850	0.18766	-120.49956	0.98129	-26.09967	0.98129	-26.09967	0.18766	-120.49956
1870	0.19	-120.32461	0.97897	-26.44384	0.97897	-26.44384	0.19	-120.32461
1890	0.19235	-120.11325	0.97942	-26.64577	0.97942	-26.64577	0.19235	-120.11325
1910	0.1941	-120.31718	0.97881	-26.78887	0.97881	-26.78887	0.1941	-120.31718
1930	0.19516	-120.83755	0.97679	-27.011	0.97679	-27.011	0.19516	-120.83755
1950	0.19604	-121.02494	0.97655	-27.50436	0.97655	-27.50436	0.19604	-121.02494
1970	0.19784	-121.65899	0.97483	-27.80205	0.97483	-27.80205	0.19784	-121.65899
1990	0.20032	-122.26218	0.97275	-28.06369	0.97275	-28.06369	0.20032	-122.26218
2010	0.2032	-122.72611	0.97285	-28.29921	0.97285	-28.29921	0.2032	-122.72611
2030	0.20603	-123.03275	0.97461	-28.58	0.97461	-28.58	0.20603	-123.03275
2050	0.2082	-123.25448	0.97449	-29.03892	0.97449	-29.03892	0.2082	-123.25448
2070	0.21147	-123.58559	0.97275	-29.55158	0.97275	-29.55158	0.21147	-123.58559
2090	0.21336	-123.68479	0.97154	-29.72968	0.97154	-29.72968	0.21336	-123.68479
2110	0.21487	-124.05302	0.97165	-30.08407	0.97165	-30.08407	0.21487	-124.05302
2130	0.21643	-124.56969	0.97231	-30.56245	0.97231	-30.56245	0.21643	-124.56969
2150	0.21785	-124.49261	0.9711	-30.54935	0.9711	-30.54935	0.21785	-124.49261
2170	0.2202	-125.24949	0.97072	-30.88953	0.97072	-30.88953	0.2202	-125.24949
2190	0.22317	-125.77835	0.96974	-31.14037	0.96974	-31.14037	0.22317	-125.77835
2210	0.22661	-126.213	0.96874	-31.44319	0.96874	-31.44319	0.22661	-126.213
2230	0.22981	-126.63352	0.96761	-31.81194	0.96761	-31.81194	0.22981	-126.63352
2250	0.23154	-127.06624	0.96546	-32.13324	0.96546	-32.13324	0.23154	-127.06624
2270	0.23414	-127.00569	0.96639	-32.3672	0.96639	-32.3672	0.23414	-127.00569
2290	0.23761	-127.22306	0.96745	-32.88192	0.96745	-32.88192	0.23761	-127.22306
2310	0.23995	-127.56893	0.96548	-33.24708	0.96548	-33.24708	0.23995	-127.56893
2330	0.24136	-127.90119	0.96183	-33.38661	0.96183	-33.38661	0.24136	-127.90119
2350	0.24421	-128.08504	0.96235	-33.5787	0.96235	-33.5787	0.24421	-128.08504
2370	0.24727	-128.47395	0.96378	-34.09353	0.96378	-34.09353	0.24727	-128.47395
2390	0.25019	-129.04436	0.9633	-34.42521	0.9633	-34.42521	0.25019	-129.04436
2410	0.25263	-129.30202	0.96094	-34.6225	0.96094	-34.6225	0.25263	-129.30202
2430	0.25508	-129.33918	0.95866	-34.83643	0.95866	-34.83643	0.25508	-129.33918
2450	0.25886	-129.83454	0.96037	-35.32031	0.96037	-35.32031	0.25886	-129.83454
2470	0.26063	-130.20996	0.96111	-35.63241	0.96111	-35.63241	0.26063	-130.20996
2490	0.26306	-130.52792	0.95769	-35.92595	0.95769	-35.92595	0.26306	-130.52792
2510	0.2662	-130.79489	0.9558	-36.15664	0.9558	-36.15664	0.2662	-130.79489
2530	0.26984	-131.0153	0.95601	-36.39285	0.95601	-36.39285	0.26984	-131.0153
2550	0.27356	-131.19164	0.95376	-36.81563	0.95376	-36.81563	0.27356	-131.19164
2570	0.27707	-131.2898	0.95586	-37.06557	0.95586	-37.06557	0.27707	-131.2898
2590	0.27924	-131.31675	0.9558	-37.46401	0.9558	-37.46401	0.27924	-131.31675
2610	0.28045	-131.65703	0.95511	-37.837	0.95511	-37.837	0.28045	-131.65703
2630	0.28174	-132.11439	0.95335	-38.11092	0.95335	-38.11092	0.28174	-132.11439
2650	0.28478	-131.91168	0.94819	-38.31248	0.94819	-38.31248	0.28478	-131.91168
2670	0.28828	-132.32234	0.95038	-38.65559	0.95038	-38.65559	0.28828	-132.32234
2690	0.29163	-132.69744	0.949	-39.10166	0.949	-39.10166	0.29163	-132.69744
2710	0.29479	-132.80567	0.94758	-39.45011	0.94758	-39.45011	0.29479	-132.80567
2730	0.2976	-132.79803	0.94771	-39.72301	0.94771	-39.72301	0.2976	-132.79803
2750	0.29981	-133.20784	0.94909	-40.16506	0.94909	-40.16506	0.29981	-133.20784
2770	0.29996	-133.3308	0.94667	-40.38767	0.94667	-40.38767	0.29996	-133.3308
2790	0.30288	-133.49877	0.94487	-40.64719	0.94487	-40.64719	0.30288	-133.49877
2810	0.3059	-133.72318	0.9426	-41.09165	0.9426	-41.09165	0.3059	-133.72318
2830	0.30802	-134.0415	0.94075	-41.58582	0.94075	-41.58582	0.30802	-134.0415
2850	0.30989	-134.51723	0.94225	-41.71121	0.94225	-41.71121	0.30989	-134.51723
2870	0.31204	-134.89712	0.9415	-41.97167	0.9415	-41.97167	0.31204	-134.89712
2890	0.31538	-135.07517	0.93937	-42.19217	0.93937	-42.19217	0.31538	-135.07517
2910	0.31926	-135.14969	0.9383	-42.49048	0.9383	-42.49048	0.31926	-135.14969
2930	0.32326	-135.1873	0.93843	-42.85279	0.93843	-42.85279	0.32326	-135.1873
2950	0.32721	-135.22294	0.93757	-43.13368	0.93757	-43.13368	0.32721	-135.22294
2970	0.32887	-135.58679	0.93471	-43.49453	0.93471	-43.49453	0.32887	-135.58679
2990	0.33021	-135.55589	0.93283	-43.71195	0.93283	-43.71195	0.33021	-135.55589
3010	0.33102	-135.7304	0.93307	-43.90973	0.93307	-43.90973	0.33102	-135.7304
3030	0.3328	-136.31759	0.93389	-44.27796	0.93389	-44.27796	0.3328	-136.31759
3050	0.33877	-137.1319	0.93112	-45.07303	0.93112	-45.07303	0.33877	-137.1319
3070	0.33744	-137.60506	0.92954	-45.35527	0.92954	-45.35527	0.33744	-137.60506
3090	0.34114	-137.6811	0.93154	-45.49389	0.93154	-45.49389	0.34114	-137.6811
3110	0.34677	-137.81264	0.93145	-45.73195	0.93145	-45.73195	0.34677	-137.81264
3130	0.35139	-138.02989	0.92793	-46.08386	0.92793	-46.08386	0.35139	-138.02989
3150	0.35228	-137.94066	0.92406	-46.33546	0.92406	-46.33546	0.35228	-137.94066
3170	0.35291	-137.95507	0.92752	-46.59479	0.92752	-46.59479	0.35291	-137.95507
3190	0.35511	-138.0198	0.92495	-46.80819	0.92495	-46.80819	0.35511	-138.0198
3210	0.35817	-138.45006	0.92179	-47.18002	0.92179	-47.18002	0.35817	-138.45006
3230	0.36132	-139.05549	0.91985	-47.63581	0.91985	-47.63581	0.36132	-139.05549
3250	0.36376	-139.1401	0.9173	-47.82222	0.9173	-47.82222	0.36376	-139.1401
3270	0.36873	-139.87561	0.92241	-48.56171	0.92241	-48.56171	0.36873	-139.87561
3290	0.37209	-140.18433	0.92027	-48.76783	0.92027	-48.76783	0.37209	-140.18433
3310	0.37563	-140.18275	0.91804	-48.91465	0.91804	-48.91465	0.37563	-140.18275
3330	0.37986	-140.04578	0.91839	-49.10424	0.91839	-49.10424	0.37986	-140.04578
3350	0.384	-140.0067	0.91956	-49.06665	0.91956	-49.06665	0.384	-140.0067
3370	0.38403	-140.33737	0.91345	-49.74675	0.91345	-49.74675	0.38403	-140.33737
3390	0.38544	-140.67232	0.91273	-50.1016	0.91273	-50.1016	0.38544	-140.67232
3410	0.38869	-140.92256	0.9129	-50.43882	0.9129	-50.43882	0.38869	-140.92256
3430	0.39235	-141.12553	0.91094	-50.82859	0.91094	-50.82859	0.39235	-141.12553
3450	0.39313	-141.44508	0.90535	-51.10372	0.90535	-51.10372	0.39313	-141.44508
3470	0.396	-141.77472	0.9073	-51.46328	0.9073	-51.46328	0.396	-141.77472
3490	0.39954	-141.98371	0.90863	-51.73931	0.90863	-51.73931	0.39954	-141.98371
3510	0.40269	-142.17274	0.9075	-52.07732	0.9075	-52.07732	0.40269	-142.17274
3530	0.40515	-142.3514	0.90486	-52.39663	0.90486	-52.39663	0.40515	-142.3514
3550	0.40739	-142.43821	0.90441	-52.39039	0.90441	-52.39039	0.40739	-142.43821
3570	0.41129	-142.85397	0.90429	-53.00846	0.90429	-53.00846	0.41129	-142.85397
3590	0.41123	-143.21915	0.90178	-53.28475	0.90178	-53.28475	0.41123	-143.21915
3610	0.41344	-143.43267	0.90087	-53.51539	0.90087	-53.51539	0.41344	-143.43267
3630	0.41842	-143.61232	0.9011	-53.83713	0.9011	-53.83713	0.41842	-143.61232
3650	0.42088	-144.0948	0.89761	-54.22727	0.89761	-54.22727	0.42088	-144.0948
3670	0.42383	-144.23638	0.89534	-54.61849	0.89534	-54.61849	0.42383	-144.23638
3690	0.42631	-144.23718	0.89415	-54.9591	0.89415	-54.9591	0.42631	-144.23718
3710	0.42791	-144.59797	0.89232	-55.3841	0.89232	-55.3841	0.42791	-144.59797
3730	0.42914	-145.20157	0.89011	-55.78668	0.89011	-55.78668	0.42914	-145.20157
3750	0.43141	-145.31279	0.88975	-55.81829	0.88975	-55.81829	0.43141	-145.31279
3770	0.4348	-145.61714	0.88785	-56.10974	0.88785	-56.10974	0.4348	-145.61714
3790	0.43878	-145.77416	0.88854	-56.56525	0.88854	-56.56525	0.43878	-145.77416
3810	0.44193	-146.10044	0.88725	-56.93082	0.88725	-56.93082	0.44193	-146.10044
3830	0.44426	-146.58518	0.88374	-57.19352	0.88374	-57.19352	0.44426	-146.58518
3850	0.44711	-146.89022	0.88217	-57.58156	0.88217	-57.58156	0.44711	-146.89022
3870	0.44885	-146.92684	0.88041	-57.77198	0.88041	-57.77198	0.44885	-146.92684
3890	0.452	-147.17785	0.88194	-58.07922	0.88194	-58.07922	0.452	-147.17785
3910	0.45401	-147.60897	0.88173	-58.47709	0.88173	-58.47709	0.45401	-147.60897
3930	0.45501	-148.03538	0.87924	-58.85805	0.87924	-58.85805	0.45501	-148.03538
3950	0.45778	-148.12175	0.87844	-59.03317	0.87844	-59.03317	0.45778	-148.12175
3970	0.46121	-148.49978	0.87658	-59.4784	0.87658	-59.4784	0.46121	-148.49978
3990	0.46419	-148.86912	0.8725	-59.83252	0.8725	-59.83252	0.46419	-148.86912
4010	0.46742	-149.1773	0.86985	-60.13181	0.86985	-60.13181	0.46742	-149.1773
4030	0.47059	-149.4397	0.86964	-60.44967	0.86964	-60.44967	0.47059	-149.4397
4050	0.47242	-149.73957	0.87025	-60.89661	0.87025	-60.89661	0.47242	-149.73957
4070	0.47465	-150.20531	0.87012	-61.32868	0.87012	-61.32868	0.47465	-150.20531
4090	0.47623	-150.71453	0.86575	-61.58549	0.86575	-61.58549	0.47623	-150.71453
4110	0.47815	-151.01989	0.8643	-61.75552	0.8643	-61.75552	0.47815	-151.01989
4130	0.48037	-151.20355	0.86596	-61.97453	0.86596	-61.97453	0.48037	-151.20355
4150	0.48185	-151.67712	0.86391	-62.42566	0.86391	-62.42566	0.48185	-151.67712
4170	0.48709	-151.96892	0.8587	-62.91789	0.8587	-62.91789	0.48709	-151.96892
4190	0.49072	-152.1104	0.85911	-63.11428	0.85911	-63.11428	0.49072	-152.1104
4210	0.49344	-152.38213	0.85883	-63.34855	0.85883	-63.34855	0.49344	-152.38213
4230	0.4955	-152.77325	0.8561	-63.67622	0.8561	-63.67622	0.4955	-152.77325
4250	0.49672	-152.98155	0.85377	-63.87458	0.85377	-63.87458	0.49672	-152.98155
4270	0.49858	-153.18507	0.85091	-64.20278	0.85091	-64.20278	0.49858	-153.18507
4290	0.50035	-153.91702	0.85005	-64.83712	0.85005	-64.83712	0.50035	-153.91702
4310	0.50279	-154.55023	0.84963	-65.2587	0.84963	-65.2587	0.50279	-154.55023
4330	0.50684	-154.97742	0.85025	-65.47236	0.85025	-65.47236	0.50684	-154.97742
4350	0.51357	-155.61127	0.85467	-66.00677	0.85467	-66.00677	0.51357	-155.61127
4370	0.51298	-155.71021	0.84864	-66.20103	0.84864	-66.20103	0.51298	-155.71021
4390	0.51615	-155.83983	0.84582	-66.31738	0.84582	-66.31738	0.51615	-155.83983
4410	0.51864	-156.08755	0.84359	-66.65541	0.84359	-66.65541	0.51864	-156.08755
4430	0.51955	-156.42218	0.84146	-67.14714	0.84146	-67.14714	0.51955	-156.42218
4450	0.52143	-156.69397	0.84104	-67.35695	0.84104	-67.35695	0.52143	-156.69397
4470	0.52656	-157.29285	0.84051	-67.95886	0.84051	-67.95886	0.52656	-157.29285
4490	0.52615	-157.62122	0.83425	-68.24432	0.83425	-68.24432	0.52615	-157.62122
4510	0.52774	-157.75903	0.83278	-68.40451	0.83278	-68.40451	0.52774	-157.75903
4530	0.53333	-158.02239	0.83624	-68.68963	0.83624	-68.68963	0.53333	-158.02239
4550	0.53943	-158.96365	0.8344	-69.40888	0.8344	-69.40888	0.53943	-158.96365
4570	0.53814	-159.18382	0.8269	-69.43595	0.8269	-69.43595	0.53814	-159.18382
4590	0.54154	-159.52082	0.83213	-69.63685	0.83213	-69.63685	0.54154	-159.52082
4610	0.54472	-159.92444	0.83301	-70.11761	0.83301	-70.11761	0.54472	-159.92444
4630	0.54624	-160.36907	0.82592	-70.68343	0.82592	-70.68343	0.54624	-160.36907
4650	0.54805	-160.85375	0.82061	-70.83867	0.82061	-70.83867	0.54805	-160.85375
4670	0.55129	-161.08308	0.82178	-70.95701	0.82178	-70.95701	0.55129	-161.08308
4690	0.55247	-161.55186	0.81913	-71.42786	0.81913	-71.42786	0.55247	-161.55186
4710	0.55499	-161.99859	0.81673	-71.92647	0.81673	-71.92647	0.55499	-161.99859
4730	0.55908	-162.40364	0.81546	-72.29622	0.81546	-72.29622	0.55908	-162.40364
4750	0.56184	-162.98925	0.81296	-72.54859	0.81296	-72.54859	0.56184	-162.98925
4770	0.56274	-163.12612	0.81127	-72.92279	0.81127	-72.92279	0.56274	-163.12612
4790	0.56595	-163.602	0.81146	-73.40854	0.81146	-73.40854	0.56595	-163.602
4810	0.56819	-163.99587	0.81056	-73.69779	0.81056	-73.69779	0.56819	-163.99587
4830	0.56999	-164.28597	0.80873	-73.78734	0.80873	-73.78734	0.56999	-164.28597
4850	0.57567	-164.84984	0.8093	-73.97893	0.8093	-73.97893	0.57567	-164.84984
4870	0.57654	-165.46509	0.80446	-74.54205	0.80446	-74.54205	0.57654	-165.46509
4890	0.57772	-165.64148	0.80142	-74.71903	0.80142	-74.71903	0.57772	-165.64148
4910	0.58165	-165.97202	0.80032	-75.1051	0.80032	-75.1051	0.58165	-165.97202
4930	0.58676	-166.56727	0.79962	-75.71659	0.79962	-75.71659	0.58676	-166.56727
4950	0.58744	-167.05536	0.79611	-75.99092	0.79611	-75.99092	0.58744	-167.05536
4970	0.58742	-167.25759	0.79379	-75.89092	0.79379	-75.89092	0.58742	-167.25759
4990	0.5923	-167.73481	0.79621	-76.60141	0.79621	-76.60141	0.5923	-167.73481
5010	0.59418	-168.27206	0.79296	-77.10254	0.79296	-77.10254	0.59418	-168.27206
5030	0.5931	-168.71566	0.78515	-77.14142	0.78515	-77.14142	0.5931	-168.71566
5050	0.59705	-168.97322	0.78544	-77.23214	0.78544	-77.23214	0.59705	-168.97322
5070	0.60107	-169.59378	0.78579	-77.8574	0.78579	-77.8574	0.60107	-169.59378
