! P/N: 250R05L0R8BV4								
! Measured by Marlon								
! Oct. 29, 2003								
#	mhz	s	ma	r	50
0	0.00000	-90.00000	0.99999	0.00000	0.99999	0.00000	0.00000	-90.00000			
50	0.01335	-106.33713	0.99901	-0.95219	0.99901	-0.95219	0.01335	-106.33713
70	0.01327	-102.47322	0.99999	-1.01724	0.99999	-1.01724	0.01327	-102.47322
90	0.0151	-101.13505	0.99999	-1.36919	0.99999	-1.36919	0.0151	-101.13505
110	0.01709	-100.47708	0.99999	-1.80539	0.99999	-1.80539	0.01709	-100.47708
130	0.0188	-99.9156	0.99959	-2.1745	0.99959	-2.1745	0.0188	-99.9156
150	0.02114	-100.12867	0.99946	-2.37648	0.99946	-2.37648	0.02114	-100.12867
170	0.02456	-100.30592	0.99999	-2.80039	0.99999	-2.80039	0.02456	-100.30592
190	0.02809	-100.25841	0.99999	-3.08935	0.99999	-3.08935	0.02809	-100.25841
210	0.03168	-99.29021	0.99999	-3.44559	0.99999	-3.44559	0.03168	-99.29021
230	0.0352	-97.28875	0.99999	-3.90588	0.99999	-3.90588	0.0352	-97.28875
250	0.03839	-94.72487	0.99896	-4.34152	0.99896	-4.34152	0.03839	-94.72487
270	0.04186	-92.49608	0.99999	-4.32821	0.99999	-4.32821	0.04186	-92.49608
290	0.04341	-90.88319	0.99999	-4.67238	0.99999	-4.67238	0.04341	-90.88319
310	0.04444	-89.83559	0.99999	-5.08822	0.99999	-5.08822	0.04444	-89.83559
330	0.04531	-89.85652	0.99999	-5.47255	0.99999	-5.47255	0.04531	-89.85652
350	0.04529	-92.00304	0.99999	-5.90483	0.99999	-5.90483	0.04529	-92.00304
370	0.04691	-94.97276	0.99999	-6.0875	0.99999	-6.0875	0.04691	-94.97276
390	0.04947	-97.93129	0.99999	-6.41658	0.99999	-6.41658	0.04947	-97.93129
410	0.05296	-100.52606	0.99999	-6.84911	0.99999	-6.84911	0.05296	-100.52606
430	0.05719	-102.42606	0.99999	-7.23119	0.99999	-7.23119	0.05719	-102.42606
450	0.06188	-103.32182	0.99999	-7.29804	0.99999	-7.29804	0.06188	-103.32182
470	0.06695	-102.79917	0.99999	-7.71228	0.99999	-7.71228	0.06695	-102.79917
490	0.06511	-103.47149	0.99999	-7.78605	0.99999	-7.78605	0.06511	-103.47149
510	0.06546	-103.40134	0.99999	-7.9634	0.99999	-7.9634	0.06546	-103.40134
530	0.06996	-102.34512	0.99999	-8.34457	0.99999	-8.34457	0.06996	-102.34512
550	0.07341	-101.75311	0.99999	-8.68597	0.99999	-8.68597	0.07341	-101.75311
570	0.07574	-100.63118	0.99962	-9.01942	0.99962	-9.01942	0.07574	-100.63118
590	0.07873	-99.75809	0.99999	-9.3849	0.99999	-9.3849	0.07873	-99.75809
610	0.08151	-99.53841	0.99999	-9.81318	0.99999	-9.81318	0.08151	-99.53841
630	0.08389	-99.83053	0.99981	-10.20495	0.99981	-10.20495	0.08389	-99.83053
650	0.08635	-99.94669	0.99892	-10.33084	0.99892	-10.33084	0.08635	-99.94669
670	0.08874	-99.42855	0.99999	-10.82269	0.99999	-10.82269	0.08874	-99.42855
690	0.09139	-98.89077	0.99999	-11.19295	0.99999	-11.19295	0.09139	-98.89077
710	0.09414	-98.70873	0.99999	-11.43114	0.99999	-11.43114	0.09414	-98.70873
730	0.0967	-98.79066	0.99976	-11.63549	0.99976	-11.63549	0.0967	-98.79066
750	0.09862	-98.57767	0.99999	-12.01293	0.99999	-12.01293	0.09862	-98.57767
770	0.09964	-98.33052	0.99999	-12.37877	0.99999	-12.37877	0.09964	-98.33052
790	0.10135	-98.6195	0.99999	-12.62185	0.99999	-12.62185	0.10135	-98.6195
810	0.10318	-99.46734	0.99809	-12.90981	0.99809	-12.90981	0.10318	-99.46734
830	0.10485	-100.5304	0.99757	-13.26485	0.99757	-13.26485	0.10485	-100.5304
850	0.10637	-101.09878	0.99805	-13.56374	0.99805	-13.56374	0.10637	-101.09878
870	0.11013	-101.59252	0.99673	-13.90293	0.99673	-13.90293	0.11013	-101.59252
890	0.11306	-101.92562	0.99675	-14.31493	0.99675	-14.31493	0.11306	-101.92562
910	0.11556	-102.08297	0.99773	-14.62475	0.99773	-14.62475	0.11556	-102.08297
930	0.11774	-102.09076	0.99836	-14.83517	0.99836	-14.83517	0.11774	-102.09076
950	0.11939	-102.01651	0.99638	-15.12675	0.99638	-15.12675	0.11939	-102.01651
970	0.12084	-102.77434	0.99708	-15.42407	0.99708	-15.42407	0.12084	-102.77434
990	0.12228	-104.04273	0.99637	-15.77528	0.99637	-15.77528	0.12228	-104.04273
1010	0.12389	-105.48394	0.99531	-16.1492	0.99531	-16.1492	0.12389	-105.48394
1030	0.12608	-106.7718	0.99308	-16.49041	0.99308	-16.49041	0.12608	-106.7718
1050	0.1295	-107.59164	0.98698	-16.71927	0.98698	-16.71927	0.1295	-107.59164
1070	0.13575	-108.7785	0.99178	-17.06892	0.99178	-17.06892	0.13575	-108.7785
1090	0.14168	-109.34965	0.99164	-17.48884	0.99164	-17.48884	0.14168	-109.34965
1110	0.14672	-109.32958	0.98977	-17.87586	0.98977	-17.87586	0.14672	-109.32958
1130	0.15086	-108.84477	0.98933	-18.20168	0.98933	-18.20168	0.15086	-108.84477
1150	0.15456	-108.12372	0.99342	-18.51287	0.99342	-18.51287	0.15456	-108.12372
1170	0.15766	-108.22613	0.99167	-18.80308	0.99167	-18.80308	0.15766	-108.22613
1190	0.15927	-108.65122	0.99087	-19.04861	0.99087	-19.04861	0.15927	-108.65122
1210	0.16104	-109.00767	0.98824	-19.45956	0.98824	-19.45956	0.16104	-109.00767
1230	0.16386	-109.25065	0.9856	-19.91546	0.9856	-19.91546	0.16386	-109.25065
1250	0.16786	-109.68185	0.98939	-19.96529	0.98939	-19.96529	0.16786	-109.68185
1270	0.17258	-110.38403	0.98822	-20.5065	0.98822	-20.5065	0.17258	-110.38403
1290	0.17726	-110.49593	0.98753	-20.8391	0.98753	-20.8391	0.17726	-110.49593
1310	0.18086	-110.27907	0.98893	-21.15019	0.98893	-21.15019	0.18086	-110.27907
1330	0.18337	-109.84171	0.99048	-21.50164	0.99048	-21.50164	0.18337	-109.84171
1350	0.18579	-109.13881	0.98671	-21.83004	0.98671	-21.83004	0.18579	-109.13881
1370	0.1851	-109.01705	0.98744	-22.00387	0.98744	-22.00387	0.1851	-109.01705
1390	0.18517	-109.42273	0.98721	-22.55635	0.98721	-22.55635	0.18517	-109.42273
1410	0.18571	-110.11423	0.98602	-22.95978	0.98602	-22.95978	0.18571	-110.11423
1430	0.18677	-111.00584	0.98462	-23.14805	0.98462	-23.14805	0.18677	-111.00584
1450	0.18877	-112.16778	0.98448	-23.5167	0.98448	-23.5167	0.18877	-112.16778
1470	0.19265	-113.29031	0.98112	-23.67368	0.98112	-23.67368	0.19265	-113.29031
1490	0.1961	-113.76062	0.98206	-24.12311	0.98206	-24.12311	0.1961	-113.76062
1510	0.19982	-114.07018	0.9828	-24.54441	0.9828	-24.54441	0.19982	-114.07018
1530	0.2036	-114.39046	0.98213	-24.8552	0.98213	-24.8552	0.2036	-114.39046
1550	0.20632	-114.57301	0.98203	-25.21126	0.98203	-25.21126	0.20632	-114.57301
1570	0.20636	-115.24506	0.97921	-25.60764	0.97921	-25.60764	0.20636	-115.24506
1590	0.20611	-115.78075	0.97798	-26.03168	0.97798	-26.03168	0.20611	-115.78075
1610	0.20789	-116.77426	0.97845	-26.33797	0.97845	-26.33797	0.20789	-116.77426
1630	0.21222	-118.20214	0.97859	-26.54684	0.97859	-26.54684	0.21222	-118.20214
1650	0.21786	-119.42333	0.97425	-26.84437	0.97425	-26.84437	0.21786	-119.42333
1670	0.22319	-120.01672	0.97238	-27.17833	0.97238	-27.17833	0.22319	-120.01672
1690	0.22949	-120.24779	0.97404	-27.61435	0.97404	-27.61435	0.22949	-120.24779
1710	0.23466	-120.17324	0.97484	-28.03975	0.97484	-28.03975	0.23466	-120.17324
1730	0.2383	-119.97133	0.97419	-28.38996	0.97419	-28.38996	0.2383	-119.97133
1750	0.24167	-119.94187	0.97529	-28.64852	0.97529	-28.64852	0.24167	-119.94187
1770	0.24226	-120.62677	0.97317	-29.10497	0.97317	-29.10497	0.24226	-120.62677
1790	0.24371	-120.89083	0.97016	-29.39564	0.97016	-29.39564	0.24371	-120.89083
1810	0.24672	-121.42318	0.96757	-29.66827	0.96757	-29.66827	0.24672	-121.42318
1830	0.25113	-122.35014	0.96639	-30.0196	0.96639	-30.0196	0.25113	-122.35014
1850	0.25591	-123.23526	0.9673	-30.49533	0.9673	-30.49533	0.25591	-123.23526
1870	0.26096	-123.39937	0.96575	-30.79403	0.96575	-30.79403	0.26096	-123.39937
1890	0.26709	-123.39645	0.96466	-31.23699	0.96466	-31.23699	0.26709	-123.39645
1910	0.27124	-123.25652	0.96427	-31.65538	0.96427	-31.65538	0.27124	-123.25652
1930	0.27295	-123.04622	0.96434	-31.98795	0.96434	-31.98795	0.27295	-123.04622
1950	0.27432	-122.86888	0.96414	-32.28105	0.96414	-32.28105	0.27432	-122.86888
1970	0.27441	-123.31095	0.96111	-32.69279	0.96111	-32.69279	0.27441	-123.31095
1990	0.27503	-123.59689	0.96078	-33.0774	0.96078	-33.0774	0.27503	-123.59689
2010	0.27643	-124.29418	0.9621	-33.4293	0.9621	-33.4293	0.27643	-124.29418
2030	0.27847	-125.38312	0.96204	-33.7738	0.96204	-33.7738	0.27847	-125.38312
2050	0.28066	-126.25685	0.95562	-34.1671	0.95562	-34.1671	0.28066	-126.25685
2070	0.28563	-126.70926	0.95627	-34.43451	0.95627	-34.43451	0.28563	-126.70926
2090	0.29008	-126.96648	0.95743	-34.76113	0.95743	-34.76113	0.29008	-126.96648
2110	0.29363	-127.25085	0.95579	-35.09831	0.95579	-35.09831	0.29363	-127.25085
2130	0.29588	-127.6237	0.9526	-35.44342	0.9526	-35.44342	0.29588	-127.6237
2150	0.29642	-127.98544	0.95375	-35.83988	0.95375	-35.83988	0.29642	-127.98544
2170	0.29902	-128.39736	0.95552	-36.21935	0.95552	-36.21935	0.29902	-128.39736
2190	0.30002	-128.73654	0.95281	-36.45252	0.95281	-36.45252	0.30002	-128.73654
2210	0.30217	-129.55441	0.94986	-36.7562	0.94986	-36.7562	0.30217	-129.55441
2230	0.30587	-130.79391	0.94711	-37.21944	0.94711	-37.21944	0.30587	-130.79391
2250	0.30921	-131.78945	0.94123	-37.80362	0.94123	-37.80362	0.30921	-131.78945
2270	0.31364	-131.86144	0.9430	-37.70726	0.9430	-37.70726	0.31364	-131.86144
2290	0.31994	-132.3246	0.94385	-38.18343	0.94385	-38.18343	0.31994	-132.3246
2310	0.32473	-132.76814	0.9432	-38.70015	0.9432	-38.70015	0.32473	-132.76814
2330	0.32769	-133.03032	0.94091	-39.09013	0.94091	-39.09013	0.32769	-133.03032
2350	0.33153	-133.19844	0.93734	-39.55073	0.93734	-39.55073	0.33153	-133.19844
2370	0.33451	-133.39598	0.93634	-39.95339	0.93634	-39.95339	0.33451	-133.39598
2390	0.3380	-134.05287	0.93386	-40.22423	0.93386	-40.22423	0.3380	-134.05287
2410	0.34132	-134.71359	0.93165	-40.50785	0.93165	-40.50785	0.34132	-134.71359
2430	0.34481	-135.21063	0.93156	-40.83118	0.93156	-40.83118	0.34481	-135.21063
2450	0.34982	-135.66447	0.93551	-41.10346	0.93551	-41.10346	0.34982	-135.66447
2470	0.35338	-136.07105	0.92771	-41.72466	0.92771	-41.72466	0.35338	-136.07105
2490	0.35841	-136.29076	0.92757	-42.01803	0.92757	-42.01803	0.35841	-136.29076
2510	0.36304	-136.53013	0.92888	-42.21163	0.92888	-42.21163	0.36304	-136.53013
2530	0.36669	-136.75578	0.9281	-42.48823	0.9281	-42.48823	0.36669	-136.75578
2550	0.37001	-136.69441	0.92442	-42.98533	0.92442	-42.98533	0.37001	-136.69441
2570	0.3724	-136.99925	0.92586	-43.43079	0.92586	-43.43079	0.3724	-136.99925
2590	0.37381	-137.28122	0.92423	-43.75448	0.92423	-43.75448	0.37381	-137.28122
2610	0.37417	-137.98652	0.92129	-44.15892	0.92129	-44.15892	0.37417	-137.98652
2630	0.37516	-138.78948	0.9176	-44.59194	0.9176	-44.59194	0.37516	-138.78948
2650	0.3802	-138.59256	0.91253	-44.74663	0.91253	-44.74663	0.3802	-138.59256
2670	0.38544	-139.34889	0.91423	-45.4165	0.91423	-45.4165	0.38544	-139.34889
2690	0.38914	-139.88544	0.91359	-45.70005	0.91359	-45.70005	0.38914	-139.88544
2710	0.39144	-140.22559	0.91114	-45.93519	0.91114	-45.93519	0.39144	-140.22559
2730	0.39387	-140.37648	0.90842	-46.29862	0.90842	-46.29862	0.39387	-140.37648
2750	0.39941	-140.32895	0.90799	-46.8059	0.90799	-46.8059	0.39941	-140.32895
2770	0.39911	-141.26496	0.90648	-47.25021	0.90648	-47.25021	0.39911	-141.26496
2790	0.40178	-141.68218	0.90398	-47.66881	0.90398	-47.66881	0.40178	-141.68218
2810	0.40512	-142.13136	0.90602	-48.12602	0.90602	-48.12602	0.40512	-142.13136
2830	0.40804	-142.69051	0.90923	-48.49823	0.90923	-48.49823	0.40804	-142.69051
2850	0.41066	-142.9649	0.90136	-48.47391	0.90136	-48.47391	0.41066	-142.9649
2870	0.41665	-143.83306	0.90052	-49.29986	0.90052	-49.29986	0.41665	-143.83306
2890	0.42023	-144.33475	0.89646	-49.55824	0.89646	-49.55824	0.42023	-144.33475
2910	0.42525	-144.43998	0.89349	-49.83398	0.89349	-49.83398	0.42525	-144.43998
2930	0.42912	-144.23225	0.89297	-50.28696	0.89297	-50.28696	0.42912	-144.23225
2950	0.42279	-143.90847	0.8933	-50.65206	0.8933	-50.65206	0.42279	-143.90847
2970	0.43039	-145.15921	0.89089	-50.97902	0.89089	-50.97902	0.43039	-145.15921
2990	0.43319	-145.99685	0.88687	-51.16859	0.88687	-51.16859	0.43319	-145.99685
3010	0.43715	-146.33909	0.88514	-51.43941	0.88514	-51.43941	0.43715	-146.33909
3030	0.44314	-146.5534	0.88545	-51.87295	0.88545	-51.87295	0.44314	-146.5534
3050	0.44687	-147.45708	0.88337	-52.41355	0.88337	-52.41355	0.44687	-147.45708
3070	0.4482	-148.06199	0.87914	-52.80869	0.87914	-52.80869	0.4482	-148.06199
3090	0.45446	-148.03936	0.87783	-53.17613	0.87783	-53.17613	0.45446	-148.03936
3110	0.46161	-148.02679	0.87799	-53.56391	0.87799	-53.56391	0.46161	-148.02679
3130	0.46642	-148.25045	0.87649	-53.99293	0.87649	-53.99293	0.46642	-148.25045
3150	0.46642	-148.52512	0.86852	-54.45694	0.86852	-54.45694	0.46642	-148.52512
3170	0.467	-148.66287	0.8686	-54.75516	0.8686	-54.75516	0.467	-148.66287
3190	0.47023	-149.12391	0.86745	-55.11785	0.86745	-55.11785	0.47023	-149.12391
3210	0.47321	-149.50136	0.86497	-55.42496	0.86497	-55.42496	0.47321	-149.50136
3230	0.47575	-149.83402	0.86227	-55.68908	0.86227	-55.68908	0.47575	-149.83402
3250	0.48039	-150.60636	0.86166	-56.05554	0.86166	-56.05554	0.48039	-150.60636
3270	0.48495	-151.03998	0.85926	-56.54506	0.85926	-56.54506	0.48495	-151.03998
3290	0.48934	-151.26191	0.85676	-57.00838	0.85676	-57.00838	0.48934	-151.26191
3310	0.49467	-151.52322	0.85526	-57.44836	0.85526	-57.44836	0.49467	-151.52322
3330	0.49949	-151.85196	0.85384	-57.87223	0.85384	-57.87223	0.49949	-151.85196
3350	0.49971	-152.05307	0.84963	-58.29152	0.84963	-58.29152	0.49971	-152.05307
3370	0.50037	-152.45616	0.84895	-58.45457	0.84895	-58.45457	0.50037	-152.45616
3390	0.50543	-152.5174	0.84792	-58.73537	0.84792	-58.73537	0.50543	-152.5174
3410	0.51206	-152.96841	0.84602	-59.17656	0.84602	-59.17656	0.51206	-152.96841
3430	0.51654	-153.76656	0.84236	-59.71987	0.84236	-59.71987	0.51654	-153.76656
3450	0.51419	-154.09498	0.83572	-60.20607	0.83572	-60.20607	0.51419	-154.09498
3470	0.5205	-154.06184	0.84027	-60.29356	0.84027	-60.29356	0.5205	-154.06184
3490	0.52523	-154.35684	0.83857	-60.68549	0.83857	-60.68549	0.52523	-154.35684
3510	0.52815	-154.73697	0.83356	-61.28868	0.83356	-61.28868	0.52815	-154.73697
3530	0.53019	-154.9786	0.82875	-61.79142	0.82875	-61.79142	0.53019	-154.9786
3550	0.53343	-154.87756	0.82825	-61.6635	0.82825	-61.6635	0.53343	-154.87756
3570	0.53843	-155.54498	0.82889	-62.4868	0.82889	-62.4868	0.53843	-155.54498
3590	0.54076	-155.91196	0.82438	-62.90208	0.82438	-62.90208	0.54076	-155.91196
3610	0.54515	-156.13999	0.82193	-63.17354	0.82193	-63.17354	0.54515	-156.13999
3630	0.55124	-156.42039	0.82234	-63.52495	0.82234	-63.52495	0.55124	-156.42039
3650	0.55356	-156.97436	0.82007	-64.13963	0.82007	-64.13963	0.55356	-156.97436
3670	0.55438	-157.06518	0.81493	-64.31171	0.81493	-64.31171	0.55438	-157.06518
3690	0.55916	-157.44625	0.81784	-64.88359	0.81784	-64.88359	0.55916	-157.44625
3710	0.56177	-157.98381	0.81626	-65.42181	0.81626	-65.42181	0.56177	-157.98381
3730	0.56233	-158.3776	0.80974	-65.69451	0.80974	-65.69451	0.56233	-158.3776
3750	0.5672	-158.16081	0.80996	-65.67146	0.80996	-65.67146	0.5672	-158.16081
3770	0.57028	-158.50581	0.81111	-66.12902	0.81111	-66.12902	0.57028	-158.50581
3790	0.57092	-158.89454	0.80428	-66.59871	0.80428	-66.59871	0.57092	-158.89454
3810	0.57326	-159.38586	0.79901	-67.02867	0.79901	-67.02867	0.57326	-159.38586
3830	0.57766	-159.86629	0.79733	-67.44609	0.79733	-67.44609	0.57766	-159.86629
3850	0.58075	-160.05008	0.7938	-67.95726	0.7938	-67.95726	0.58075	-160.05008
3870	0.58613	-160.48572	0.79777	-68.36463	0.79777	-68.36463	0.58613	-160.48572
3890	0.58968	-160.848	0.79314	-68.61399	0.79314	-68.61399	0.58968	-160.848
3910	0.59233	-161.15837	0.7878	-69.06168	0.7878	-69.06168	0.59233	-161.15837
3930	0.59461	-161.41537	0.78493	-69.524	0.78493	-69.524	0.59461	-161.41537
3950	0.59656	-161.59471	0.78302	-69.27721	0.78302	-69.27721	0.59656	-161.59471
3970	0.6034	-161.99498	0.78347	-70.09239	0.78347	-70.09239	0.6034	-161.99498
3990	0.60374	-162.32137	0.77795	-70.52226	0.77795	-70.52226	0.60374	-162.32137
4010	0.606	-162.70296	0.77335	-70.84102	0.77335	-70.84102	0.606	-162.70296
4030	0.61182	-163.17131	0.77215	-71.24162	0.77215	-71.24162	0.61182	-163.17131
4050	0.61604	-163.66044	0.77238	-71.83566	0.77238	-71.83566	0.61604	-163.66044
4070	0.62042	-164.00607	0.76805	-72.11518	0.76805	-72.11518	0.62042	-164.00607
4090	0.62285	-164.39968	0.76325	-72.35121	0.76325	-72.35121	0.62285	-164.39968
4110	0.62418	-164.73418	0.76076	-72.72545	0.76076	-72.72545	0.62418	-164.73418
4130	0.62705	-165.04501	0.76047	-73.27292	0.76047	-73.27292	0.62705	-165.04501
4150	0.63582	-165.51021	0.75937	-73.88191	0.75937	-73.88191	0.63582	-165.51021
4170	0.63979	-165.83598	0.75147	-74.07826	0.75147	-74.07826	0.63979	-165.83598
4190	0.64284	-165.98196	0.74818	-74.23142	0.74818	-74.23142	0.64284	-165.98196
4210	0.64721	-166.26365	0.74636	-74.8289	0.74636	-74.8289	0.64721	-166.26365
4230	0.65265	-166.5857	0.74475	-75.52997	0.74475	-75.52997	0.65265	-166.5857
4250	0.65648	-166.4418	0.74391	-75.16563	0.74391	-75.16563	0.65648	-166.4418
4270	0.65898	-166.8515	0.73882	-76.11187	0.73882	-76.11187	0.65898	-166.8515
4290	0.66108	-167.11853	0.73556	-76.72654	0.73556	-76.72654	0.66108	-167.11853
4310	0.66152	-167.3855	0.73207	-77.06312	0.73207	-77.06312	0.66152	-167.3855
4330	0.66243	-167.73047	0.72854	-77.3108	0.72854	-77.3108	0.66243	-167.73047
4350	0.66941	-168.16704	0.7275	-77.79445	0.7275	-77.79445	0.66941	-168.16704
4370	0.67166	-168.64055	0.72229	-78.08174	0.72229	-78.08174	0.67166	-168.64055
4390	0.67447	-168.87741	0.71854	-78.62039	0.71854	-78.62039	0.67447	-168.87741
4410	0.67731	-169.18182	0.71626	-79.15928	0.71626	-79.15928	0.67731	-169.18182
4430	0.68092	-169.51035	0.71514	-79.56784	0.71514	-79.56784	0.68092	-169.51035
4450	0.68729	-169.47193	0.71458	-79.8361	0.71458	-79.8361	0.68729	-169.47193
4470	0.68891	-169.97323	0.70865	-80.62695	0.70865	-80.62695	0.68891	-169.97323
4490	0.68694	-170.3497	0.7056	-80.79495	0.7056	-80.79495	0.68694	-170.3497
4510	0.68932	-170.74282	0.70539	-80.9706	0.70539	-80.9706	0.68932	-170.74282
4530	0.69564	-171.30427	0.70505	-81.44492	0.70505	-81.44492	0.69564	-171.30427
4550	0.69716	-172.19586	0.69862	-82.16934	0.69862	-82.16934	0.69716	-172.19586
4570	0.6947	-172.3877	0.69047	-82.39588	0.69047	-82.39588	0.6947	-172.3877
4590	0.70243	-172.60441	0.69271	-82.6422	0.69271	-82.6422	0.70243	-172.60441
4610	0.70876	-173.01269	0.69247	-83.12512	0.69247	-83.12512	0.70876	-173.01269
4630	0.71023	-173.43598	0.68571	-83.66329	0.68571	-83.66329	0.71023	-173.43598
4650	0.71148	-173.35448	0.67725	-83.6772	0.67725	-83.6772	0.71148	-173.35448
4670	0.71701	-173.77033	0.68399	-83.95301	0.68399	-83.95301	0.71701	-173.77033
4690	0.7149	-174.18753	0.67938	-84.56556	0.67938	-84.56556	0.7149	-174.18753
4710	0.71601	-174.75225	0.67263	-85.25689	0.67263	-85.25689	0.71601	-174.75225
4730	0.72165	-175.39305	0.66773	-85.7804	0.66773	-85.7804	0.72165	-175.39305
4750	0.72363	-175.8209	0.66344	-85.90086	0.66344	-85.90086	0.72363	-175.8209
4770	0.73017	-176.09588	0.66183	-86.07109	0.66183	-86.07109	0.73017	-176.09588
4790	0.73507	-176.53522	0.66033	-86.64097	0.66033	-86.64097	0.73507	-176.53522
4810	0.73841	-176.95201	0.65522	-87.19673	0.65522	-87.19673	0.73841	-176.95201
4830	0.74096	-177.19546	0.64899	-87.57862	0.64899	-87.57862	0.74096	-177.19546
4850	0.74411	-177.15085	0.65032	-87.88079	0.65032	-87.88079	0.74411	-177.15085
4870	0.74362	-177.83816	0.64377	-88.52173	0.64377	-88.52173	0.74362	-177.83816
4890	0.74412	-178.27107	0.6413	-88.80471	0.6413	-88.80471	0.74412	-178.27107
4910	0.7483	-178.81474	0.64036	-89.2882	0.64036	-89.2882	0.7483	-178.81474
4930	0.75444	-179.40102	0.63764	-89.86918	0.63764	-89.86918	0.75444	-179.40102
4950	0.75637	-179.5284	0.62909	-89.7832	0.62909	-89.7832	0.75637	-179.5284
4970	0.75933	-179.85415	0.62753	-90.15292	0.62753	-90.15292	0.75933	-179.85415
4990	0.7694	180.0000	0.62629	-90.99021	0.62629	-90.99021	0.7694	180.0000
5010	0.77169	178.98321	0.61979	-91.72347	0.61979	-91.72347	0.77169	178.98321
5030	0.76755	178.90313	0.61156	-91.9452	0.61156	-91.9452	0.76755	178.90313
5050	0.7745	179.16465	0.61429	-91.41196	0.61429	-91.41196	0.7745	179.16465
5070	0.77632	178.19024	0.61304	-92.60971	0.61304	-92.60971	0.77632	178.19024
