!{R05L2R0}
!Johanson Technology Inc.
!www.johansontechnology.com
!Test Board Conditions:
!Substrate Type  RO4350B
!Substrate Thickness        10 mil
!Substrate Dk      3.66
!TL Type: GCPW 
!TL Trace Width  22 mil
!TL Gap  25 mil
!Electrode orientation      Horizontal
!DUT TOPOLOGY	SERIES
!Mounting Pad LxW         11x14.5 mil
! Created Wed Nov 25 17:33:21 2020
! 2 Port Network Data from SP1.SP block
! freq  magS11  angS11  magS21  angS21  magS12  angS12  magS22  angS22  
! 
# khz S ma R 50  
   3.000000e+02   9.979298e-01   -1.780000e-01    4.098265e-04    8.322900e+01    2.917427e-04    8.840700e+01    9.952908e-01   -2.320000e-01
   1.300000e+03   9.994198e-01    2.000000e-02    1.574700e-03    8.947800e+01    1.562600e-03    8.781300e+01    9.999953e-01    4.071000e-03
   2.300000e+03   9.999941e-01   -2.290000e-01    2.776818e-03    9.052000e+01    2.758973e-03    8.953100e+01    9.997727e-01   -2.480000e-01
   3.300000e+03   9.997599e-01   -3.170000e-01    3.924603e-03    8.949700e+01    3.953627e-03    8.966200e+01    9.999902e-01   -3.480000e-01
   4.300000e+03   9.998671e-01   -4.540000e-01    5.136204e-03    8.967300e+01    5.175380e-03    8.932000e+01    9.999822e-01   -4.210000e-01
   5.300000e+03   9.998613e-01   -5.240000e-01    6.391308e-03    8.973200e+01    6.394988e-03    8.952300e+01    9.999764e-01   -5.020000e-01
   6.300000e+03   9.999590e-01   -5.860000e-01    7.602951e-03    8.909700e+01    7.602076e-03    8.956400e+01    9.999590e-01   -5.860000e-01
   7.300000e+03   9.999457e-01   -6.500000e-01    8.769532e-03    8.928100e+01    8.855772e-03    8.936300e+01    9.998306e-01   -6.520000e-01
   8.300000e+03   9.999426e-01   -7.240000e-01    9.953829e-03    8.924000e+01    1.002629e-02    8.919100e+01    9.997270e-01   -7.150000e-01
   9.300000e+03   9.999235e-01   -7.860000e-01    1.120281e-02    8.894200e+01    1.128306e-02    8.923000e+01    9.997632e-01   -8.110000e-01
   1.030000e+04   9.998014e-01   -7.820000e-01    1.239082e-02    8.904000e+01    1.242653e-02    8.930300e+01    9.998249e-01   -8.090000e-01
   1.130000e+04   9.987344e-01   -8.120000e-01    1.357844e-02    8.900800e+01    1.365998e-02    8.925500e+01    9.992295e-01   -8.240000e-01
   1.230000e+04   9.982746e-01   -8.440000e-01    1.475876e-02    8.908100e+01    1.485765e-02    8.908900e+01    9.979298e-01   -8.680000e-01
   1.330000e+04   9.980447e-01   -9.180000e-01    1.595512e-02    8.899200e+01    1.607311e-02    8.916400e+01    9.980447e-01   -9.370000e-01
   1.430000e+04   9.982746e-01   -9.810000e-01    1.715734e-02    8.897400e+01    1.726037e-02    8.914100e+01    9.982746e-01   -9.880000e-01
   1.530000e+04   9.980447e-01   -1.056000e+00    1.839077e-02    8.885400e+01    1.846290e-02    8.893100e+01    9.983895e-01   -1.056000e+00
   1.630000e+04   9.989539e-01   -1.152000e+00    1.956816e-02    8.867800e+01    1.969926e-02    8.870600e+01    9.992406e-01   -1.147000e+00
   1.730000e+04   9.989175e-01   -1.245000e+00    2.078979e-02    8.875000e+01    2.090740e-02    8.867100e+01    9.993490e-01   -1.218000e+00
   1.830000e+04   9.997515e-01   -1.327000e+00    2.200127e-02    8.869000e+01    2.208501e-02    8.868700e+01    9.993596e-01   -1.313000e+00
   1.930000e+04   9.997199e-01   -1.431000e+00    2.318268e-02    8.850500e+01    2.330310e-02    8.845300e+01    9.991872e-01   -1.443000e+00
   2.030000e+04   9.995988e-01   -1.515000e+00    2.437051e-02    8.836100e+01    2.455357e-02    8.842200e+01    9.996013e-01   -1.517000e+00
   2.130000e+04   9.996644e-01   -1.609000e+00    2.561588e-02    8.836900e+01    2.570747e-02    8.835800e+01    9.992055e-01   -1.584000e+00
   2.230000e+04   9.994075e-01   -1.688000e+00    2.682767e-02    8.814600e+01    2.696392e-02    8.828700e+01    9.996059e-01   -1.664000e+00
   2.330000e+04   9.991997e-01   -1.758000e+00    2.804740e-02    8.819300e+01    2.812176e-02    8.823000e+01    9.996004e-01   -1.751000e+00
   2.430000e+04   9.995421e-01   -1.819000e+00    2.918711e-02    8.805400e+01    2.934210e-02    8.811100e+01    9.992938e-01   -1.846000e+00
   2.530000e+04   9.994628e-01   -1.884000e+00    3.043627e-02    8.801900e+01    3.055564e-02    8.805000e+01    9.994539e-01   -1.874000e+00
   2.630000e+04   9.994793e-01   -1.941000e+00    3.161979e-02    8.795300e+01    3.176208e-02    8.803500e+01    9.991577e-01   -1.969000e+00
   2.730000e+04   9.994479e-01   -2.008000e+00    3.284426e-02    8.794600e+01    3.298067e-02    8.799700e+01    9.989417e-01   -2.020000e+00
   2.830000e+04   9.993934e-01   -2.085000e+00    3.407505e-02    8.786400e+01    3.420082e-02    8.782700e+01    9.991819e-01   -2.101000e+00
   2.930000e+04   9.993500e-01   -2.113000e+00    3.521745e-02    8.778600e+01    3.545341e-02    8.788300e+01    9.987942e-01   -2.173000e+00
   3.030000e+04   9.992682e-01   -2.203000e+00    3.642160e-02    8.770100e+01    3.661078e-02    8.781000e+01    9.991801e-01   -2.201000e+00
   3.130000e+04   9.992657e-01   -2.252000e+00    3.761638e-02    8.769900e+01    3.777261e-02    8.765100e+01    9.989272e-01   -2.262000e+00
   3.230000e+04   9.990289e-01   -2.335000e+00    3.881845e-02    8.753000e+01    3.906053e-02    8.764400e+01    9.991541e-01   -2.314000e+00
   3.330000e+04   9.990164e-01   -2.412000e+00    4.007699e-02    8.750100e+01    4.022491e-02    8.754300e+01    9.991484e-01   -2.407000e+00
   3.430000e+04   9.991236e-01   -2.461100e+00    4.119776e-02    8.746388e+01    4.138319e-02    8.745096e+01    9.986268e-01   -2.471042e+00
   3.530000e+04   9.988698e-01   -2.561075e+00    4.244492e-02    8.734583e+01    4.267034e-02    8.741386e+01    9.990189e-01   -2.513136e+00
   3.630000e+04   9.988561e-01   -2.636040e+00    4.356372e-02    8.717907e+01    4.383029e-02    8.727698e+01    9.988971e-01   -2.649046e+00
   3.730000e+04   9.982781e-01   -2.676074e+00    4.477041e-02    8.725097e+01    4.498220e-02    8.726088e+01    9.989725e-01   -2.695106e+00
   3.830000e+04   9.988994e-01   -2.750061e+00    4.603050e-02    8.722185e+01    4.621109e-02    8.714196e+01    9.986709e-01   -2.801044e+00
   3.930000e+04   9.987897e-01   -2.811088e+00    4.720925e-02    8.707599e+01    4.744356e-02    8.709898e+01    9.986685e-01   -2.845050e+00
   4.030000e+04   9.984606e-01   -2.899039e+00    4.844872e-02    8.706194e+01    4.871161e-02    8.707490e+01    9.987673e-01   -2.895045e+00
   4.130000e+04   9.986582e-01   -2.938114e+00    4.964570e-02    8.700189e+01    4.994385e-02    8.697285e+01    9.984954e-01   -2.940097e+00
   4.230000e+04   9.984393e-01   -3.052091e+00    5.071832e-02    8.689681e+01    5.106972e-02    8.682298e+01    9.985584e-01   -3.037117e+00
   4.330000e+04   9.980145e-01   -3.143105e+00    5.206308e-02    8.670896e+01    5.226125e-02    8.679885e+01    9.986088e-01   -3.154059e+00
   4.430000e+04   9.981671e-01   -3.248082e+00    5.320667e-02    8.667105e+01    5.340311e-02    8.664702e+01    9.985278e-01   -3.213063e+00
   4.530000e+04   9.984550e-01   -3.330012e+00    5.445489e-02    8.672397e+01    5.470636e-02    8.667198e+01    9.982102e-01   -3.276115e+00
   4.630000e+04   9.978972e-01   -3.342107e+00    5.549093e-02    8.669670e+01    5.586902e-02    8.665085e+01    9.983794e-01   -3.391086e+00
   4.730000e+04   9.977554e-01   -3.449117e+00    5.678173e-02    8.639294e+01    5.704402e-02    8.650283e+01    9.983374e-01   -3.477033e+00
   4.830000e+04   9.980939e-01   -3.566018e+00    5.784306e-02    8.632902e+01    5.830429e-02    8.633195e+01    9.979842e-01   -3.510090e+00
   4.930000e+04   9.979599e-01   -3.584090e+00    5.921754e-02    8.634891e+01    5.958679e-02    8.627798e+01    9.980728e-01   -3.600073e+00
   5.030000e+04   9.981315e-01   -3.674094e+00    6.036893e-02    8.626092e+01    6.069653e-02    8.625391e+01    9.971846e-01   -3.673097e+00
   5.130000e+04   9.980570e-01   -3.768070e+00    6.155547e-02    8.617799e+01    6.194649e-02    8.616086e+01    9.967697e-01   -3.770069e+00
   5.230000e+04   9.975372e-01   -3.838073e+00    6.271314e-02    8.616578e+01    6.312576e-02    8.602397e+01    9.979172e-01   -3.839066e+00
   5.330000e+04   9.971791e-01   -3.911076e+00    6.407028e-02    8.594691e+01    6.421815e-02    8.598991e+01    9.979066e-01   -3.905090e+00
   5.430000e+04   9.977740e-01   -3.987110e+00    6.529341e-02    8.586100e+01    6.561742e-02    8.590087e+01    9.972584e-01   -3.995089e+00
   5.530000e+04   9.976944e-01   -4.097057e+00    6.638035e-02    8.586188e+01    6.667915e-02    8.576889e+01    9.973967e-01   -4.084062e+00
   5.630000e+04   9.974663e-01   -4.154052e+00    6.757937e-02    8.574296e+01    6.796156e-02    8.565699e+01    9.974083e-01   -4.146110e+00
   5.730000e+04   9.975721e-01   -4.206119e+00    6.879224e-02    8.570495e+01    6.906220e-02    8.564496e+01    9.969717e-01   -4.255982e+00
   5.830000e+04   9.969706e-01   -4.325081e+00    6.987571e-02    8.565589e+01    7.030327e-02    8.560785e+01    9.974389e-01   -4.238137e+00
   5.930000e+04   9.974154e-01   -4.406055e+00    7.113599e-02    8.554394e+01    7.145614e-02    8.545889e+01    9.962829e-01   -4.375135e+00
   6.030000e+04   9.968232e-01   -4.461109e+00    7.230624e-02    8.548484e+01    7.265663e-02    8.534400e+01    9.972824e-01   -4.510020e+00
   6.130000e+04   9.967668e-01   -4.570051e+00    7.357000e-02    8.532898e+01    7.384163e-02    8.534489e+01    9.972011e-01   -4.530085e+00
   6.230000e+04   9.969999e-01   -4.621079e+00    7.480010e-02    8.531186e+01    7.517124e-02    8.523392e+01    9.968841e-01   -4.615112e+00
   6.330000e+04   9.970511e-01   -4.700035e+00    7.601947e-02    8.517197e+01    7.631752e-02    8.515509e+01    9.959060e-01   -4.726952e+00
   6.430000e+04   9.959443e-01   -4.735090e+00    7.723976e-02    8.513986e+01    7.743583e-02    8.524379e+01    9.969758e-01   -4.679163e+00
   6.530000e+04   9.966296e-01   -4.825049e+00    7.833216e-02    8.500402e+01    7.872090e-02    8.503199e+01    9.966289e-01   -4.842042e+00
   6.630000e+04   9.967466e-01   -4.874082e+00    7.947712e-02    8.502783e+01    7.986225e-02    8.502094e+01    9.960598e-01   -4.884076e+00
   6.730000e+04   9.958540e-01   -4.956062e+00    8.075168e-02    8.485503e+01    8.104041e-02    8.496383e+01    9.966558e-01   -4.960082e+00
   6.830000e+04   9.964725e-01   -5.018072e+00    8.189783e-02    8.488694e+01    8.220945e-02    8.479294e+01    9.962437e-01   -5.042111e+00
   6.930000e+04   9.961044e-01   -5.090060e+00    8.319762e-02    8.482382e+01    8.338967e-02    8.472996e+01    9.964495e-01   -5.153032e+00
   7.030000e+04   9.949696e-01   -5.150088e+00    8.426868e-02    8.464198e+01    8.471592e-02    8.468797e+01    9.963442e-01   -5.185070e+00
   7.130000e+04   9.957838e-01   -5.238073e+00    8.557966e-02    8.462595e+01    8.580667e-02    8.465286e+01    9.962415e-01   -5.255106e+00
   7.230000e+04   9.961156e-01   -5.311084e+00    8.669938e-02    8.457687e+01    8.701944e-02    8.451398e+01    9.956574e-01   -5.361015e+00
   7.330000e+04   9.958156e-01   -5.395075e+00    8.792948e-02    8.444296e+01    8.830483e-02    8.449286e+01    9.958153e-01   -5.376108e+00
   7.430000e+04   9.958400e-01   -5.470120e+00    8.906256e-02    8.439990e+01    8.943252e-02    8.435395e+01    9.954956e-01   -5.484033e+00
   7.530000e+04   9.957931e-01   -5.590028e+00    9.021416e-02    8.430296e+01    9.065147e-02    8.430891e+01    9.949914e-01   -5.517128e+00
   7.630000e+04   9.956115e-01   -5.618025e+00    9.135786e-02    8.426291e+01    9.183230e-02    8.422399e+01    9.952681e-01   -5.645060e+00
   7.730000e+04   9.952915e-01   -5.643101e+00    9.259892e-02    8.416796e+01    9.298358e-02    8.420991e+01    9.954059e-01   -5.705016e+00
   7.830000e+04   9.952938e-01   -5.744051e+00    9.380095e-02    8.413190e+01    9.425563e-02    8.411792e+01    9.951796e-01   -5.721116e+00
   7.930000e+04   9.949683e-01   -5.795064e+00    9.505264e-02    8.402893e+01    9.552434e-02    8.403296e+01    9.951969e-01   -5.837058e+00
   8.030000e+04   9.951379e-01   -5.859091e+00    9.614763e-02    8.395592e+01    9.659156e-02    8.398993e+01    9.947950e-01   -5.895077e+00
   8.130000e+04   9.945571e-01   -5.950090e+00    9.727156e-02    8.387996e+01    9.785543e-02    8.391994e+01    9.950159e-01   -5.972056e+00
   8.230000e+04   9.938982e-01   -6.040065e+00    9.858177e-02    8.383592e+01    9.895716e-02    8.385589e+01    9.950420e-01   -6.028069e+00
   8.330000e+04   9.946235e-01   -6.105048e+00    9.972719e-02    8.375892e+01    1.002452e-01    8.374698e+01    9.946238e-01   -6.097075e+00
   8.430000e+04   9.944052e-01   -6.153090e+00    1.008251e-01    8.368197e+01    1.013139e-01    8.372588e+01    9.946334e-01   -6.172043e+00
   8.530000e+04   9.945482e-01   -6.243075e+00    1.020660e-01    8.364792e+01    1.026434e-01    8.360197e+01    9.939766e-01   -6.215061e+00
   8.630000e+04   9.941671e-01   -6.318062e+00    1.032675e-01    8.356593e+01    1.038757e-01    8.356693e+01    9.942809e-01   -6.276065e+00
   8.730000e+04   9.942638e-01   -6.380078e+00    1.043174e-01    8.349692e+01    1.050284e-01    8.349589e+01    9.936918e-01   -6.341109e+00
   8.830000e+04   9.940942e-01   -6.458051e+00    1.055681e-01    8.341693e+01    1.062142e-01    8.338694e+01    9.937514e-01   -6.450077e+00
   8.930000e+04   9.937793e-01   -6.509068e+00    1.067812e-01    8.334503e+01    1.073854e-01    8.332691e+01    9.938940e-01   -6.527049e+00
   9.030000e+04   9.933993e-01   -6.577102e+00    1.079142e-01    8.337084e+01    1.086496e-01    8.323392e+01    9.938557e-01   -6.576092e+00
   9.130000e+04   9.937894e-01   -6.679019e+00    1.091061e-01    8.321292e+01    1.097487e-01    8.315096e+01    9.931031e-01   -6.668067e+00
   9.230000e+04   9.936441e-01   -6.698096e+00    1.102520e-01    8.312989e+01    1.109520e-01    8.311290e+01    9.928450e-01   -6.735079e+00
   9.330000e+04   9.929529e-01   -6.794095e+00    1.116177e-01    8.302098e+01    1.119911e-01    8.301091e+01    9.935236e-01   -6.814073e+00
   9.430000e+04   9.933573e-01   -6.889071e+00    1.127744e-01    8.299993e+01    1.132948e-01    8.291795e+01    9.929013e-01   -6.887041e+00
   9.530000e+04   9.924202e-01   -6.960083e+00    1.139332e-01    8.292591e+01    1.143142e-01    8.287191e+01    9.933342e-01   -6.928119e+00
   9.630000e+04   9.926599e-01   -7.043080e+00    1.151476e-01    8.283785e+01    1.155859e-01    8.277995e+01    9.931169e-01   -7.047058e+00
   9.730000e+04   9.926549e-01   -7.123030e+00    1.163596e-01    8.269103e+01    1.167221e-01    8.273094e+01    9.928829e-01   -7.105069e+00
   9.830000e+04   9.927682e-01   -7.153100e+00    1.174093e-01    8.272588e+01    1.180056e-01    8.266691e+01    9.924264e-01   -7.174060e+00
   9.930000e+04   9.919837e-01   -7.253039e+00    1.186065e-01    8.260395e+01    1.192226e-01    8.257795e+01    9.926688e-01   -7.234072e+00
   1.003000e+05   9.920908e-01   -7.292090e+00    1.197182e-01    8.255593e+01    1.203953e-01    8.253175e+01    9.924329e-01   -7.306186e+00
   1.013000e+05   9.921524e-01   -7.337214e+00    1.209450e-01    8.251983e+01    1.215453e-01    8.240590e+01    9.921543e-01   -7.399092e+00
   1.023000e+05   9.913563e-01   -7.444138e+00    1.221484e-01    8.243580e+01    1.227970e-01    8.235789e+01    9.922693e-01   -7.445152e+00
   1.033000e+05   9.914028e-01   -7.513144e+00    1.232844e-01    8.233493e+01    1.239104e-01    8.230190e+01    9.920869e-01   -7.521156e+00
   1.043000e+05   9.916520e-01   -7.585140e+00    1.244424e-01    8.229979e+01    1.250172e-01    8.225372e+01    9.918819e-01   -7.599128e+00
   1.053000e+05   9.907521e-01   -7.655152e+00    1.256384e-01    8.219483e+01    1.263926e-01    8.211191e+01    9.917774e-01   -7.663172e+00
   1.063000e+05   9.913229e-01   -7.731166e+00    1.267869e-01    8.211195e+01    1.274450e-01    8.206677e+01    9.914379e-01   -7.749032e+00
   1.073000e+05   9.908920e-01   -7.814098e+00    1.280956e-01    8.208472e+01    1.285094e-01    8.195399e+01    9.914637e-01   -7.765218e+00
   1.083000e+05   9.902570e-01   -7.863240e+00    1.291979e-01    8.194597e+01    1.297195e-01    8.194670e+01    9.913959e-01   -7.874124e+00
   1.093000e+05   9.908193e-01   -7.983104e+00    1.303775e-01    8.193079e+01    1.309040e-01    8.179689e+01    9.910470e-01   -7.936192e+00
   1.103000e+05   9.907476e-01   -8.035080e+00    1.315894e-01    8.182783e+01    1.321815e-01    8.173999e+01    9.907497e-01   -8.032130e+00
   1.113000e+05   9.898948e-01   -8.075148e+00    1.326925e-01    8.174180e+01    1.332438e-01    8.173694e+01    9.909185e-01   -8.097166e+00
   1.123000e+05   9.905356e-01   -8.149210e+00    1.338840e-01    8.164286e+01    1.345789e-01    8.170671e+01    9.903091e-01   -8.180148e+00
   1.133000e+05   9.899564e-01   -8.254066e+00    1.351211e-01    8.157297e+01    1.355730e-01    8.156384e+01    9.905246e-01   -8.254104e+00
   1.143000e+05   9.902873e-01   -8.287152e+00    1.362914e-01    8.155680e+01    1.367319e-01    8.148188e+01    9.899463e-01   -8.306234e+00
   1.153000e+05   9.899004e-01   -8.363142e+00    1.373882e-01    8.145878e+01    1.380221e-01    8.142288e+01    9.900146e-01   -8.423084e+00
   1.163000e+05   9.896442e-01   -8.434226e+00    1.386073e-01    8.134988e+01    1.391352e-01    8.136375e+01    9.898719e-01   -8.465220e+00
   1.173000e+05   9.895369e-01   -8.547066e+00    1.397143e-01    8.128889e+01    1.403910e-01    8.124088e+01    9.896520e-01   -8.575118e+00
   1.183000e+05   9.890214e-01   -8.580248e+00    1.410790e-01    8.123278e+01    1.414694e-01    8.117986e+01    9.897030e-01   -8.634086e+00
   1.193000e+05   9.893731e-01   -8.704074e+00    1.422055e-01    8.112185e+01    1.426486e-01    8.110788e+01    9.891456e-01   -8.677200e+00
   1.203000e+05   9.891218e-01   -8.741152e+00    1.432049e-01    8.104893e+01    1.438329e-01    8.104688e+01    9.890097e-01   -8.777132e+00
   1.213000e+05   9.883882e-01   -8.817134e+00    1.444225e-01    8.101580e+01    1.451053e-01    8.098785e+01    9.891842e-01   -8.843090e+00
   1.223000e+05   9.885503e-01   -8.884066e+00    1.456485e-01    8.091497e+01    1.460852e-01    8.091196e+01    9.888920e-01   -8.888084e+00
   1.233000e+05   9.883224e-01   -8.917180e+00    1.468097e-01    8.089978e+01    1.473180e-01    8.089289e+01    9.887770e-01   -8.930200e+00
   1.243000e+05   9.883408e-01   -9.007076e+00    1.478478e-01    8.079101e+01    1.485469e-01    8.083982e+01    9.884548e-01   -9.030144e+00
   1.253000e+05   9.881709e-01   -9.045128e+00    1.491895e-01    8.079568e+01    1.496888e-01    8.075187e+01    9.883987e-01   -9.102140e+00
   1.263000e+05   9.877842e-01   -9.109250e+00    1.502172e-01    8.063488e+01    1.508928e-01    8.068771e+01    9.881254e-01   -9.172130e+00
   1.273000e+05   9.876296e-01   -9.234176e+00    1.514957e-01    8.057491e+01    1.519854e-01    8.054499e+01    9.879699e-01   -9.237104e+00
   1.283000e+05   9.877098e-01   -9.322030e+00    1.525757e-01    8.052782e+01    1.533329e-01    8.053788e+01    9.875952e-01   -9.289080e+00
   1.293000e+05   9.876219e-01   -9.337158e+00    1.536201e-01    8.043793e+01    1.543645e-01    8.047979e+01    9.870558e-01   -9.329250e+00
   1.303000e+05   9.869683e-01   -9.416104e+00    1.548313e-01    8.040284e+01    1.554569e-01    8.037479e+01    9.875339e-01   -9.454166e+00
   1.313000e+05   9.872960e-01   -9.468176e+00    1.558672e-01    8.032277e+01    1.567307e-01    8.026802e+01    9.865015e-01   -9.537096e+00
   1.323000e+05   9.870198e-01   -9.556288e+00    1.571563e-01    8.020686e+01    1.579183e-01    8.027972e+01    9.866769e-01   -9.585118e+00
   1.333000e+05   9.870297e-01   -9.700034e+00    1.582109e-01    8.013505e+01    1.591242e-01    8.014184e+01    9.856683e-01   -9.644020e+00
   1.343000e+05   9.866905e-01   -9.717076e+00    1.592714e-01    8.016177e+01    1.601911e-01    8.006092e+01    9.860081e-01   -9.654250e+00
