!{R05L1R8}
!Johanson Technology Inc.
!www.johansontechnology.com
!Test Board Conditions:
!Substrate Type  RO4350B
!Substrate Thickness        10 mil
!Substrate Dk      3.66
!TL Type: GCPW 
!TL Trace Width  22 mil
!TL Gap  25 mil
!Electrode orientation      Horizontal
!DUT TOPOLOGY	SERIES
!Mounting Pad LxW         11x14.5 mil
! Created Wed Nov 25 17:33:21 2020
! 2 Port Network Data from SP1.SP block
! freq  magS11  angS11  magS21  angS21  magS12  angS12  magS22  angS22  
! 
# khz S ma R 50    
   3.000000e+02   9.995353e-01   -4.600000e-01    3.123188e-04    9.403900e+01    3.686363e-04    9.418800e+01    9.999957e-01   -3.610000e-01
   1.300000e+03   9.999867e-01   -1.680000e-01    1.356733e-03    8.747000e+01    1.389614e-03    8.939600e+01    9.998716e-01   -1.240000e-01
   2.300000e+03   9.999943e-01   -3.300000e-01    2.472694e-03    8.957400e+01    2.427282e-03    9.078800e+01    9.994364e-01   -2.890000e-01
   3.300000e+03   9.999927e-01   -3.830000e-01    3.528961e-03    8.945000e+01    3.517198e-03    8.998200e+01    9.994172e-01   -3.770000e-01
   4.300000e+03   9.999863e-01   -4.560000e-01    4.598795e-03    8.917400e+01    4.628008e-03    8.979700e+01    9.998712e-01   -4.480000e-01
   5.300000e+03   9.999774e-01   -5.190000e-01    5.691676e-03    8.884700e+01    5.679893e-03    8.943000e+01    9.997472e-01   -4.920000e-01
   6.300000e+03   9.998496e-01   -5.590000e-01    6.704782e-03    8.938700e+01    6.752035e-03    8.896400e+01    9.999647e-01   -5.730000e-01
   7.300000e+03   9.999480e-01   -6.320000e-01    7.794482e-03    8.935300e+01    7.794482e-03    8.926300e+01    9.999634e-01   -5.990000e-01
   8.300000e+03   9.999566e-01   -7.030000e-01    8.833466e-03    8.942700e+01    8.896745e-03    8.939400e+01    9.995693e-01   -6.650000e-01
   9.300000e+03   9.999485e-01   -7.610000e-01    9.926473e-03    8.921700e+01    9.952792e-03    8.916500e+01    9.996781e-01   -7.330000e-01
   1.030000e+04   9.997827e-01   -7.450000e-01    1.100399e-02    8.909900e+01    1.104714e-02    8.924800e+01    9.997965e-01   -7.530000e-01
   1.130000e+04   9.985044e-01   -7.450000e-01    1.202818e-02    8.918400e+01    1.210319e-02    8.923100e+01    9.983895e-01   -7.540000e-01
   1.230000e+04   9.980447e-01   -7.590000e-01    1.310087e-02    8.900300e+01    1.316134e-02    8.926400e+01    9.981596e-01   -7.800000e-01
   1.330000e+04   9.982746e-01   -8.270000e-01    1.412700e-02    8.905000e+01    1.420038e-02    8.928600e+01    9.978149e-01   -8.050000e-01
   1.430000e+04   9.979298e-01   -8.790000e-01    1.523877e-02    8.888900e+01    1.527918e-02    8.917300e+01    9.977001e-01   -9.060000e-01
   1.530000e+04   9.982746e-01   -9.290000e-01    1.624052e-02    8.908600e+01    1.634745e-02    8.899800e+01    9.983895e-01   -9.720000e-01
   1.630000e+04   9.986194e-01   -1.005000e+00    1.732208e-02    8.891200e+01    1.742409e-02    8.890600e+01    9.982746e-01   -1.012000e+00
   1.730000e+04   9.987344e-01   -1.098000e+00    1.840772e-02    8.883200e+01    1.847779e-02    8.893000e+01    9.987344e-01   -1.123000e+00
   1.830000e+04   9.994368e-01   -1.186000e+00    1.943793e-02    8.876400e+01    1.963360e-02    8.888700e+01    9.994606e-01   -1.203000e+00
   1.930000e+04   9.997572e-01   -1.285000e+00    2.058786e-02    8.861900e+01    2.069004e-02    8.857700e+01    9.996423e-01   -1.302000e+00
   2.030000e+04   9.997570e-01   -1.343000e+00    2.161223e-02    8.860800e+01    2.172699e-02    8.863500e+01    9.992715e-01   -1.339000e+00
   2.130000e+04   9.997133e-01   -1.432000e+00    2.265950e-02    8.851500e+01    2.276671e-02    8.849100e+01    9.996092e-01   -1.421000e+00
   2.230000e+04   9.996711e-01   -1.492000e+00    2.379172e-02    8.843400e+01    2.386579e-02    8.842400e+01    9.996717e-01   -1.539000e+00
   2.330000e+04   9.993256e-01   -1.570000e+00    2.480030e-02    8.825200e+01    2.492625e-02    8.844300e+01    9.996756e-01   -1.576000e+00
   2.430000e+04   9.994868e-01   -1.634000e+00    2.586452e-02    8.821500e+01    2.600186e-02    8.834000e+01    9.996259e-01   -1.626000e+00
   2.530000e+04   9.990266e-01   -1.672000e+00    2.692171e-02    8.813600e+01    2.702419e-02    8.825200e+01    9.996249e-01   -1.686000e+00
   2.630000e+04   9.995901e-01   -1.711000e+00    2.803090e-02    8.823100e+01    2.814732e-02    8.830200e+01    9.993650e-01   -1.738000e+00
   2.730000e+04   9.995673e-01   -1.789000e+00    2.912296e-02    8.814700e+01    2.921027e-02    8.813100e+01    9.990703e-01   -1.796000e+00
   2.830000e+04   9.995233e-01   -1.831000e+00    3.010863e-02    8.803600e+01    3.029640e-02    8.812300e+01    9.990018e-01   -1.856000e+00
   2.930000e+04   9.994913e-01   -1.898000e+00    3.123078e-02    8.799900e+01    3.134965e-02    8.801700e+01    9.992079e-01   -1.927000e+00
   3.030000e+04   9.987730e-01   -1.943000e+00    3.221804e-02    8.793000e+01    3.237421e-02    8.804000e+01    9.994664e-01   -1.950000e+00
   3.130000e+04   9.993797e-01   -1.979000e+00    3.331702e-02    8.782500e+01    3.347851e-02    8.804800e+01    9.993021e-01   -1.994000e+00
   3.230000e+04   9.993058e-01   -2.030000e+00    3.439074e-02    8.790300e+01    3.456539e-02    8.792200e+01    9.993224e-01   -2.074000e+00
   3.330000e+04   9.987223e-01   -2.078000e+00    3.548495e-02    8.780400e+01    3.563232e-02    8.789500e+01    9.993564e-01   -2.121000e+00
   3.430000e+04   9.991259e-01   -2.158075e+00    3.650272e-02    8.770795e+01    3.663323e-02    8.774793e+01    9.992903e-01   -2.191088e+00
   3.530000e+04   9.992732e-01   -2.233072e+00    3.760852e-02    8.765890e+01    3.774303e-02    8.767898e+01    9.988451e-01   -2.279060e+00
   3.630000e+04   9.991143e-01   -2.305076e+00    3.864618e-02    8.756303e+01    3.882900e-02    8.766092e+01    9.991712e-01   -2.339041e+00
   3.730000e+04   9.991277e-01   -2.381056e+00    3.970928e-02    8.759582e+01    3.985588e-02    8.757693e+01    9.991332e-01   -2.380095e+00
   3.830000e+04   9.987959e-01   -2.437054e+00    4.073583e-02    8.742099e+01    4.091913e-02    8.750297e+01    9.991331e-01   -2.475036e+00
   3.930000e+04   9.990971e-01   -2.491056e+00    4.182148e-02    8.741493e+01    4.199523e-02    8.747092e+01    9.987219e-01   -2.511065e+00
   4.030000e+04   9.990573e-01   -2.547070e+00    4.285535e-02    8.734507e+01    4.309274e-02    8.738690e+01    9.980998e-01   -2.576078e+00
   4.130000e+04   9.986452e-01   -2.617072e+00    4.397261e-02    8.741481e+01    4.412473e-02    8.728900e+01    9.990128e-01   -2.654069e+00
   4.230000e+04   9.989668e-01   -2.689105e+00    4.509985e-02    8.722485e+01    4.523515e-02    8.728983e+01    9.985022e-01   -2.723032e+00
   4.330000e+04   9.985818e-01   -2.794035e+00    4.611041e-02    8.707403e+01    4.635530e-02    8.711791e+01    9.988550e-01   -2.755074e+00
   4.430000e+04   9.985725e-01   -2.829047e+00    4.715390e-02    8.710894e+01    4.744249e-02    8.703103e+01    9.987892e-01   -2.829089e+00
   4.530000e+04   9.985586e-01   -2.876082e+00    4.816960e-02    8.705293e+01    4.844759e-02    8.705795e+01    9.987545e-01   -2.918048e+00
   4.630000e+04   9.981598e-01   -2.958074e+00    4.927842e-02    8.697780e+01    4.946034e-02    8.700494e+01    9.987632e-01   -2.966041e+00
   4.730000e+04   9.986449e-01   -3.032014e+00    5.033075e-02    8.677401e+01    5.055736e-02    8.694994e+01    9.984323e-01   -3.007112e+00
   4.830000e+04   9.986267e-01   -3.046072e+00    5.129843e-02    8.678495e+01    5.163616e-02    8.689087e+01    9.979498e-01   -3.119078e+00
   4.930000e+04   9.980591e-01   -3.118104e+00    5.242988e-02    8.673401e+01    5.275673e-02    8.675687e+01    9.985523e-01   -3.197064e+00
   5.030000e+04   9.983951e-01   -3.222079e+00    5.357931e-02    8.674276e+01    5.378945e-02    8.662608e+01    9.984589e-01   -3.261121e+00
   5.130000e+04   9.984546e-01   -3.301093e+00    5.464770e-02    8.650399e+01    5.486206e-02    8.670794e+01    9.981801e-01   -3.382012e+00
   5.230000e+04   9.983323e-01   -3.394058e+00    5.565014e-02    8.649587e+01    5.589427e-02    8.664483e+01    9.982960e-01   -3.394098e+00
   5.330000e+04   9.980563e-01   -3.452021e+00    5.665506e-02    8.636202e+01    5.703460e-02    8.647687e+01    9.982354e-01   -3.492034e+00
   5.430000e+04   9.980140e-01   -3.473132e+00    5.773994e-02    8.637792e+01    5.807993e-02    8.634295e+01    9.981610e-01   -3.526068e+00
   5.530000e+04   9.979011e-01   -3.605026e+00    5.888015e-02    8.629901e+01    5.919278e-02    8.628998e+01    9.981517e-01   -3.594074e+00
   5.630000e+04   9.968495e-01   -3.631090e+00    5.984023e-02    8.630580e+01    6.013715e-02    8.626897e+01    9.981772e-01   -3.668058e+00
   5.730000e+04   9.979278e-01   -3.721054e+00    6.096192e-02    8.610104e+01    6.120106e-02    8.623888e+01    9.979983e-01   -3.726107e+00
   5.830000e+04   9.979638e-01   -3.775091e+00    6.204720e-02    8.613780e+01    6.233363e-02    8.611588e+01    9.977997e-01   -3.833071e+00
   5.930000e+04   9.976997e-01   -3.866043e+00    6.301901e-02    8.594204e+01    6.333898e-02    8.600001e+01    9.978324e-01   -3.904030e+00
   6.030000e+04   9.978892e-01   -3.909102e+00    6.417775e-02    8.597999e+01    6.442942e-02    8.600886e+01    9.973036e-01   -3.934133e+00
   6.130000e+04   9.977265e-01   -4.011095e+00    6.525376e-02    8.596589e+01    6.547212e-02    8.586687e+01    9.977520e-01   -4.066989e+00
   6.230000e+04   9.977037e-01   -4.105985e+00    6.620006e-02    8.585692e+01    6.654394e-02    8.573896e+01    9.972447e-01   -4.056097e+00
   6.330000e+04   9.975308e-01   -4.091012e+00    6.722546e-02    8.577999e+01    6.759017e-02    8.569911e+01    9.974151e-01   -4.153020e+00
   6.430000e+04   9.976108e-01   -4.103152e+00    6.838403e-02    8.577382e+01    6.871548e-02    8.581281e+01    9.966624e-01   -4.173107e+00
   6.530000e+04   9.973503e-01   -4.255090e+00    6.947109e-02    8.559301e+01    6.979181e-02    8.562088e+01    9.973501e-01   -4.280054e+00
   6.630000e+04   9.973542e-01   -4.345010e+00    7.048641e-02    8.560697e+01    7.086890e-02    8.550298e+01    9.971248e-01   -4.334027e+00
   6.730000e+04   9.971683e-01   -4.355116e+00    7.143741e-02    8.557482e+01    7.187447e-02    8.548497e+01    9.971684e-01   -4.361098e+00
   6.830000e+04   9.970877e-01   -4.470991e+00    7.261727e-02    8.539699e+01    7.289375e-02    8.545695e+01    9.972031e-01   -4.459034e+00
   6.930000e+04   9.965046e-01   -4.462149e+00    7.366915e-02    8.538685e+01    7.401770e-02    8.540493e+01    9.971933e-01   -4.493137e+00
   7.030000e+04   9.963337e-01   -4.610988e+00    7.473272e-02    8.523606e+01    7.507762e-02    8.533894e+01    9.971368e-01   -4.630011e+00
   7.130000e+04   9.964794e-01   -4.599037e+00    7.576592e-02    8.529591e+01    7.607193e-02    8.528093e+01    9.970519e-01   -4.641111e+00
   7.230000e+04   9.969537e-01   -4.636098e+00    7.677696e-02    8.520995e+01    7.718473e-02    8.520689e+01    9.962653e-01   -4.752042e+00
   7.330000e+04   9.968432e-01   -4.734011e+00    7.781847e-02    8.516399e+01    7.831276e-02    8.509898e+01    9.961550e-01   -4.794059e+00
   7.430000e+04   9.967449e-01   -4.745137e+00    7.885709e-02    8.515684e+01    7.933042e-02    8.507601e+01    9.962866e-01   -4.853055e+00
   7.530000e+04   9.965369e-01   -4.882101e+00    8.006623e-02    8.500002e+01    8.036160e-02    8.508191e+01    9.966516e-01   -4.908045e+00
   7.630000e+04   9.965346e-01   -4.982993e+00    8.117040e-02    8.501983e+01    8.132027e-02    8.499388e+01    9.966493e-01   -4.953082e+00
   7.730000e+04   9.962762e-01   -4.976068e+00    8.213635e-02    8.485305e+01    8.250593e-02    8.487195e+01    9.963909e-01   -5.035090e+00
   7.830000e+04   9.962661e-01   -5.044077e+00    8.320139e-02    8.490578e+01    8.353745e-02    8.481896e+01    9.963809e-01   -5.125058e+00
   7.930000e+04   9.960040e-01   -5.121020e+00    8.418160e-02    8.468301e+01    8.463819e-02    8.477395e+01    9.962340e-01   -5.183037e+00
   8.030000e+04   9.954784e-01   -5.141055e+00    8.531731e-02    8.469393e+01    8.562238e-02    8.472694e+01    9.962805e-01   -5.220078e+00
   8.130000e+04   9.957816e-01   -5.196059e+00    8.639114e-02    8.462299e+01    8.673007e-02    8.466799e+01    9.961259e-01   -5.298039e+00
   8.230000e+04   9.953903e-01   -5.255054e+00    8.737724e-02    8.461692e+01    8.781092e-02    8.465289e+01    9.960776e-01   -5.337075e+00
   8.330000e+04   9.957135e-01   -5.309105e+00    8.839742e-02    8.453891e+01    8.887713e-02    8.453890e+01    9.958278e-01   -5.412065e+00
   8.430000e+04   9.957203e-01   -5.414069e+00    8.945256e-02    8.444795e+01    9.003100e-02    8.443696e+01    9.954916e-01   -5.477039e+00
   8.530000e+04   9.953750e-01   -5.483034e+00    9.054029e-02    8.440091e+01    9.097925e-02    8.439389e+01    9.957199e-01   -5.516056e+00
   8.630000e+04   9.943072e-01   -5.517128e+00    9.151148e-02    8.431597e+01    9.206084e-02    8.428194e+01    9.956806e-01   -5.572077e+00
   8.730000e+04   9.953482e-01   -5.645013e+00    9.265749e-02    8.428494e+01    9.307442e-02    8.421999e+01    9.954639e-01   -5.649042e+00
   8.830000e+04   9.942649e-01   -5.658079e+00    9.372525e-02    8.422892e+01    9.411465e-02    8.421191e+01    9.955244e-01   -5.691087e+00
   8.930000e+04   9.945606e-01   -5.737044e+00    9.471878e-02    8.414396e+01    9.525454e-02    8.411996e+01    9.953604e-01   -5.778034e+00
   9.030000e+04   9.953041e-01   -5.781087e+00    9.584302e-02    8.410088e+01    9.629650e-02    8.407689e+01    9.940446e-01   -5.812116e+00
   9.130000e+04   9.951833e-01   -5.868051e+00    9.687420e-02    8.398393e+01    9.733248e-02    8.396898e+01    9.941536e-01   -5.928058e+00
   9.230000e+04   9.949479e-01   -5.919003e+00    9.797268e-02    8.391696e+01    9.835700e-02    8.395292e+01    9.948329e-01   -5.986050e+00
   9.330000e+04   9.949002e-01   -5.922141e+00    9.901102e-02    8.387487e+01    9.946825e-02    8.387087e+01    9.943280e-01   -6.036086e+00
   9.430000e+04   9.946182e-01   -6.063093e+00    9.989900e-02    8.374804e+01    1.005798e-01    8.374297e+01    9.943887e-01   -6.122021e+00
   9.530000e+04   9.947148e-01   -6.155995e+00    1.009958e-01    8.379184e+01    1.015787e-01    8.371297e+01    9.940282e-01   -6.143091e+00
   9.630000e+04   9.945094e-01   -6.151087e+00    1.020386e-01    8.362900e+01    1.025566e-01    8.367995e+01    9.941670e-01   -6.234067e+00
   9.730000e+04   9.938653e-01   -6.238054e+00    1.032599e-01    8.362893e+01    1.036053e-01    8.363087e+01    9.945519e-01   -6.301056e+00
   9.830000e+04   9.938134e-01   -6.292065e+00    1.042938e-01    8.356093e+01    1.046428e-01    8.350098e+01    9.943856e-01   -6.357065e+00
   9.930000e+04   9.936786e-01   -6.357072e+00    1.051963e-01    8.349298e+01    1.057427e-01    8.348194e+01    9.942498e-01   -6.422036e+00
   1.003000e+05   9.941456e-01   -6.429174e+00    1.063797e-01    8.347387e+01    1.068337e-01    8.342683e+01    9.936893e-01   -6.458158e+00
   1.013000e+05   9.937782e-01   -6.516014e+00    1.074109e-01    8.340781e+01    1.078198e-01    8.334089e+01    9.940052e-01   -6.537164e+00
   1.023000e+05   9.939249e-01   -6.523138e+00    1.085078e-01    8.331285e+01    1.089838e-01    8.328585e+01    9.932392e-01   -6.619076e+00
   1.033000e+05   9.936765e-01   -6.592132e+00    1.094219e-01    8.323785e+01    1.100280e-01    8.320878e+01    9.933350e-01   -6.657134e+00
   1.043000e+05   9.931414e-01   -6.658164e+00    1.105144e-01    8.316382e+01    1.109990e-01    8.310100e+01    9.935966e-01   -6.724218e+00
   1.053000e+05   9.935813e-01   -6.740068e+00    1.115609e-01    8.307204e+01    1.120502e-01    8.310188e+01    9.928972e-01   -6.833022e+00
   1.063000e+05   9.930285e-01   -6.774094e+00    1.126211e-01    8.309280e+01    1.131669e-01    8.304091e+01    9.933713e-01   -6.844074e+00
   1.073000e+05   9.929608e-01   -6.821156e+00    1.136816e-01    8.299181e+01    1.141798e-01    8.299578e+01    9.931878e-01   -6.881232e+00
   1.083000e+05   9.931776e-01   -6.899146e+00    1.147717e-01    8.289497e+01    1.151692e-01    8.288785e+01    9.926074e-01   -6.997106e+00
   1.093000e+05   9.927622e-01   -6.972176e+00    1.157586e-01    8.287981e+01    1.163595e-01    8.281180e+01    9.928751e-01   -7.050164e+00
   1.103000e+05   9.929387e-01   -7.060104e+00    1.168503e-01    8.278686e+01    1.172546e-01    8.271383e+01    9.923675e-01   -7.132166e+00
   1.113000e+05   9.927740e-01   -7.112152e+00    1.178442e-01    8.271596e+01    1.182657e-01    8.262901e+01    9.923172e-01   -7.215000e+00
   1.123000e+05   9.926265e-01   -7.188096e+00    1.188621e-01    8.269670e+01    1.193971e-01    8.263390e+01    9.922826e-01   -7.215218e+00
   1.133000e+05   9.925698e-01   -7.236096e+00    1.198863e-01    8.254600e+01    1.204811e-01    8.258485e+01    9.916574e-01   -7.324098e+00
   1.143000e+05   9.923118e-01   -7.284150e+00    1.210198e-01    8.254580e+01    1.215500e-01    8.251194e+01    9.920838e-01   -7.373126e+00
   1.153000e+05   9.921440e-01   -7.359122e+00    1.221468e-01    8.244782e+01    1.224992e-01    8.247983e+01    9.921449e-01   -7.436168e+00
   1.163000e+05   9.916474e-01   -7.420196e+00    1.231018e-01    8.235993e+01    1.236417e-01    8.239579e+01    9.921042e-01   -7.520086e+00
   1.173000e+05   9.915044e-01   -7.518022e+00    1.241084e-01    8.232391e+01    1.246957e-01    8.229181e+01    9.919602e-01   -7.563166e+00
   1.183000e+05   9.916160e-01   -7.529116e+00    1.250553e-01    8.227683e+01    1.256754e-01    8.219902e+01    9.916167e-01   -7.646102e+00
   1.193000e+05   9.913737e-01   -7.587206e+00    1.262681e-01    8.219088e+01    1.266323e-01    8.221076e+01    9.917141e-01   -7.697092e+00
   1.203000e+05   9.916097e-01   -7.690120e+00    1.272034e-01    8.213290e+01    1.277169e-01    8.209193e+01    9.909263e-01   -7.743114e+00
   1.213000e+05   9.912796e-01   -7.750052e+00    1.283076e-01    8.208076e+01    1.287812e-01    8.205595e+01    9.912766e-01   -7.800162e+00
   1.223000e+05   9.914405e-01   -7.776158e+00    1.292632e-01    8.195891e+01    1.297252e-01    8.202878e+01    9.899616e-01   -7.881202e+00
   1.233000e+05   9.907261e-01   -7.855156e+00    1.304098e-01    8.191496e+01    1.307860e-01    8.191798e+01    9.911829e-01   -7.982052e+00
   1.243000e+05   9.904366e-01   -7.933136e+00    1.313813e-01    8.189496e+01    1.318816e-01    8.190787e+01    9.911210e-01   -8.007982e+00
   1.253000e+05   9.902527e-01   -8.001008e+00    1.323891e-01    8.187272e+01    1.329850e-01    8.184192e+01    9.909343e-01   -7.999254e+00
   1.263000e+05   9.907380e-01   -8.005194e+00    1.334184e-01    8.173398e+01    1.340804e-01    8.180074e+01    9.900527e-01   -8.126106e+00
   1.273000e+05   9.907021e-01   -8.102080e+00    1.344776e-01    8.172282e+01    1.350827e-01    8.167189e+01    9.894496e-01   -8.179110e+00
   1.283000e+05   9.904105e-01   -8.142130e+00    1.354791e-01    8.163089e+01    1.360886e-01    8.161803e+01    9.898406e-01   -8.234164e+00
   1.293000e+05   9.903753e-01   -8.207212e+00    1.365704e-01    8.157571e+01    1.370905e-01    8.163474e+01    9.898079e-01   -8.316232e+00
   1.303000e+05   9.894935e-01   -8.313060e+00    1.374896e-01    8.143016e+01    1.381719e-01    8.150585e+01    9.901759e-01   -8.431906e+00
   1.313000e+05   9.897686e-01   -8.343148e+00    1.386406e-01    8.150873e+01    1.393122e-01    8.143002e+01    9.897663e-01   -8.385158e+00
   1.323000e+05   9.899910e-01   -8.417196e+00    1.397295e-01    8.137386e+01    1.402295e-01    8.143779e+01    9.888560e-01   -8.464164e+00
   1.333000e+05   9.888650e-01   -8.515086e+00    1.406672e-01    8.130186e+01    1.413652e-01    8.133478e+01    9.897727e-01   -8.546208e+00
   1.343000e+05   9.895924e-01   -8.558054e+00    1.417135e-01    8.122997e+01    1.423682e-01    8.122693e+01    9.887943e-01   -8.650114e+00
