!{R05L2R7}
!Johanson Technology Inc.
!www.johansontechnology.com
!Test Board Conditions:
!Substrate Type  RO4350B
!Substrate Thickness        10 mil
!Substrate Dk      3.66
!TL Type: GCPW 
!TL Trace Width  22 mil
!TL Gap  25 mil
!Electrode orientation      Horizontal
!DUT TOPOLOGY	SERIES
!Mounting Pad LxW         11x14.5 mil
! Created Wed Nov 25 17:33:21 2020
! 2 Port Network Data from SP1.SP block
! freq  magS11  angS11  magS21  angS21  magS12  angS12  magS22  angS22  
! 
# khz S ma R 50  
   3.000000e+02   9.994187e-01   -4.770000e-01    5.241402e-04    9.598600e+01    4.733665e-04    9.356700e+01    9.999942e-01   -4.520000e-01
   1.300000e+03   9.999738e-01   -2.210000e-01    2.224276e-03    8.914300e+01    2.204899e-03    8.937700e+01    9.999738e-01   -1.920000e-01
   2.300000e+03   9.999909e-01   -4.210000e-01    3.952742e-03    8.997800e+01    3.923273e-03    8.923900e+01    9.994268e-01   -3.960000e-01
   3.300000e+03   9.999828e-01   -5.130000e-01    5.660992e-03    8.966000e+01    5.636929e-03    8.930700e+01    9.992923e-01   -5.160000e-01
   4.300000e+03   9.999450e-01   -6.220000e-01    7.350656e-03    8.911700e+01    7.350656e-03    8.923400e+01    9.999450e-01   -6.060000e-01
   5.300000e+03   9.999564e-01   -7.240000e-01    9.051719e-03    8.929100e+01    9.100831e-03    8.910900e+01    9.993810e-01   -7.000000e-01
   6.300000e+03   9.999120e-01   -8.060000e-01    1.075132e-02    8.919400e+01    1.080841e-02    8.923500e+01    9.999120e-01   -8.100000e-01
   7.300000e+03   9.999170e-01   -9.120000e-01    1.247769e-02    8.915000e+01    1.251798e-02    8.895500e+01    9.997889e-01   -8.860000e-01
   8.300000e+03   9.998968e-01   -1.014000e+00    1.417115e-02    8.899400e+01    1.421855e-02    8.883600e+01    9.991689e-01   -9.810000e-01
   9.300000e+03   9.998714e-01   -1.127000e+00    1.588861e-02    8.880200e+01    1.592340e-02    8.887100e+01    9.993963e-01   -1.092000e+00
   1.030000e+04   9.997153e-01   -1.143000e+00    1.758871e-02    8.865700e+01    1.764753e-02    8.885000e+01    9.998281e-01   -1.130000e+00
   1.130000e+04   9.983895e-01   -1.197000e+00    1.925529e-02    8.875800e+01    1.933971e-02    8.881300e+01    9.982746e-01   -1.175000e+00
   1.230000e+04   9.980447e-01   -1.242000e+00    2.095077e-02    8.856100e+01    2.106929e-02    8.869800e+01    9.979298e-01   -1.250000e+00
   1.330000e+04   9.981596e-01   -1.342000e+00    2.262299e-02    8.849700e+01    2.281918e-02    8.872900e+01    9.977001e-01   -1.309000e+00
   1.430000e+04   9.977001e-01   -1.431000e+00    2.430804e-02    8.843700e+01    2.444556e-02    8.864700e+01    9.973555e-01   -1.431000e+00
   1.530000e+04   9.983895e-01   -1.530000e+00    2.607054e-02    8.837100e+01    2.624219e-02    8.839500e+01    9.982746e-01   -1.552000e+00
   1.630000e+04   9.982746e-01   -1.649000e+00    2.779393e-02    8.830500e+01    2.788046e-02    8.840700e+01    9.980447e-01   -1.635000e+00
   1.730000e+04   9.986194e-01   -1.762000e+00    2.948492e-02    8.807200e+01    2.963466e-02    8.821500e+01    9.982746e-01   -1.763000e+00
   1.830000e+04   9.991138e-01   -1.880000e+00    3.118172e-02    8.809200e+01    3.132564e-02    8.811700e+01    9.991808e-01   -1.886000e+00
   1.930000e+04   9.994196e-01   -2.025000e+00    3.287721e-02    8.794700e+01    3.309367e-02    8.793800e+01    9.991072e-01   -2.012000e+00
   2.030000e+04   9.993869e-01   -2.131000e+00    3.463590e-02    8.777000e+01    3.474773e-02    8.785000e+01    9.989390e-01   -2.122000e+00
   2.130000e+04   9.992471e-01   -2.256000e+00    3.634350e-02    8.772600e+01    3.646925e-02    8.773700e+01    9.992903e-01   -2.248000e+00
   2.230000e+04   9.992420e-01   -2.367000e+00    3.806055e-02    8.758500e+01    3.818784e-02    8.760000e+01    9.991119e-01   -2.366000e+00
   2.330000e+04   9.989713e-01   -2.479000e+00    3.970852e-02    8.744600e+01    3.989180e-02    8.749100e+01    9.991622e-01   -2.454000e+00
   2.430000e+04   9.990972e-01   -2.586000e+00    4.144643e-02    8.736400e+01    4.160898e-02    8.735300e+01    9.988943e-01   -2.550000e+00
   2.530000e+04   9.986281e-01   -2.649000e+00    4.314044e-02    8.722000e+01    4.329468e-02    8.737400e+01    9.990465e-01   -2.641000e+00
   2.630000e+04   9.989563e-01   -2.733000e+00    4.479298e-02    8.722000e+01    4.505158e-02    8.726000e+01    9.984590e-01   -2.718000e+00
   2.730000e+04   9.988832e-01   -2.835000e+00    4.648603e-02    8.712600e+01    4.673825e-02    8.715400e+01    9.983262e-01   -2.816000e+00
   2.830000e+04   9.987973e-01   -2.940000e+00    4.822967e-02    8.697300e+01    4.844114e-02    8.704200e+01    9.984057e-01   -2.923000e+00
   2.930000e+04   9.987306e-01   -3.033000e+00    4.995720e-02    8.688200e+01    5.013004e-02    8.693100e+01    9.980403e-01   -3.026000e+00
   3.030000e+04   9.982542e-01   -3.100000e+00    5.158710e-02    8.678600e+01    5.184312e-02    8.681800e+01    9.985990e-01   -3.090000e+00
   3.130000e+04   9.985065e-01   -3.200000e+00    5.327223e-02    8.672900e+01    5.352429e-02    8.677200e+01    9.982766e-01   -3.172000e+00
   3.230000e+04   9.984247e-01   -3.296000e+00    5.496375e-02    8.657600e+01    5.527470e-02    8.665800e+01    9.978756e-01   -3.282000e+00
   3.330000e+04   9.973334e-01   -3.353000e+00    5.671401e-02    8.656200e+01    5.692989e-02    8.659200e+01    9.983674e-01   -3.362000e+00
   3.430000e+04   9.981560e-01   -3.491094e+00    5.837292e-02    8.641791e+01    5.858163e-02    8.644889e+01    9.981555e-01   -3.484113e+00
   3.530000e+04   9.981465e-01   -3.585117e+00    6.011788e-02    8.632886e+01    6.033983e-02    8.634092e+01    9.976814e-01   -3.597107e+00
   3.630000e+04   9.978529e-01   -3.702112e+00    6.177014e-02    8.619392e+01    6.205527e-02    8.626491e+01    9.979675e-01   -3.704077e+00
   3.730000e+04   9.978519e-01   -3.814084e+00    6.348594e-02    8.611390e+01    6.379368e-02    8.617186e+01    9.977374e-01   -3.781125e+00
   3.830000e+04   9.975290e-01   -3.898111e+00    6.514580e-02    8.601292e+01    6.547676e-02    8.602693e+01    9.977581e-01   -3.906081e+00
   3.930000e+04   9.976331e-01   -4.009090e+00    6.679331e-02    8.593284e+01    6.724053e-02    8.596087e+01    9.972877e-01   -3.987094e+00
   4.030000e+04   9.976127e-01   -4.099093e+00    6.864678e-02    8.576897e+01    6.882896e-02    8.583390e+01    9.963456e-01   -4.081113e+00
   4.130000e+04   9.971698e-01   -4.192141e+00    7.032820e-02    8.573790e+01    7.067717e-02    8.573585e+01    9.973988e-01   -4.194070e+00
   4.230000e+04   9.973089e-01   -4.333111e+00    7.201778e-02    8.563586e+01    7.231702e-02    8.558890e+01    9.969651e-01   -4.264105e+00
   4.330000e+04   9.968705e-01   -4.444120e+00    7.364590e-02    8.549196e+01    7.408812e-02    8.549294e+01    9.971003e-01   -4.369115e+00
   4.430000e+04   9.965848e-01   -4.564064e+00    7.528783e-02    8.545379e+01    7.574838e-02    8.543287e+01    9.970441e-01   -4.484130e+00
   4.530000e+04   9.962819e-01   -4.628096e+00    7.708877e-02    8.524799e+01    7.731122e-02    8.530287e+01    9.969701e-01   -4.614093e+00
   4.630000e+04   9.963015e-01   -4.724120e+00    7.865934e-02    8.523395e+01    7.914072e-02    8.517598e+01    9.967598e-01   -4.707048e+00
   4.730000e+04   9.965705e-01   -4.844087e+00    8.040208e-02    8.518076e+01    8.083823e-02    8.515383e+01    9.964552e-01   -4.755202e+00
   4.830000e+04   9.965392e-01   -4.931088e+00    8.211139e-02    8.494302e+01    8.247154e-02    8.498194e+01    9.958519e-01   -4.957055e+00
   4.930000e+04   9.960643e-01   -5.019144e+00    8.378113e-02    8.496280e+01    8.428410e-02    8.492692e+01    9.962931e-01   -5.012101e+00
   5.030000e+04   9.962127e-01   -5.163095e+00    8.549900e-02    8.476694e+01    8.590346e-02    8.484481e+01    9.958681e-01   -5.113163e+00
   5.130000e+04   9.961325e-01   -5.258159e+00    8.726214e-02    8.470482e+01    8.759421e-02    8.465792e+01    9.952166e-01   -5.276067e+00
   5.230000e+04   9.957074e-01   -5.417076e+00    8.897935e-02    8.452695e+01    8.922583e-02    8.457584e+01    9.959362e-01   -5.343107e+00
   5.330000e+04   9.956650e-01   -5.493083e+00    9.051526e-02    8.447299e+01    9.104818e-02    8.441901e+01    9.954364e-01   -5.450058e+00
   5.430000e+04   9.952625e-01   -5.576147e+00    9.225618e-02    8.446275e+01    9.269276e-02    8.443178e+01    9.956064e-01   -5.508138e+00
   5.530000e+04   9.949430e-01   -5.723092e+00    9.388716e-02    8.421392e+01    9.440747e-02    8.421596e+01    9.954010e-01   -5.646119e+00
   5.630000e+04   9.949544e-01   -5.815058e+00    9.562278e-02    8.413191e+01    9.618564e-02    8.417195e+01    9.951839e-01   -5.765104e+00
   5.730000e+04   9.946029e-01   -5.873115e+00    9.738838e-02    8.404287e+01    9.771409e-02    8.411978e+01    9.951751e-01   -5.869136e+00
   5.830000e+04   9.948183e-01   -5.988157e+00    9.907200e-02    8.391183e+01    9.941494e-02    8.389589e+01    9.948186e-01   -6.005091e+00
   5.930000e+04   9.944324e-01   -6.145057e+00    1.006659e-01    8.374497e+01    1.011771e-01    8.378391e+01    9.946609e-01   -6.096074e+00
   6.030000e+04   9.945134e-01   -6.202119e+00    1.022747e-01    8.371086e+01    1.028294e-01    8.369186e+01    9.941704e-01   -6.170162e+00
   6.130000e+04   9.942111e-01   -6.321157e+00    1.040483e-01    8.356692e+01    1.044205e-01    8.355386e+01    9.943248e-01   -6.332029e+00
   6.230000e+04   9.942124e-01   -6.478024e+00    1.056177e-01    8.348693e+01    1.061784e-01    8.341295e+01    9.935265e-01   -6.361178e+00
   6.330000e+04   9.939628e-01   -6.502066e+00    1.074181e-01    8.341892e+01    1.078641e-01    8.336597e+01    9.938479e-01   -6.539036e+00
   6.430000e+04   9.939177e-01   -6.568162e+00    1.092588e-01    8.333982e+01    1.095488e-01    8.333887e+01    9.933462e-01   -6.575144e+00
   6.530000e+04   9.935147e-01   -6.730112e+00    1.107341e-01    8.315601e+01    1.113347e-01    8.320582e+01    9.934005e-01   -6.719077e+00
   6.630000e+04   9.932836e-01   -6.842079e+00    1.125198e-01    8.316585e+01    1.129614e-01    8.302802e+01    9.933977e-01   -6.796062e+00
   6.730000e+04   9.931569e-01   -6.921151e+00    1.140183e-01    8.302091e+01    1.147028e-01    8.304283e+01    9.929287e-01   -6.858122e+00
   6.830000e+04   9.927892e-01   -7.072027e+00    1.157347e-01    8.293388e+01    1.163090e-01    8.287391e+01    9.930181e-01   -6.980086e+00
   6.930000e+04   9.923221e-01   -7.099169e+00    1.174650e-01    8.281083e+01    1.179123e-01    8.278189e+01    9.928934e-01   -7.066157e+00
   7.030000e+04   9.921943e-01   -7.268061e+00    1.190565e-01    8.263998e+01    1.196473e-01    8.267193e+01    9.926510e-01   -7.223066e+00
   7.130000e+04   9.922800e-01   -7.329059e+00    1.208204e-01    8.261488e+01    1.213083e-01    8.260188e+01    9.923939e-01   -7.289136e+00
   7.230000e+04   9.921721e-01   -7.388121e+00    1.224596e-01    8.249096e+01    1.230108e-01    8.247792e+01    9.919437e-01   -7.425071e+00
   7.330000e+04   9.919364e-01   -7.509089e+00    1.240765e-01    8.244989e+01    1.247784e-01    8.239588e+01    9.917078e-01   -7.496100e+00
   7.430000e+04   9.918138e-01   -7.598151e+00    1.257004e-01    8.234180e+01    1.263240e-01    8.227394e+01    9.913578e-01   -7.596104e+00
   7.530000e+04   9.914381e-01   -7.749122e+00    1.275180e-01    8.213899e+01    1.279445e-01    8.221483e+01    9.915522e-01   -7.700077e+00
   7.630000e+04   9.912041e-01   -7.871028e+00    1.291870e-01    8.213084e+01    1.296787e-01    8.204095e+01    9.913186e-01   -7.777099e+00
   7.730000e+04   9.906222e-01   -7.899114e+00    1.308620e-01    8.197098e+01    1.312846e-01    8.199490e+01    9.911922e-01   -7.876113e+00
   7.830000e+04   9.907287e-01   -8.013110e+00    1.325593e-01    8.194879e+01    1.329874e-01    8.189497e+01    9.909565e-01   -7.989099e+00
   7.930000e+04   9.906410e-01   -8.123052e+00    1.342059e-01    8.173701e+01    1.347013e-01    8.186880e+01    9.905279e-01   -8.088098e+00
   8.030000e+04   9.897488e-01   -8.175111e+00    1.357627e-01    8.175086e+01    1.363265e-01    8.167393e+01    9.905459e-01   -8.186084e+00
   8.130000e+04   9.901229e-01   -8.286101e+00    1.374974e-01    8.160895e+01    1.380526e-01    8.160693e+01    9.900101e-01   -8.270086e+00
   8.230000e+04   9.890999e-01   -8.387094e+00    1.390577e-01    8.156285e+01    1.396516e-01    8.153287e+01    9.901246e-01   -8.356133e+00
   8.330000e+04   9.893194e-01   -8.481105e+00    1.406831e-01    8.141790e+01    1.414789e-01    8.140390e+01    9.896611e-01   -8.489114e+00
   8.430000e+04   9.891428e-01   -8.586144e+00    1.424342e-01    8.132086e+01    1.430916e-01    8.130086e+01    9.894846e-01   -8.603065e+00
   8.530000e+04   9.887817e-01   -8.730078e+00    1.440972e-01    8.118596e+01    1.447291e-01    8.116291e+01    9.892379e-01   -8.668065e+00
   8.630000e+04   9.878605e-01   -8.808140e+00    1.456634e-01    8.114488e+01    1.463862e-01    8.106890e+01    9.891113e-01   -8.733155e+00
   8.730000e+04   9.885116e-01   -8.948068e+00    1.474134e-01    8.102492e+01    1.480426e-01    8.097192e+01    9.887402e-01   -8.888068e+00
   8.830000e+04   9.875300e-01   -9.016111e+00    1.490236e-01    8.093984e+01    1.495910e-01    8.089192e+01    9.886669e-01   -8.956117e+00
   8.930000e+04   9.877854e-01   -9.127062e+00    1.506666e-01    8.077995e+01    1.513969e-01    8.080888e+01    9.882384e-01   -9.073078e+00
   9.030000e+04   9.881368e-01   -9.189133e+00    1.522902e-01    8.073286e+01    1.529756e-01    8.068688e+01    9.866598e-01   -9.151141e+00
   9.130000e+04   9.877600e-01   -9.322096e+00    1.539772e-01    8.058893e+01    1.547234e-01    8.056989e+01    9.870789e-01   -9.292069e+00
   9.230000e+04   9.870761e-01   -9.418059e+00    1.556520e-01    8.051493e+01    1.562628e-01    8.045994e+01    9.873021e-01   -9.361109e+00
   9.330000e+04   9.872792e-01   -9.477170e+00    1.571791e-01    8.044083e+01    1.580682e-01    8.039882e+01    9.861440e-01   -9.470117e+00
   9.430000e+04   9.868166e-01   -9.647096e+00    1.588331e-01    8.026892e+01    1.596581e-01    8.022197e+01    9.864755e-01   -9.587048e+00
   9.530000e+04   9.866731e-01   -9.743053e+00    1.604643e-01    8.018991e+01    1.612975e-01    8.019287e+01    9.859924e-01   -9.635132e+00
   9.630000e+04   9.862675e-01   -9.796124e+00    1.622556e-01    8.010488e+01    1.628544e-01    8.006591e+01    9.861543e-01   -9.767099e+00
   9.730000e+04   9.858156e-01   -9.920078e+00    1.639834e-01    7.997994e+01    1.645698e-01    7.997985e+01    9.860432e-01   -9.866102e+00
   9.830000e+04   9.851041e-01   -9.998092e+00    1.654766e-01    7.991587e+01    1.661064e-01    7.983295e+01    9.858981e-01   -9.968103e+00
   9.930000e+04   9.850352e-01   -1.009016e+01    1.671499e-01    7.978192e+01    1.677090e-01    7.978690e+01    9.856021e-01   -1.007106e+01
   1.003000e+05   9.849183e-01   -1.024518e+01    1.687948e-01    7.970377e+01    1.694762e-01    7.968374e+01    9.851456e-01   -1.013226e+01
   1.013000e+05   9.845338e-01   -1.033409e+01    1.704467e-01    7.958683e+01    1.710565e-01    7.955180e+01    9.849852e-01   -1.026022e+01
   1.023000e+05   9.846470e-01   -1.037925e+01    1.720440e-01    7.950388e+01    1.728179e-01    7.945280e+01    9.840810e-01   -1.037112e+01
   1.033000e+05   9.843068e-01   -1.050517e+01    1.737357e-01    7.944273e+01    1.743970e-01    7.935282e+01    9.840815e-01   -1.043226e+01
   1.043000e+05   9.836435e-01   -1.059124e+01    1.753258e-01    7.930567e+01    1.759729e-01    7.926483e+01    9.840948e-01   -1.056227e+01
   1.053000e+05   9.837979e-01   -1.071017e+01    1.769760e-01    7.914294e+01    1.776293e-01    7.917877e+01    9.833472e-01   -1.069610e+01
   1.063000e+05   9.828664e-01   -1.079318e+01    1.785262e-01    7.911375e+01    1.792267e-01    7.906388e+01    9.835449e-01   -1.074518e+01
   1.073000e+05   9.827515e-01   -1.088423e+01    1.800330e-01    7.898876e+01    1.809053e-01    7.900167e+01    9.830891e-01   -1.083525e+01
   1.083000e+05   9.828412e-01   -1.099716e+01    1.817782e-01    7.887090e+01    1.825122e-01    7.883482e+01    9.822763e-01   -1.096117e+01
   1.093000e+05   9.824377e-01   -1.107629e+01    1.834898e-01    7.882276e+01    1.842097e-01    7.874276e+01    9.822101e-01   -1.104725e+01
   1.103000e+05   9.823471e-01   -1.122018e+01    1.849367e-01    7.870078e+01    1.857686e-01    7.862378e+01    9.814445e-01   -1.117123e+01
   1.113000e+05   9.817767e-01   -1.131222e+01    1.865827e-01    7.858880e+01    1.872495e-01    7.851183e+01    9.817767e-01   -1.128511e+01
   1.123000e+05   9.814497e-01   -1.142017e+01    1.883760e-01    7.848980e+01    1.889193e-01    7.842885e+01    9.814484e-01   -1.134125e+01
   1.133000e+05   9.813550e-01   -1.150317e+01    1.899694e-01    7.838980e+01    1.907145e-01    7.835380e+01    9.806791e-01   -1.146617e+01
   1.143000e+05   9.806318e-01   -1.158725e+01    1.914538e-01    7.828878e+01    1.922488e-01    7.825582e+01    9.808571e-01   -1.155020e+01
   1.153000e+05   9.804643e-01   -1.171017e+01    1.931699e-01    7.817775e+01    1.939052e-01    7.816589e+01    9.804648e-01   -1.164825e+01
   1.163000e+05   9.800515e-01   -1.179518e+01    1.947855e-01    7.805090e+01    1.955268e-01    7.811176e+01    9.802783e-01   -1.177214e+01
   1.173000e+05   9.793505e-01   -1.188618e+01    1.963564e-01    7.799887e+01    1.970360e-01    7.799266e+01    9.801394e-01   -1.184022e+01
   1.183000e+05   9.791894e-01   -1.197621e+01    1.978678e-01    7.793166e+01    1.986890e-01    7.782492e+01    9.796402e-01   -1.194821e+01
   1.193000e+05   9.789778e-01   -1.208222e+01    1.997463e-01    7.776387e+01    2.002995e-01    7.778474e+01    9.793140e-01   -1.205215e+01
   1.203000e+05   9.790293e-01   -1.219122e+01    2.010962e-01    7.769772e+01    2.019308e-01    7.765587e+01    9.783544e-01   -1.212916e+01
   1.213000e+05   9.785397e-01   -1.230012e+01    2.028780e-01    7.755784e+01    2.034160e-01    7.759083e+01    9.784252e-01   -1.221123e+01
   1.223000e+05   9.784884e-01   -1.236019e+01    2.043682e-01    7.747869e+01    2.049807e-01    7.750473e+01    9.774773e-01   -1.232430e+01
   1.233000e+05   9.777028e-01   -1.245622e+01    2.059983e-01    7.732595e+01    2.065453e-01    7.736888e+01    9.778165e-01   -1.247310e+01
   1.243000e+05   9.770005e-01   -1.256624e+01    2.074685e-01    7.730083e+01    2.084017e-01    7.731084e+01    9.776766e-01   -1.252116e+01
   1.253000e+05   9.764222e-01   -1.268811e+01    2.090952e-01    7.721677e+01    2.098188e-01    7.723079e+01    9.775439e-01   -1.260226e+01
   1.263000e+05   9.769425e-01   -1.274520e+01    2.107296e-01    7.710181e+01    2.115801e-01    7.712577e+01    9.764911e-01   -1.273118e+01
   1.273000e+05   9.768126e-01   -1.284522e+01    2.123087e-01    7.700581e+01    2.129946e-01    7.701276e+01    9.755779e-01   -1.281919e+01
   1.283000e+05   9.762064e-01   -1.295318e+01    2.137710e-01    7.690974e+01    2.146585e-01    7.689191e+01    9.757563e-01   -1.291216e+01
   1.293000e+05   9.759766e-01   -1.304126e+01    2.154500e-01    7.677879e+01    2.161960e-01    7.684663e+01    9.751933e-01   -1.299326e+01
   1.303000e+05   9.747848e-01   -1.316914e+01    2.169282e-01    7.667506e+01    2.179792e-01    7.666282e+01    9.754584e-01   -1.312402e+01
   1.313000e+05   9.745059e-01   -1.324022e+01    2.186707e-01    7.670263e+01    2.195030e-01    7.657298e+01    9.751768e-01   -1.313525e+01
   1.323000e+05   9.748557e-01   -1.335124e+01    2.202656e-01    7.651972e+01    2.210791e-01    7.656472e+01    9.742967e-01   -1.326224e+01
   1.333000e+05   9.738955e-01   -1.347317e+01    2.216759e-01    7.637988e+01    2.227246e-01    7.642367e+01    9.743425e-01   -1.338323e+01
   1.343000e+05   9.739119e-01   -1.355708e+01    2.232418e-01    7.631789e+01    2.242469e-01    7.625902e+01    9.735742e-01   -1.349617e+01
