! P/N: 250R05L0R2AV4								
! Measured by Marlon								
! Oct. 29, 2003								
#	mhz	s	ma	r	50
0	0.00000	-90.00000	0.99999	0.00000	0.99999	0.00000	0.00000	-90.00000			
50	0.00589	-105.02175	0.99841	-0.75309	0.99841	-0.75309	0.00589	-105.02175
70	0.00606	-129.12098	0.99999	-0.59346	0.99999	-0.59346	0.00606	-129.12098
90	0.00606	-130.36884	0.99999	-0.99663	0.99999	-0.99663	0.00606	-130.36884
110	0.00574	-129.30333	0.99999	-1.35628	0.99999	-1.35628	0.00574	-129.30333
130	0.00533	-131.52935	0.99999	-1.45163	0.99999	-1.45163	0.00533	-131.52935
150	0.00538	-127.71871	0.99999	-1.4474	0.99999	-1.4474	0.00538	-127.71871
170	0.00623	-122.98841	0.99999	-1.66333	0.99999	-1.66333	0.00623	-122.98841
190	0.0085	-117.70567	0.99999	-2.03482	0.99999	-2.03482	0.0085	-117.70567
210	0.01034	-114.64721	0.99999	-2.33228	0.99999	-2.33228	0.01034	-114.64721
230	0.01107	-110.62617	0.99999	-2.5076	0.99999	-2.5076	0.01107	-110.62617
250	0.01113	-96.49206	0.99999	-2.6942	0.99999	-2.6942	0.01113	-96.49206
270	0.01222	-86.24364	0.99999	-2.80839	0.99999	-2.80839	0.01222	-86.24364
290	0.01233	-79.9789	0.99999	-3.05704	0.99999	-3.05704	0.01233	-79.9789
310	0.01156	-75.21135	0.99999	-3.30838	0.99999	-3.30838	0.01156	-75.21135
330	0.0100	-71.69273	0.99999	-3.47984	0.99999	-3.47984	0.0100	-71.69273
350	0.00767	-71.41298	0.99999	-3.53805	0.99999	-3.53805	0.00767	-71.41298
370	0.0073	-81.48619	0.99999	-3.72538	0.99999	-3.72538	0.0073	-81.48619
390	0.00767	-101.07141	0.99999	-3.89134	0.99999	-3.89134	0.00767	-101.07141
410	0.00887	-116.91475	0.99999	-4.07608	0.99999	-4.07608	0.00887	-116.91475
430	0.01085	-123.32917	0.99999	-4.30572	0.99999	-4.30572	0.01085	-123.32917
450	0.01342	-122.19446	0.99999	-4.59227	0.99999	-4.59227	0.01342	-122.19446
470	0.0166	-116.21582	0.99999	-4.85105	0.99999	-4.85105	0.0166	-116.21582
490	0.0159	-121.04788	0.99999	-4.98775	0.99999	-4.98775	0.0159	-121.04788
510	0.01554	-121.82219	0.99999	-5.15962	0.99999	-5.15962	0.01554	-121.82219
530	0.01675	-114.80408	0.99999	-5.40382	0.99999	-5.40382	0.01675	-114.80408
550	0.01777	-107.39272	0.99999	-5.63738	0.99999	-5.63738	0.01777	-107.39272
570	0.01857	-102.37759	0.99999	-5.82637	0.99999	-5.82637	0.01857	-102.37759
590	0.01916	-99.27984	0.99999	-6.05122	0.99999	-6.05122	0.01916	-99.27984
610	0.01928	-96.65243	0.99999	-6.26671	0.99999	-6.26671	0.01928	-96.65243
630	0.01904	-94.03333	0.99999	-6.45963	0.99999	-6.45963	0.01904	-94.03333
650	0.01899	-91.94548	0.99999	-6.64871	0.99999	-6.64871	0.01899	-91.94548
670	0.02024	-90.9633	0.99999	-6.85203	0.99999	-6.85203	0.02024	-90.9633
690	0.02063	-89.53258	0.99999	-7.11334	0.99999	-7.11334	0.02063	-89.53258
710	0.02111	-87.87554	0.99999	-7.27335	0.99999	-7.27335	0.02111	-87.87554
730	0.02191	-85.68446	0.99999	-7.3422	0.99999	-7.3422	0.02191	-85.68446
750	0.02249	-82.12171	0.99999	-7.49945	0.99999	-7.49945	0.02249	-82.12171
770	0.02243	-81.22343	0.99999	-7.77412	0.99999	-7.77412	0.02243	-81.22343
790	0.02189	-80.96222	0.99999	-7.97888	0.99999	-7.97888	0.02189	-80.96222
810	0.02128	-80.34306	0.99999	-8.17212	0.99999	-8.17212	0.02128	-80.34306
830	0.02084	-79.66123	0.99999	-8.40682	0.99999	-8.40682	0.02084	-79.66123
850	0.02056	-80.50228	0.99999	-8.73051	0.99999	-8.73051	0.02056	-80.50228
870	0.0213	-83.67392	0.99999	-8.75425	0.99999	-8.75425	0.0213	-83.67392
890	0.02157	-84.89469	0.99999	-8.94916	0.99999	-8.94916	0.02157	-84.89469
910	0.02189	-84.39295	0.99999	-9.19194	0.99999	-9.19194	0.02189	-84.39295
930	0.02231	-83.06182	0.99999	-9.40502	0.99999	-9.40502	0.02231	-83.06182
950	0.02246	-82.45921	0.99999	-9.55657	0.99999	-9.55657	0.02246	-82.45921
970	0.02189	-83.2057	0.99983	-9.61009	0.99983	-9.61009	0.02189	-83.2057
990	0.02111	-86.23804	0.99999	-9.92757	0.99999	-9.92757	0.02111	-86.23804
1010	0.02081	-90.20704	0.99999	-10.18174	0.99999	-10.18174	0.02081	-90.20704
1030	0.0213	-94.72362	0.99999	-10.2975	0.99999	-10.2975	0.0213	-94.72362
1050	0.02252	-100.35887	0.99999	-10.45188	0.99999	-10.45188	0.02252	-100.35887
1070	0.02506	-103.35606	0.99999	-10.72501	0.99999	-10.72501	0.02506	-103.35606
1090	0.02762	-104.15195	0.99993	-10.94027	0.99993	-10.94027	0.02762	-104.15195
1110	0.03024	-103.15654	0.99999	-11.10913	0.99999	-11.10913	0.03024	-103.15654
1130	0.03273	-101.04723	0.99999	-11.29796	0.99999	-11.29796	0.03273	-101.04723
1150	0.03461	-98.76873	0.99999	-11.62801	0.99999	-11.62801	0.03461	-98.76873
1170	0.03537	-97.19574	0.99999	-11.7786	0.99999	-11.7786	0.03537	-97.19574
1190	0.03576	-95.34649	0.99999	-12.01581	0.99999	-12.01581	0.03576	-95.34649
1210	0.03645	-94.50913	0.99999	-12.27835	0.99999	-12.27835	0.03645	-94.50913
1230	0.03743	-94.69619	0.99999	-12.46579	0.99999	-12.46579	0.03743	-94.69619
1250	0.03811	-94.64458	0.99999	-12.43861	0.99999	-12.43861	0.03811	-94.64458
1270	0.04002	-94.49854	0.99999	-12.69996	0.99999	-12.69996	0.04002	-94.49854
1290	0.04203	-93.41814	0.99999	-13.0551	0.99999	-13.0551	0.04203	-93.41814
1310	0.0437	-91.76248	0.99999	-13.29878	0.99999	-13.29878	0.0437	-91.76248
1330	0.04472	-89.74718	0.99999	-13.41891	0.99999	-13.41891	0.04472	-89.74718
1350	0.04491	-87.44428	0.99999	-13.5965	0.99999	-13.5965	0.04491	-87.44428
1370	0.04409	-84.74672	0.99999	-13.56561	0.99999	-13.56561	0.04409	-84.74672
1390	0.04317	-83.1783	0.99999	-13.91691	0.99999	-13.91691	0.04317	-83.1783
1410	0.04188	-82.86744	0.99999	-14.26985	0.99999	-14.26985	0.04188	-82.86744
1430	0.04036	-83.9423	0.99965	-14.48995	0.99965	-14.48995	0.04036	-83.9423
1450	0.03921	-86.53076	0.99999	-14.68879	0.99999	-14.68879	0.03921	-86.53076
1470	0.03894	-88.19066	0.99824	-14.75852	0.99824	-14.75852	0.03894	-88.19066
1490	0.03992	-89.74901	0.99957	-14.8772	0.99957	-14.8772	0.03992	-89.74901
1510	0.04096	-91.01502	0.99999	-15.10632	0.99999	-15.10632	0.04096	-91.01502
1530	0.04153	-91.67641	0.99999	-15.40425	0.99999	-15.40425	0.04153	-91.67641
1550	0.04172	-91.29945	0.99999	-15.62623	0.99999	-15.62623	0.04172	-91.29945
1570	0.04134	-91.36844	0.99999	-15.90632	0.99999	-15.90632	0.04134	-91.36844
1590	0.04079	-92.22982	0.99947	-16.05825	0.99947	-16.05825	0.04079	-92.22982
1610	0.04051	-94.65406	0.99934	-16.31797	0.99934	-16.31797	0.04051	-94.65406
1630	0.04081	-98.28505	0.99999	-16.62057	0.99999	-16.62057	0.04081	-98.28505
1650	0.04187	-101.6401	0.99999	-16.60032	0.99999	-16.60032	0.04187	-101.6401
1670	0.04478	-103.38276	0.99999	-16.653	0.99999	-16.653	0.04478	-103.38276
1690	0.04762	-104.19434	0.99999	-17.06263	0.99999	-17.06263	0.04762	-104.19434
1710	0.0501	-103.78448	0.99999	-17.38711	0.99999	-17.38711	0.0501	-103.78448
1730	0.05204	-102.48656	0.99999	-17.57648	0.99999	-17.57648	0.05204	-102.48656
1750	0.05333	-101.25768	0.99999	-17.97291	0.99999	-17.97291	0.05333	-101.25768
1770	0.05353	-100.70616	0.99983	-18.01731	0.99983	-18.01731	0.05353	-100.70616
1790	0.05377	-100.70836	0.99955	-18.16113	0.99955	-18.16113	0.05377	-100.70836
1810	0.05389	-101.62671	0.9999	-18.31645	0.9999	-18.31645	0.05389	-101.62671
1830	0.05435	-103.22553	0.99999	-18.49393	0.99999	-18.49393	0.05435	-103.22553
1850	0.05629	-104.67103	0.99999	-18.80279	0.99999	-18.80279	0.05629	-104.67103
1870	0.05887	-104.83089	0.99999	-18.9316	0.99999	-18.9316	0.05887	-104.83089
1890	0.0611	-104.21042	0.99999	-19.03591	0.99999	-19.03591	0.0611	-104.21042
1910	0.06297	-103.1364	0.99999	-19.21646	0.99999	-19.21646	0.06297	-103.1364
1930	0.06439	-101.68174	0.9998	-19.46605	0.9998	-19.46605	0.06439	-101.68174
1950	0.06509	-99.66546	0.99999	-19.66954	0.99999	-19.66954	0.06509	-99.66546
1970	0.06459	-98.61822	0.99999	-19.92063	0.99999	-19.92063	0.06459	-98.61822
1990	0.06369	-97.91499	0.99999	-20.02777	0.99999	-20.02777	0.06369	-97.91499
2010	0.06257	-97.96181	0.99999	-20.12691	0.99999	-20.12691	0.06257	-97.96181
2030	0.06151	-98.81264	0.99959	-20.36051	0.99959	-20.36051	0.06151	-98.81264
2050	0.06089	-100.16935	0.99815	-20.87753	0.99815	-20.87753	0.06089	-100.16935
2070	0.06178	-101.64646	0.99901	-21.12271	0.99901	-21.12271	0.06178	-101.64646
2090	0.06266	-102.45163	0.99999	-21.11121	0.99999	-21.11121	0.06266	-102.45163
2110	0.06356	-102.71295	0.99999	-21.26388	0.99999	-21.26388	0.06356	-102.71295
2130	0.06435	-102.61871	0.99759	-21.60748	0.99759	-21.60748	0.06435	-102.61871
2150	0.06475	-102.41751	0.99938	-21.77477	0.99938	-21.77477	0.06475	-102.41751
2170	0.06501	-102.32934	0.99914	-21.8239	0.99914	-21.8239	0.06501	-102.32934
2190	0.0641	-102.53145	0.99999	-22.12525	0.99999	-22.12525	0.0641	-102.53145
2210	0.06313	-103.44737	0.99999	-22.40414	0.99999	-22.40414	0.06313	-103.44737
2230	0.06278	-105.09498	0.99985	-22.62619	0.99985	-22.62619	0.06278	-105.09498
2250	0.06325	-107.08647	0.99812	-22.99732	0.99812	-22.99732	0.06325	-107.08647
2270	0.06374	-108.82077	0.99801	-23.03963	0.99801	-23.03963	0.06374	-108.82077
2290	0.0652	-110.33678	0.99673	-23.24256	0.99673	-23.24256	0.0652	-110.33678
2310	0.06735	-111.34763	0.99702	-23.49236	0.99702	-23.49236	0.06735	-111.34763
2330	0.06978	-111.77261	0.99833	-23.75099	0.99833	-23.75099	0.06978	-111.77261
2350	0.0720	-111.73715	0.99676	-24.05618	0.99676	-24.05618	0.0720	-111.73715
2370	0.07277	-111.54425	0.99517	-24.0509	0.99517	-24.0509	0.07277	-111.54425
2390	0.0736	-111.66149	0.99424	-24.25895	0.99424	-24.25895	0.0736	-111.66149
2410	0.07432	-112.07118	0.99466	-24.47064	0.99466	-24.47064	0.07432	-112.07118
2430	0.07494	-112.82423	0.99445	-24.65638	0.99445	-24.65638	0.07494	-112.82423
2450	0.07567	-114.04021	0.98886	-24.96669	0.98886	-24.96669	0.07567	-114.04021
2470	0.07662	-114.78816	0.99107	-25.23277	0.99107	-25.23277	0.07662	-114.78816
2490	0.07863	-115.47053	0.99571	-25.3745	0.99571	-25.3745	0.07863	-115.47053
2510	0.08108	-115.82475	0.99999	-25.5255	0.99999	-25.5255	0.08108	-115.82475
2530	0.08328	-115.65666	0.99999	-25.72996	0.99999	-25.72996	0.08328	-115.65666
2550	0.08447	-114.84056	0.9963	-25.94264	0.9963	-25.94264	0.08447	-114.84056
2570	0.08531	-114.37352	0.99924	-26.15655	0.99924	-26.15655	0.08531	-114.37352
2590	0.08512	-113.91166	0.99735	-26.26564	0.99735	-26.26564	0.08512	-113.91166
2610	0.0842	-114.28577	0.99512	-26.52089	0.99512	-26.52089	0.0842	-114.28577
2630	0.08323	-115.25691	0.99319	-26.81605	0.99319	-26.81605	0.08323	-115.25691
2650	0.08324	-115.5164	0.98838	-26.68768	0.98838	-26.68768	0.08324	-115.5164
2670	0.08401	-116.90139	0.99351	-27.27442	0.99351	-27.27442	0.08401	-116.90139
2690	0.08541	-117.71633	0.99658	-27.46754	0.99658	-27.46754	0.08541	-117.71633
2710	0.08686	-118.31477	0.99546	-27.58551	0.99546	-27.58551	0.08686	-118.31477
2730	0.08826	-118.57366	0.99257	-27.75387	0.99257	-27.75387	0.08826	-118.57366
2750	0.0900	-117.89336	0.99486	-27.90531	0.99486	-27.90531	0.0900	-117.89336
2770	0.08983	-117.46132	0.99464	-28.207	0.99464	-28.207	0.08983	-117.46132
2790	0.0894	-117.24086	0.99307	-28.47384	0.99307	-28.47384	0.0894	-117.24086
2810	0.08867	-117.25538	0.99269	-28.7996	0.99269	-28.7996	0.08867	-117.25538
2830	0.08776	-117.85448	0.99422	-29.06169	0.99422	-29.06169	0.08776	-117.85448
2850	0.08693	-119.71401	0.99661	-28.92117	0.99661	-28.92117	0.08693	-119.71401
2870	0.08759	-121.1232	0.99557	-29.20674	0.99557	-29.20674	0.08759	-121.1232
2890	0.08932	-122.38158	0.99661	-29.45969	0.99661	-29.45969	0.08932	-122.38158
2910	0.09173	-123.06573	0.99557	-29.7301	0.99557	-29.7301	0.09173	-123.06573
2930	0.09338	-122.94977	0.99299	-29.96394	0.99299	-29.96394	0.09338	-122.94977
2950	0.09177	-122.00538	0.99411	-30.00297	0.99411	-30.00297	0.09177	-122.00538
2970	0.09428	-123.06392	0.99252	-30.24857	0.99252	-30.24857	0.09428	-123.06392
2990	0.09457	-123.27791	0.98839	-30.61136	0.98839	-30.61136	0.09457	-123.27791
3010	0.09453	-123.60818	0.98926	-30.76732	0.98926	-30.76732	0.09453	-123.60818
3030	0.09503	-124.66875	0.99409	-30.74606	0.99409	-30.74606	0.09503	-124.66875
3050	0.0959	-126.72677	0.99324	-30.93085	0.99324	-30.93085	0.0959	-126.72677
3070	0.09721	-127.70823	0.99247	-31.35294	0.99247	-31.35294	0.09721	-127.70823
3090	0.10019	-128.12663	0.99153	-31.64803	0.99153	-31.64803	0.10019	-128.12663
3110	0.10296	-128.12205	0.99211	-31.80286	0.99211	-31.80286	0.10296	-128.12205
3130	0.10488	-127.77133	0.99309	-31.92713	0.99309	-31.92713	0.10488	-127.77133
3150	0.1066	-127.08805	0.99055	-32.25349	0.99055	-32.25349	0.1066	-127.08805
3170	0.10694	-126.63447	0.99321	-32.12691	0.99321	-32.12691	0.10694	-126.63447
3190	0.10676	-126.17474	0.99142	-32.32009	0.99142	-32.32009	0.10676	-126.17474
3210	0.1063	-126.32385	0.99045	-32.58625	0.99045	-32.58625	0.1063	-126.32385
3230	0.10556	-127.30984	0.99117	-32.79655	0.99117	-32.79655	0.10556	-127.30984
3250	0.10437	-128.97379	0.99007	-32.94013	0.99007	-32.94013	0.10437	-128.97379
3270	0.10698	-130.05978	0.99431	-33.38105	0.99431	-33.38105	0.10698	-130.05978
3290	0.1092	-130.53587	0.99288	-33.58414	0.99288	-33.58414	0.1092	-130.53587
3310	0.11116	-130.81341	0.99174	-33.77603	0.99174	-33.77603	0.11116	-130.81341
3330	0.11285	-130.96231	0.99174	-33.98233	0.99174	-33.98233	0.11285	-130.96231
3350	0.11412	-130.71098	0.98862	-34.02756	0.98862	-34.02756	0.11412	-130.71098
3370	0.11476	-130.176	0.98912	-34.19917	0.98912	-34.19917	0.11476	-130.176
3390	0.11433	-130.33174	0.99084	-34.40254	0.99084	-34.40254	0.11433	-130.33174
3410	0.11488	-131.11933	0.99221	-34.72953	0.99221	-34.72953	0.11488	-131.11933
3430	0.11602	-132.12954	0.99144	-35.12707	0.99144	-35.12707	0.11602	-132.12954
3450	0.11492	-132.60275	0.98648	-35.39715	0.98648	-35.39715	0.11492	-132.60275
3470	0.11641	-133.17791	0.99322	-35.42851	0.99322	-35.42851	0.11641	-133.17791
3490	0.1177	-133.74081	0.99339	-35.60652	0.99339	-35.60652	0.1177	-133.74081
3510	0.11914	-134.04032	0.98923	-35.84674	0.98923	-35.84674	0.11914	-134.04032
3530	0.1207	-134.08911	0.98534	-36.04015	0.98534	-36.04015	0.1207	-134.08911
3550	0.12196	-134.16359	0.98864	-36.05312	0.98864	-36.05312	0.12196	-134.16359
3570	0.12291	-134.30261	0.98909	-36.34453	0.98909	-36.34453	0.12291	-134.30261
3590	0.12317	-134.26372	0.98957	-36.61533	0.98957	-36.61533	0.12317	-134.26372
3610	0.12392	-134.22121	0.9894	-36.92918	0.9894	-36.92918	0.12392	-134.22121
3630	0.12509	-134.38241	0.98939	-37.24791	0.98939	-37.24791	0.12509	-134.38241
3650	0.12536	-134.98767	0.99188	-37.43155	0.99188	-37.43155	0.12536	-134.98767
3670	0.12543	-135.23999	0.99055	-37.61879	0.99055	-37.61879	0.12543	-135.23999
3690	0.12635	-135.55803	0.98927	-37.989	0.98927	-37.989	0.12635	-135.55803
3710	0.12744	-135.82462	0.98859	-38.17199	0.98859	-38.17199	0.12744	-135.82462
3730	0.1285	-135.9585	0.98931	-38.13966	0.98931	-38.13966	0.1285	-135.9585
3750	0.12983	-135.91429	0.99251	-38.20611	0.99251	-38.20611	0.12983	-135.91429
3770	0.13026	-135.92451	0.99163	-38.46418	0.99163	-38.46418	0.13026	-135.92451
3790	0.12982	-135.92673	0.9905	-38.53106	0.9905	-38.53106	0.12982	-135.92673
3810	0.12954	-136.23962	0.98976	-38.74135	0.98976	-38.74135	0.12954	-136.23962
3830	0.12967	-136.79814	0.98924	-39.13206	0.98924	-39.13206	0.12967	-136.79814
3850	0.12964	-137.15357	0.98801	-39.44257	0.98801	-39.44257	0.12964	-137.15357
3870	0.13072	-138.00505	0.9934	-39.53672	0.9934	-39.53672	0.13072	-138.00505
3890	0.13144	-138.46493	0.99069	-39.64191	0.99069	-39.64191	0.13144	-138.46493
3910	0.13236	-138.84334	0.98842	-39.86489	0.98842	-39.86489	0.13236	-138.84334
3930	0.13357	-139.18371	0.9897	-40.12049	0.9897	-40.12049	0.13357	-139.18371
3950	0.1347	-139.26284	0.99217	-40.13163	0.99217	-40.13163	0.1347	-139.26284
3970	0.13637	-139.11836	0.99336	-40.33329	0.99336	-40.33329	0.13637	-139.11836
3990	0.13667	-139.29253	0.99094	-40.69442	0.99094	-40.69442	0.13667	-139.29253
4010	0.1369	-139.68149	0.98897	-40.96107	0.98897	-40.96107	0.1369	-139.68149
4030	0.13745	-140.21671	0.98919	-41.16393	0.98919	-41.16393	0.13745	-140.21671
4050	0.1379	-140.86493	0.99102	-41.6183	0.99102	-41.6183	0.1379	-140.86493
4070	0.13914	-141.00349	0.98856	-41.48951	0.98856	-41.48951	0.13914	-141.00349
4090	0.1404	-141.39537	0.98843	-41.62966	0.98843	-41.62966	0.1404	-141.39537
4110	0.14126	-141.9002	0.98808	-41.9054	0.98808	-41.9054	0.14126	-141.9002
4130	0.14216	-142.3542	0.98772	-42.21877	0.98772	-42.21877	0.14216	-142.3542
4150	0.14443	-142.57018	0.9903	-42.50719	0.9903	-42.50719	0.14443	-142.57018
4170	0.14635	-142.47223	0.98715	-42.51128	0.98715	-42.51128	0.14635	-142.47223
4190	0.14832	-142.58595	0.9863	-42.6341	0.9863	-42.6341	0.14832	-142.58595
4210	0.15012	-142.61577	0.98465	-42.9015	0.98465	-42.9015	0.15012	-142.61577
4230	0.15168	-142.33268	0.9844	-43.15113	0.9844	-43.15113	0.15168	-142.33268
4250	0.15314	-141.57423	0.99306	-43.03245	0.99306	-43.03245	0.15314	-141.57423
4270	0.15301	-141.46911	0.98778	-43.60874	0.98778	-43.60874	0.15301	-141.46911
4290	0.15335	-141.01214	0.98794	-43.76517	0.98794	-43.76517	0.15335	-141.01214
4310	0.1529	-140.90419	0.98668	-43.98189	0.98668	-43.98189	0.1529	-140.90419
4330	0.1522	-141.14426	0.98373	-44.31497	0.98373	-44.31497	0.1522	-141.14426
4350	0.15357	-141.02944	0.98534	-44.39643	0.98534	-44.39643	0.15357	-141.02944
4370	0.15475	-141.32313	0.98724	-44.61391	0.98724	-44.61391	0.15475	-141.32313
4390	0.1559	-141.52296	0.98588	-44.78444	0.98588	-44.78444	0.1559	-141.52296
4410	0.15714	-141.51423	0.98604	-45.01072	0.98604	-45.01072	0.15714	-141.51423
4430	0.15817	-141.2029	0.98814	-45.27226	0.98814	-45.27226	0.15817	-141.2029
4450	0.15822	-140.51562	0.98831	-45.42535	0.98831	-45.42535	0.15822	-140.51562
4470	0.15781	-140.29529	0.9884	-45.77659	0.9884	-45.77659	0.15781	-140.29529
4490	0.15638	-140.33088	0.98667	-45.96906	0.98667	-45.96906	0.15638	-140.33088
4510	0.15511	-140.88326	0.98728	-46.1699	0.98728	-46.1699	0.15511	-140.88326
4530	0.15473	-141.75166	0.98926	-46.40304	0.98926	-46.40304	0.15473	-141.75166
4550	0.15548	-142.2737	0.98653	-46.54924	0.98653	-46.54924	0.15548	-142.2737
4570	0.15706	-143.03389	0.97976	-46.68947	0.97976	-46.68947	0.15706	-143.03389
4590	0.15913	-143.10151	0.98488	-46.96247	0.98488	-46.96247	0.15913	-143.10151
4610	0.16092	-142.85474	0.98953	-47.23588	0.98953	-47.23588	0.16092	-142.85474
4630	0.16207	-142.45612	0.98882	-47.42553	0.98882	-47.42553	0.16207	-142.45612
4650	0.16255	-141.85259	0.98529	-47.49544	0.98529	-47.49544	0.16255	-141.85259
4670	0.16114	-141.85402	0.98709	-47.67537	0.98709	-47.67537	0.16114	-141.85402
4690	0.15925	-141.9826	0.98631	-47.86772	0.98631	-47.86772	0.15925	-141.9826
4710	0.15867	-142.56225	0.98431	-48.17015	0.98431	-48.17015	0.15867	-142.56225
4730	0.15967	-143.48605	0.9828	-48.46222	0.9828	-48.46222	0.15967	-143.48605
4750	0.16107	-144.21625	0.98376	-48.40543	0.98376	-48.40543	0.16107	-144.21625
4770	0.16361	-144.40865	0.98479	-48.74798	0.98479	-48.74798	0.16361	-144.40865
4790	0.16613	-144.50727	0.9861	-49.08653	0.9861	-49.08653	0.16613	-144.50727
4810	0.16822	-144.14748	0.98517	-49.3172	0.98517	-49.3172	0.16822	-144.14748
4830	0.16956	-143.36322	0.98296	-49.42439	0.98296	-49.42439	0.16956	-143.36322
4850	0.16998	-142.58695	0.98387	-49.48082	0.98387	-49.48082	0.16998	-142.58695
4870	0.16879	-142.52667	0.98112	-50.02394	0.98112	-50.02394	0.16879	-142.52667
4890	0.16818	-142.6619	0.98436	-50.22668	0.98436	-50.22668	0.16818	-142.6619
4910	0.16847	-143.2081	0.98652	-50.41843	0.98652	-50.41843	0.16847	-143.2081
4930	0.16978	-143.9857	0.98572	-50.60487	0.98572	-50.60487	0.16978	-143.9857
4950	0.17196	-144.42006	0.98532	-50.46799	0.98532	-50.46799	0.17196	-144.42006
4970	0.17334	-144.4541	0.98177	-50.98045	0.98177	-50.98045	0.17334	-144.4541
4990	0.17748	-144.19347	0.98426	-51.34786	0.98426	-51.34786	0.17748	-144.19347
5010	0.18011	-143.67327	0.98347	-51.64315	0.98347	-51.64315	0.18011	-143.67327
5030	0.18017	-142.99018	0.97938	-51.75293	0.97938	-51.75293	0.18017	-142.99018
5050	0.17979	-142.30244	0.98126	-51.37748	0.98126	-51.37748	0.17979	-142.30244
5070	0.17887	-142.10007	0.98566	-51.92727	0.98566	-51.92727	0.17887	-142.10007
5090	0.17771	-141.89892	0.98683	-52.38098	0.98683	-52.38098	0.17771	-141.89892
