! P/N: 250R05L1R1BV4								
! Measured by Marlon								
! Oct. 29, 2003								
#	mhz	s	ma	r	50
0	0.00000	-90.00000	0.99999	0.00000	0.99999	0.00000	0.00000	-90.00000			
50	0.01544	-111.34067	0.99999	-1.45754	0.99999	-1.45754	0.01544	-111.34067
70	0.0128	-91.8386	0.99999	-1.26916	0.99999	-1.26916	0.0128	-91.8386
90	0.01727	-89.34605	0.99999	-1.74804	0.99999	-1.74804	0.01727	-89.34605
110	0.02221	-94.53048	0.99999	-2.17613	0.99999	-2.17613	0.02221	-94.53048
130	0.02486	-100.2297	0.99999	-2.37988	0.99999	-2.37988	0.02486	-100.2297
150	0.02643	-101.45185	0.99999	-2.73027	0.99999	-2.73027	0.02643	-101.45185
170	0.02975	-97.75778	0.99999	-3.13076	0.99999	-3.13076	0.02975	-97.75778
190	0.03569	-96.92821	0.99999	-3.56841	0.99999	-3.56841	0.03569	-96.92821
210	0.04124	-98.14496	0.99999	-3.95971	0.99999	-3.95971	0.04124	-98.14496
230	0.04497	-99.09832	0.99999	-4.33883	0.99999	-4.33883	0.04497	-99.09832
250	0.04703	-95.98711	0.99828	-4.85761	0.99828	-4.85761	0.04703	-95.98711
270	0.05186	-92.22555	0.99999	-4.9443	0.99999	-4.9443	0.05186	-92.22555
290	0.05567	-91.46456	0.99999	-5.2719	0.99999	-5.2719	0.05567	-91.46456
310	0.05745	-92.01616	0.99999	-5.76189	0.99999	-5.76189	0.05745	-92.01616
330	0.05738	-92.69427	0.99999	-6.24864	0.99999	-6.24864	0.05738	-92.69427
350	0.05679	-92.81474	0.99999	-6.47937	0.99999	-6.47937	0.05679	-92.81474
370	0.06105	-94.37339	0.99999	-6.81841	0.99999	-6.81841	0.06105	-94.37339
390	0.06528	-97.86222	0.99999	-7.19243	0.99999	-7.19243	0.06528	-97.86222
410	0.06885	-100.99468	0.99934	-7.65031	0.99934	-7.65031	0.06885	-100.99468
430	0.07235	-102.45792	0.99898	-8.09148	0.99898	-8.09148	0.07235	-102.45792
450	0.07765	-101.91272	0.99999	-8.2659	0.99999	-8.2659	0.07765	-101.91272
470	0.08551	-101.65237	0.99999	-8.73449	0.99999	-8.73449	0.08551	-101.65237
490	0.08403	-103.30105	0.99999	-8.74123	0.99999	-8.74123	0.08403	-103.30105
510	0.0838	-103.82628	0.99999	-8.83508	0.99999	-8.83508	0.0838	-103.82628
530	0.08794	-102.47551	0.99999	-9.21537	0.99999	-9.21537	0.08794	-102.47551
550	0.0921	-100.77608	0.99766	-9.73172	0.99766	-9.73172	0.0921	-100.77608
570	0.09646	-100.62	0.99611	-10.04509	0.99611	-10.04509	0.09646	-100.62
590	0.10016	-100.84722	0.99868	-10.44178	0.99868	-10.44178	0.10016	-100.84722
610	0.10285	-100.82571	0.99912	-10.90069	0.99912	-10.90069	0.10285	-100.82571
630	0.10533	-100.49215	0.99706	-11.36171	0.99706	-11.36171	0.10533	-100.49215
650	0.10954	-100.35196	0.9980	-11.72569	0.9980	-11.72569	0.10954	-100.35196
670	0.11406	-100.66346	0.99964	-12.00922	0.99964	-12.00922	0.11406	-100.66346
690	0.11668	-100.76691	0.99891	-12.50528	0.99891	-12.50528	0.11668	-100.76691
710	0.11912	-100.37334	0.99735	-12.85246	0.99735	-12.85246	0.11912	-100.37334
730	0.12218	-99.71325	0.99677	-13.05636	0.99677	-13.05636	0.12218	-99.71325
750	0.12581	-99.53658	0.99925	-13.48961	0.99925	-13.48961	0.12581	-99.53658
770	0.12797	-100.25293	0.9938	-13.71018	0.9938	-13.71018	0.12797	-100.25293
790	0.12909	-101.10338	0.99469	-14.07653	0.99469	-14.07653	0.12909	-101.10338
810	0.13074	-101.58638	0.99518	-14.50243	0.99518	-14.50243	0.13074	-101.58638
830	0.13367	-101.84574	0.99413	-14.94096	0.99413	-14.94096	0.13367	-101.84574
850	0.13774	-102.67063	0.99595	-15.38446	0.99595	-15.38446	0.13774	-102.67063
870	0.14235	-103.87424	0.99243	-15.56928	0.99243	-15.56928	0.14235	-103.87424
890	0.14512	-104.35548	0.99371	-16.09408	0.99371	-16.09408	0.14512	-104.35548
910	0.14811	-104.15498	0.99448	-16.51113	0.99448	-16.51113	0.14811	-104.15498
930	0.15167	-103.78151	0.99395	-16.72984	0.99395	-16.72984	0.15167	-103.78151
950	0.15445	-104.21198	0.99587	-17.01676	0.99587	-17.01676	0.15445	-104.21198
970	0.15541	-105.13083	0.99147	-17.46166	0.99147	-17.46166	0.15541	-105.13083
990	0.15663	-106.06697	0.99146	-17.87947	0.99146	-17.87947	0.15663	-106.06697
1010	0.15904	-107.08333	0.9908	-18.2055	0.9908	-18.2055	0.15904	-107.08333
1030	0.16285	-108.25802	0.98761	-18.51974	0.98761	-18.51974	0.16285	-108.25802
1050	0.16752	-109.68437	0.98321	-19.04682	0.98321	-19.04682	0.16752	-109.68437
1070	0.17371	-110.80442	0.98457	-19.3595	0.98457	-19.3595	0.17371	-110.80442
1090	0.1797	-111.13545	0.98494	-19.78331	0.98494	-19.78331	0.1797	-111.13545
1110	0.18625	-110.97493	0.98574	-20.22237	0.98574	-20.22237	0.18625	-110.97493
1130	0.19277	-110.70875	0.98677	-20.65446	0.98677	-20.65446	0.19277	-110.70875
1150	0.19726	-110.81127	0.98621	-21.13107	0.98621	-21.13107	0.19726	-110.81127
1170	0.19901	-110.69164	0.98519	-21.26515	0.98519	-21.26515	0.19901	-110.69164
1190	0.20145	-110.76908	0.98416	-21.67082	0.98416	-21.67082	0.20145	-110.76908
1210	0.20511	-111.13965	0.98346	-22.02594	0.98346	-22.02594	0.20511	-111.13965
1230	0.20953	-111.71792	0.98256	-22.25564	0.98256	-22.25564	0.20953	-111.71792
1250	0.21321	-112.23695	0.98002	-22.5323	0.98002	-22.5323	0.21321	-112.23695
1270	0.21759	-112.94579	0.9790	-23.24024	0.9790	-23.24024	0.21759	-112.94579
1290	0.22308	-112.79595	0.97946	-23.77808	0.97946	-23.77808	0.22308	-112.79595
1310	0.22842	-112.64826	0.97886	-24.11645	0.97886	-24.11645	0.22842	-112.64826
1330	0.23255	-112.71439	0.97767	-24.3755	0.97767	-24.3755	0.23255	-112.71439
1350	0.23469	-112.55682	0.97932	-24.8249	0.97932	-24.8249	0.23469	-112.55682
1370	0.23455	-112.31912	0.97941	-24.97522	0.97941	-24.97522	0.23455	-112.31912
1390	0.2352	-112.64942	0.97626	-25.46732	0.97626	-25.46732	0.2352	-112.64942
1410	0.2364	-113.54701	0.97373	-25.87157	0.97373	-25.87157	0.2364	-113.54701
1430	0.23809	-114.75978	0.97298	-26.12339	0.97298	-26.12339	0.23809	-114.75978
1450	0.24036	-115.78424	0.97247	-26.52324	0.97247	-26.52324	0.24036	-115.78424
1470	0.24502	-116.47496	0.97167	-27.11822	0.97167	-27.11822	0.24502	-116.47496
1490	0.25022	-116.8847	0.97012	-27.40931	0.97012	-27.40931	0.25022	-116.8847
1510	0.25508	-117.35781	0.96927	-27.68199	0.96927	-27.68199	0.25508	-117.35781
1530	0.25883	-117.82653	0.96954	-28.06175	0.96954	-28.06175	0.25883	-117.82653
1550	0.26079	-117.811	0.9703	-28.5141	0.9703	-28.5141	0.26079	-117.811
1570	0.26212	-118.32806	0.96418	-28.88807	0.96418	-28.88807	0.26212	-118.32806
1590	0.26387	-119.02348	0.96203	-29.31722	0.96203	-29.31722	0.26387	-119.02348
1610	0.26721	-120.21164	0.9614	-29.77835	0.9614	-29.77835	0.26721	-120.21164
1630	0.27188	-121.62098	0.96088	-30.20494	0.96088	-30.20494	0.27188	-121.62098
1650	0.27616	-122.39398	0.96014	-30.48715	0.96014	-30.48715	0.27616	-122.39398
1670	0.28347	-122.98073	0.95923	-30.95399	0.95923	-30.95399	0.28347	-122.98073
1690	0.29141	-123.37638	0.95783	-31.3438	0.95783	-31.3438	0.29141	-123.37638
1710	0.29736	-123.4722	0.95694	-31.80555	0.95694	-31.80555	0.29736	-123.4722
1730	0.30096	-123.37911	0.95704	-32.28238	0.95704	-32.28238	0.30096	-123.37911
1750	0.30405	-123.42769	0.9581	-32.51164	0.9581	-32.51164	0.30405	-123.42769
1770	0.30675	-123.99474	0.95483	-32.95498	0.95483	-32.95498	0.30675	-123.99474
1790	0.30933	-124.4954	0.95166	-33.34849	0.95166	-33.34849	0.30933	-124.4954
1810	0.31223	-125.19023	0.94838	-33.70894	0.94838	-33.70894	0.31223	-125.19023
1830	0.31665	-126.06949	0.94667	-34.07124	0.94667	-34.07124	0.31665	-126.06949
1850	0.3245	-126.85319	0.95006	-34.48843	0.95006	-34.48843	0.3245	-126.85319
1870	0.33093	-127.14672	0.94473	-34.97172	0.94473	-34.97172	0.33093	-127.14672
1890	0.33599	-127.04998	0.94444	-35.27239	0.94444	-35.27239	0.33599	-127.04998
1910	0.33983	-126.94077	0.94401	-35.72949	0.94401	-35.72949	0.33983	-126.94077
1930	0.34269	-126.91683	0.94191	-36.30649	0.94191	-36.30649	0.34269	-126.91683
1950	0.34493	-126.79589	0.9403	-36.59134	0.9403	-36.59134	0.34493	-126.79589
1970	0.34639	-127.10561	0.93858	-36.96031	0.93858	-36.96031	0.34639	-127.10561
1990	0.34673	-127.73382	0.93813	-37.23283	0.93813	-37.23283	0.34673	-127.73382
2010	0.34794	-128.55906	0.93721	-37.60284	0.93721	-37.60284	0.34794	-128.55906
2030	0.35069	-129.45734	0.93437	-38.11072	0.93437	-38.11072	0.35069	-129.45734
2050	0.35438	-130.30213	0.92852	-38.64334	0.92852	-38.64334	0.35438	-130.30213
2070	0.36106	-130.93298	0.92983	-38.96889	0.92983	-38.96889	0.36106	-130.93298
2090	0.36607	-131.35632	0.92992	-39.47687	0.92992	-39.47687	0.36607	-131.35632
2110	0.37004	-131.63206	0.92791	-39.89244	0.92791	-39.89244	0.37004	-131.63206
2130	0.37312	-131.87119	0.92492	-40.19411	0.92492	-40.19411	0.37312	-131.87119
2150	0.37496	-132.23573	0.92407	-40.61381	0.92407	-40.61381	0.37496	-132.23573
2170	0.3782	-133.10554	0.91991	-41.08926	0.91991	-41.08926	0.3782	-133.10554
2190	0.37959	-133.53259	0.9214	-41.16701	0.9214	-41.16701	0.37959	-133.53259
2210	0.38187	-134.1674	0.92089	-41.48453	0.92089	-41.48453	0.38187	-134.1674
2230	0.3858	-135.12071	0.91607	-42.14491	0.91607	-42.14491	0.3858	-135.12071
2250	0.39012	-135.9635	0.90998	-42.71678	0.90998	-42.71678	0.39012	-135.9635
2270	0.39596	-136.4323	0.90722	-43.01771	0.90722	-43.01771	0.39596	-136.4323
2290	0.40195	-136.97572	0.90864	-43.54261	0.90864	-43.54261	0.40195	-136.97572
2310	0.4074	-137.36689	0.90802	-44.00923	0.90802	-44.00923	0.4074	-137.36689
2330	0.41245	-137.57999	0.90395	-44.37681	0.90395	-44.37681	0.41245	-137.57999
2350	0.41803	-137.79018	0.89986	-44.84611	0.89986	-44.84611	0.41803	-137.79018
2370	0.42005	-138.12773	0.89925	-45.26186	0.89925	-45.26186	0.42005	-138.12773
2390	0.4225	-138.52346	0.89629	-45.6473	0.89629	-45.6473	0.4225	-138.52346
2410	0.42611	-138.99491	0.89406	-45.91059	0.89406	-45.91059	0.42611	-138.99491
2430	0.43143	-139.59822	0.89366	-46.17269	0.89366	-46.17269	0.43143	-139.59822
2450	0.4389	-140.42805	0.89419	-46.76737	0.89419	-46.76737	0.4389	-140.42805
2470	0.44131	-140.63226	0.88519	-47.4547	0.88519	-47.4547	0.44131	-140.63226
2490	0.44687	-140.92531	0.88509	-47.73575	0.88509	-47.73575	0.44687	-140.92531
2510	0.45323	-141.3231	0.88609	-47.98167	0.88609	-47.98167	0.45323	-141.3231
2530	0.45813	-141.69468	0.88451	-48.40141	0.88451	-48.40141	0.45813	-141.69468
2550	0.45944	-141.76219	0.88083	-49.04171	0.88083	-49.04171	0.45944	-141.76219
2570	0.4618	-141.984	0.88071	-49.34522	0.88071	-49.34522	0.4618	-141.984
2590	0.46552	-142.43987	0.87584	-49.74933	0.87584	-49.74933	0.46552	-142.43987
2610	0.46732	-143.16556	0.87097	-50.25096	0.87097	-50.25096	0.46732	-143.16556
2630	0.46846	-143.88207	0.86773	-50.65785	0.86773	-50.65785	0.46846	-143.88207
2650	0.47476	-143.99564	0.86464	-50.58851	0.86464	-50.58851	0.47476	-143.99564
2670	0.48166	-144.54189	0.86675	-51.5546	0.86675	-51.5546	0.48166	-144.54189
2690	0.48508	-144.99001	0.86381	-51.85044	0.86381	-51.85044	0.48508	-144.99001
2710	0.48799	-145.39076	0.85965	-52.03663	0.85965	-52.03663	0.48799	-145.39076
2730	0.49144	-145.69996	0.8568	-52.43365	0.8568	-52.43365	0.49144	-145.69996
2750	0.49456	-145.77845	0.85657	-53.12194	0.85657	-53.12194	0.49456	-145.77845
2770	0.49376	-146.55422	0.85466	-53.56277	0.85466	-53.56277	0.49376	-146.55422
2790	0.49853	-146.98967	0.85344	-53.97557	0.85344	-53.97557	0.49853	-146.98967
2810	0.50514	-147.38869	0.85189	-54.35432	0.85189	-54.35432	0.50514	-147.38869
2830	0.50999	-147.86154	0.84949	-54.72527	0.84949	-54.72527	0.50999	-147.86154
2850	0.50963	-148.32484	0.84615	-55.14697	0.84615	-55.14697	0.50963	-148.32484
2870	0.51643	-149.24955	0.84216	-55.72542	0.84216	-55.72542	0.51643	-149.24955
2890	0.52207	-149.77746	0.83928	-56.11939	0.83928	-56.11939	0.52207	-149.77746
2910	0.52877	-149.92081	0.8363	-56.54245	0.8363	-56.54245	0.52877	-149.92081
2930	0.53223	-149.74176	0.83406	-57.00987	0.83406	-57.00987	0.53223	-149.74176
2950	0.52162	-149.35243	0.83544	-57.33859	0.83544	-57.33859	0.52162	-149.35243
2970	0.53166	-150.6703	0.83012	-57.87057	0.83012	-57.87057	0.53166	-150.6703
2990	0.53522	-151.37424	0.82106	-58.3065	0.82106	-58.3065	0.53522	-151.37424
3010	0.53946	-151.71264	0.81862	-58.60527	0.81862	-58.60527	0.53946	-151.71264
3030	0.54613	-152.1188	0.82131	-58.90938	0.82131	-58.90938	0.54613	-152.1188
3050	0.55157	-153.21095	0.81577	-59.545	0.81577	-59.545	0.55157	-153.21095
3070	0.55395	-153.55485	0.81174	-60.04825	0.81174	-60.04825	0.55395	-153.55485
3090	0.56106	-153.41689	0.81015	-60.33711	0.81015	-60.33711	0.56106	-153.41689
3110	0.56852	-153.50862	0.80986	-60.71173	0.80986	-60.71173	0.56852	-153.50862
3130	0.57275	-153.9354	0.80806	-61.21233	0.80806	-61.21233	0.57275	-153.9354
3150	0.57097	-154.19644	0.80029	-61.61919	0.80029	-61.61919	0.57097	-154.19644
3170	0.57494	-154.40084	0.79835	-61.90029	0.79835	-61.90029	0.57494	-154.40084
3190	0.58035	-154.8417	0.79556	-62.37765	0.79556	-62.37765	0.58035	-154.8417
3210	0.5825	-155.28095	0.79303	-62.76187	0.79303	-62.76187	0.5825	-155.28095
3230	0.58286	-155.74382	0.79079	-63.12637	0.79079	-63.12637	0.58286	-155.74382
3250	0.58906	-156.51883	0.78781	-63.90742	0.78781	-63.90742	0.58906	-156.51883
3270	0.59585	-157.02492	0.78295	-64.18486	0.78295	-64.18486	0.59585	-157.02492
3290	0.59971	-157.27416	0.77934	-64.57714	0.77934	-64.57714	0.59971	-157.27416
3310	0.60487	-157.54473	0.77714	-65.03694	0.77714	-65.03694	0.60487	-157.54473
3330	0.61108	-157.91227	0.77523	-65.46479	0.77523	-65.46479	0.61108	-157.91227
3350	0.61363	-158.24992	0.77115	-65.70898	0.77115	-65.70898	0.61363	-158.24992
3370	0.6136	-158.3494	0.76668	-66.17217	0.76668	-66.17217	0.6136	-158.3494
3390	0.61822	-158.7226	0.76427	-66.63934	0.76427	-66.63934	0.61822	-158.7226
3410	0.62464	-159.34054	0.76236	-67.1651	0.76236	-67.1651	0.62464	-159.34054
3430	0.62911	-159.97772	0.75866	-67.75961	0.75866	-67.75961	0.62911	-159.97772
3450	0.62696	-160.21204	0.75012	-68.38861	0.75012	-68.38861	0.62696	-160.21204
3470	0.63627	-160.25673	0.75414	-68.46775	0.75414	-68.46775	0.63627	-160.25673
3490	0.64079	-160.66858	0.75198	-69.06532	0.75198	-69.06532	0.64079	-160.66858
3510	0.64309	-161.10025	0.74598	-69.64331	0.74598	-69.64331	0.64309	-161.10025
3530	0.64501	-161.34748	0.73987	-69.93161	0.73987	-69.93161	0.64501	-161.34748
3550	0.64766	-161.34905	0.73875	-69.92792	0.73875	-69.92792	0.64766	-161.34905
3570	0.6529	-162.18518	0.73626	-70.75537	0.73626	-70.75537	0.6529	-162.18518
3590	0.65499	-162.55014	0.73196	-71.37895	0.73196	-71.37895	0.65499	-162.55014
3610	0.65879	-162.66172	0.72871	-71.77239	0.72871	-71.77239	0.65879	-162.66172
3630	0.66517	-162.86606	0.72666	-72.10271	0.72666	-72.10271	0.66517	-162.86606
3650	0.6711	-163.63766	0.72328	-72.7302	0.72328	-72.7302	0.6711	-163.63766
3670	0.67113	-163.67977	0.71932	-72.90724	0.71932	-72.90724	0.67113	-163.67977
3690	0.67595	-164.03067	0.71892	-73.41182	0.71892	-73.41182	0.67595	-164.03067
3710	0.67955	-164.46838	0.71537	-73.99809	0.71537	-73.99809	0.67955	-164.46838
3730	0.68076	-164.81335	0.70909	-74.39959	0.70909	-74.39959	0.68076	-164.81335
3750	0.68329	-164.92847	0.70761	-74.3292	0.70761	-74.3292	0.68329	-164.92847
3770	0.68675	-165.37629	0.70594	-75.23195	0.70594	-75.23195	0.68675	-165.37629
3790	0.68785	-165.79685	0.7000	-75.57166	0.7000	-75.57166	0.68785	-165.79685
3810	0.6909	-166.26911	0.69477	-75.8814	0.69477	-75.8814	0.6909	-166.26911
3830	0.69589	-166.73942	0.69137	-76.34884	0.69137	-76.34884	0.69589	-166.73942
3850	0.69845	-167.02152	0.68709	-76.81616	0.68709	-76.81616	0.69845	-167.02152
3870	0.70368	-167.37373	0.68709	-77.3446	0.68709	-77.3446	0.70368	-167.37373
3890	0.70795	-167.79474	0.68243	-77.7704	0.68243	-77.7704	0.70795	-167.79474
3910	0.71015	-168.13219	0.67818	-78.20322	0.67818	-78.20322	0.71015	-168.13219
3930	0.71147	-168.37006	0.67534	-78.61049	0.67534	-78.61049	0.71147	-168.37006
3950	0.7154	-168.62871	0.67082	-78.81735	0.67082	-78.81735	0.7154	-168.62871
3970	0.72346	-169.10435	0.67013	-79.32444	0.67013	-79.32444	0.72346	-169.10435
3990	0.7239	-169.52872	0.66317	-79.79304	0.66317	-79.79304	0.7239	-169.52872
4010	0.72619	-169.92444	0.65735	-80.19921	0.65735	-80.19921	0.72619	-169.92444
4030	0.73254	-170.3632	0.6551	-80.55083	0.6551	-80.55083	0.73254	-170.3632
4050	0.73794	-170.96578	0.65382	-80.88765	0.65382	-80.88765	0.73794	-170.96578
4070	0.74195	-171.28355	0.6494	-81.59991	0.6494	-81.59991	0.74195	-171.28355
4090	0.74391	-171.70739	0.64231	-82.08044	0.64231	-82.08044	0.74391	-171.70739
4110	0.7447	-172.06192	0.63921	-82.349	0.63921	-82.349	0.7447	-172.06192
4130	0.74699	-172.3625	0.63966	-82.65668	0.63966	-82.65668	0.74699	-172.3625
4150	0.7552	-172.81525	0.63619	-83.48589	0.63619	-83.48589	0.7552	-172.81525
4170	0.75667	-173.22951	0.6266	-83.81385	0.6266	-83.81385	0.75667	-173.22951
4190	0.76257	-173.39107	0.62249	-84.05722	0.62249	-84.05722	0.76257	-173.39107
4210	0.76892	-173.71823	0.61936	-84.48213	0.61936	-84.48213	0.76892	-173.71823
4230	0.77329	-174.08434	0.61593	-84.98541	0.61593	-84.98541	0.77329	-174.08434
4250	0.77477	-173.81782	0.61419	-85.09451	0.61419	-85.09451	0.77477	-173.81782
4270	0.77881	-174.32057	0.60911	-86.01816	0.60911	-86.01816	0.77881	-174.32057
4290	0.78117	-174.77382	0.60391	-86.38887	0.60391	-86.38887	0.78117	-174.77382
4310	0.78183	-175.16672	0.59943	-86.69651	0.59943	-86.69651	0.78183	-175.16672
4330	0.78242	-175.54994	0.59611	-87.16877	0.59611	-87.16877	0.78242	-175.54994
4350	0.78618	-176.03576	0.59402	-87.77116	0.59402	-87.77116	0.78618	-176.03576
4370	0.79021	-176.39968	0.58699	-88.24661	0.58699	-88.24661	0.79021	-176.39968
4390	0.79431	-176.78402	0.58273	-88.53724	0.58273	-88.53724	0.79431	-176.78402
4410	0.79717	-177.16682	0.57926	-89.06489	0.57926	-89.06489	0.79717	-177.16682
4430	0.79961	-177.45289	0.57602	-89.73671	0.57602	-89.73671	0.79961	-177.45289
4450	0.80455	-177.47382	0.57391	-89.94516	0.57391	-89.94516	0.80455	-177.47382
4470	0.80713	-178.10919	0.56986	-90.93829	0.56986	-90.93829	0.80713	-178.10919
4490	0.80374	-178.35889	0.5632	-91.13854	0.5632	-91.13854	0.80374	-178.35889
4510	0.80555	-178.68228	0.56065	-91.34667	0.56065	-91.34667	0.80555	-178.68228
4530	0.81265	180.0000	0.56031	-91.9014	0.56031	-91.9014	0.81265	180.0000
4550	0.81406	179.48449	0.55163	-92.67942	0.55163	-92.67942	0.81406	179.48449
4570	0.81164	179.34842	0.54481	-92.57384	0.54481	-92.57384	0.81164	179.34842
4590	0.82149	179.11409	0.54528	-92.97542	0.54528	-92.97542	0.82149	179.11409
4610	0.82762	178.67726	0.54297	-93.69445	0.54297	-93.69445	0.82762	178.67726
4630	0.82647	178.25345	0.53562	-94.38373	0.53562	-94.38373	0.82647	178.25345
4650	0.82693	178.37798	0.52876	-94.53845	0.52876	-94.53845	0.82693	178.37798
4670	0.83243	177.96233	0.52899	-94.78579	0.52899	-94.78579	0.83243	177.96233
4690	0.82788	177.30638	0.52406	-95.29685	0.52406	-95.29685	0.82788	177.30638
4710	0.82888	176.68756	0.51814	-95.95155	0.51814	-95.95155	0.82888	176.68756
4730	0.83664	176.18866	0.51312	-96.5853	0.51312	-96.5853	0.83664	176.18866
4750	0.83802	175.69779	0.50863	-96.989	0.50863	-96.989	0.83802	175.69779
4770	0.84567	175.35592	0.50602	-96.89148	0.50602	-96.89148	0.84567	175.35592
4790	0.84939	174.86199	0.50233	-97.52644	0.50233	-97.52644	0.84939	174.86199
4810	0.85172	174.45359	0.49679	-98.21478	0.49679	-98.21478	0.85172	174.45359
4830	0.8545	174.18589	0.49102	-98.61246	0.49102	-98.61246	0.8545	174.18589
4850	0.85882	173.93164	0.48907	-98.71055	0.48907	-98.71055	0.85882	173.93164
4870	0.85255	173.21334	0.48167	-99.4663	0.48167	-99.4663	0.85255	173.21334
4890	0.85556	172.9973	0.47875	-99.7906	0.47875	-99.7906	0.85556	172.9973
4910	0.86211	172.49127	0.47695	-100.21036	0.47695	-100.21036	0.86211	172.49127
4930	0.86723	171.70403	0.47268	-100.70548	0.47268	-100.70548	0.86723	171.70403
4950	0.86679	171.4454	0.46215	-100.7089	0.46215	-100.7089	0.86679	171.4454
4970	0.87175	171.25609	0.46062	-101.12893	0.46062	-101.12893	0.87175	171.25609
4990	0.88161	170.59891	0.4586	-102.27848	0.4586	-102.27848	0.88161	170.59891
5010	0.8814	170.10274	0.4508	-103.01142	0.4508	-103.01142	0.8814	170.10274
5030	0.87527	169.96391	0.44144	-102.96203	0.44144	-102.96203	0.87527	169.96391
5050	0.88648	169.9462	0.44426	-102.54503	0.44426	-102.54503	0.88648	169.9462
5070	0.8858	169.08193	0.44145	-103.83037	0.44145	-103.83037	0.8858	169.08193
