!{R05L1R6}
!Johanson Technology Inc.
!www.johansontechnology.com
!Test Board Conditions:
!Substrate Type  RO4350B
!Substrate Thickness        10 mil
!Substrate Dk      3.66
!TL Type: GCPW 
!TL Trace Width  22 mil
!TL Gap  25 mil
!Electrode orientation      Horizontal
!DUT TOPOLOGY	SERIES
!Mounting Pad LxW         11x14.5 mil
! Created Wed Nov 25 17:33:21 2020
! 2 Port Network Data from SP1.SP block
! freq  magS11  angS11  magS21  angS21  magS12  angS12  magS22  angS22  
! 
# khz S ma R 50    
   3.000000e+02   9.956346e-01   -2.060000e-01    2.713314e-04    8.971400e+01    3.162278e-04    9.460900e+01    9.965521e-01   -8.000000e-02
   1.300000e+03   9.999952e-01   -3.200000e-02    1.299864e-03    9.003300e+01    1.264294e-03    8.945700e+01    9.998801e-01    7.925000e-03
   2.300000e+03   9.999960e-01   -2.140000e-01    2.286116e-03    8.977900e+01    2.315519e-03    8.970200e+01    9.993915e-01   -2.020000e-01
   3.300000e+03   9.999928e-01   -2.670000e-01    3.321597e-03    9.003500e+01    3.335776e-03    8.925600e+01    9.998777e-01   -2.790000e-01
   4.300000e+03   9.999568e-01   -3.930000e-01    4.311528e-03    8.975800e+01    4.366980e-03    8.899400e+01    9.999568e-01   -3.930000e-01
   5.300000e+03   9.999466e-01   -4.400000e-01    5.295742e-03    8.982100e+01    5.363235e-03    8.971100e+01    9.999466e-01   -4.120000e-01
   6.300000e+03   9.999757e-01   -4.740000e-01    6.310873e-03    8.946800e+01    6.349499e-03    8.961600e+01    9.998606e-01   -5.020000e-01
   7.300000e+03   9.999576e-01   -5.400000e-01    7.327091e-03    8.955500e+01    7.378730e-03    8.885400e+01    9.998533e-01   -5.500000e-01
   8.300000e+03   9.997322e-01   -6.050000e-01    8.331701e-03    8.936100e+01    8.365342e-03    8.924700e+01    9.999624e-01   -6.370000e-01
   9.300000e+03   9.995656e-01   -6.680000e-01    9.354632e-03    8.945800e+01    9.388079e-03    8.931600e+01    9.999541e-01   -6.810000e-01
   1.030000e+04   9.995887e-01   -6.620000e-01    1.028608e-02    8.932600e+01    1.037409e-02    8.936000e+01    9.991562e-01   -6.650000e-01
   1.130000e+04   9.986194e-01   -6.740000e-01    1.135534e-02    8.915100e+01    1.141300e-02    8.921400e+01    9.982746e-01   -6.850000e-01
   1.230000e+04   9.979298e-01   -7.180000e-01    1.235663e-02    8.918600e+01    1.235805e-02    8.932500e+01    9.978149e-01   -7.070000e-01
   1.330000e+04   9.979298e-01   -7.720000e-01    1.331680e-02    8.912600e+01    1.339522e-02    8.925800e+01    9.980447e-01   -7.800000e-01
   1.430000e+04   9.983895e-01   -7.900000e-01    1.430375e-02    8.912800e+01    1.439461e-02    8.902200e+01    9.980447e-01   -8.140000e-01
   1.530000e+04   9.979298e-01   -8.610000e-01    1.529502e-02    8.895100e+01    1.537092e-02    8.907400e+01    9.979298e-01   -8.860000e-01
   1.630000e+04   9.987344e-01   -9.440000e-01    1.633616e-02    8.894700e+01    1.642480e-02    8.900500e+01    9.986194e-01   -9.500000e-01
   1.730000e+04   9.993302e-01   -1.042000e+00    1.734603e-02    8.872600e+01    1.744617e-02    8.881500e+01    9.991904e-01   -1.048000e+00
   1.830000e+04   9.997932e-01   -1.100000e+00    1.839289e-02    8.874300e+01    1.842256e-02    8.884600e+01    9.995707e-01   -1.128000e+00
   1.930000e+04   9.994071e-01   -1.160000e+00    1.938749e-02    8.883700e+01    1.940759e-02    8.875900e+01    9.998103e-01   -1.188000e+00
   2.030000e+04   9.997845e-01   -1.269000e+00    2.036529e-02    8.872600e+01    2.044281e-02    8.866000e+01    9.995063e-01   -1.250000e+00
   2.130000e+04   9.996730e-01   -1.344000e+00    2.138346e-02    8.860500e+01    2.145004e-02    8.861500e+01    9.997556e-01   -1.352000e+00
   2.230000e+04   9.997471e-01   -1.411000e+00    2.239619e-02    8.856200e+01    2.242457e-02    8.862400e+01    9.994055e-01   -1.431000e+00
   2.330000e+04   9.994272e-01   -1.475000e+00    2.335958e-02    8.845900e+01    2.349173e-02    8.846800e+01    9.997072e-01   -1.461000e+00
   2.430000e+04   9.996731e-01   -1.511000e+00    2.436963e-02    8.852300e+01    2.449903e-02    8.845100e+01    9.995470e-01   -1.526000e+00
   2.530000e+04   9.996653e-01   -1.596000e+00    2.536943e-02    8.832700e+01    2.549240e-02    8.844500e+01    9.993015e-01   -1.597000e+00
   2.630000e+04   9.996307e-01   -1.593000e+00    2.639034e-02    8.837400e+01    2.649384e-02    8.837200e+01    9.995025e-01   -1.627000e+00
   2.730000e+04   9.996081e-01   -1.686000e+00    2.742056e-02    8.820700e+01    2.753761e-02    8.834900e+01    9.993367e-01   -1.680000e+00
   2.830000e+04   9.995773e-01   -1.746000e+00    2.842130e-02    8.808900e+01    2.849010e-02    8.820600e+01    9.993587e-01   -1.748000e+00
   2.930000e+04   9.991234e-01   -1.781000e+00    2.941341e-02    8.819700e+01    2.949480e-02    8.816800e+01    9.995609e-01   -1.802000e+00
   3.030000e+04   9.995122e-01   -1.861000e+00    3.040009e-02    8.802400e+01    3.050878e-02    8.810500e+01    9.993375e-01   -1.861000e+00
   3.130000e+04   9.994587e-01   -1.879000e+00    3.137906e-02    8.800000e+01    3.148400e-02    8.808000e+01    9.994030e-01   -1.880000e+00
   3.230000e+04   9.994619e-01   -1.965000e+00    3.244283e-02    8.796400e+01    3.252136e-02    8.803600e+01    9.991679e-01   -1.908000e+00
   3.330000e+04   9.992243e-01   -2.019000e+00    3.337681e-02    8.801100e+01    3.357723e-02    8.797400e+01    9.993913e-01   -1.975000e+00
   3.430000e+04   9.993888e-01   -2.074049e+00    3.437100e-02    8.777503e+01    3.452973e-02    8.789995e+01    9.988113e-01   -2.055082e+00
   3.530000e+04   9.992129e-01   -2.123046e+00    3.534261e-02    8.780892e+01    3.558758e-02    8.785187e+01    9.992705e-01   -2.137052e+00
   3.630000e+04   9.992710e-01   -2.169078e+00    3.636132e-02    8.772699e+01    3.659221e-02    8.772199e+01    9.990596e-01   -2.189031e+00
   3.730000e+04   9.988224e-01   -2.247058e+00    3.741238e-02    8.771795e+01    3.756348e-02    8.771295e+01    9.992815e-01   -2.220081e+00
   3.830000e+04   9.992422e-01   -2.305089e+00    3.838262e-02    8.767085e+01    3.857310e-02    8.766094e+01    9.986661e-01   -2.301098e+00
   3.930000e+04   9.991871e-01   -2.394051e+00    3.941380e-02    8.752313e+01    3.960024e-02    8.759786e+01    9.989104e-01   -2.399059e+00
   4.030000e+04   9.984915e-01   -2.445088e+00    4.037797e-02    8.765176e+01    4.052226e-02    8.745690e+01    9.991727e-01   -2.458028e+00
   4.130000e+04   9.991133e-01   -2.533028e+00    4.144150e-02    8.741393e+01    4.151322e-02    8.735601e+01    9.988548e-01   -2.486105e+00
   4.230000e+04   9.990818e-01   -2.561060e+00    4.241907e-02    8.734395e+01    4.258545e-02    8.736495e+01    9.983714e-01   -2.591081e+00
   4.330000e+04   9.990397e-01   -2.621089e+00    4.340412e-02    8.728985e+01    4.358453e-02    8.731391e+01    9.982841e-01   -2.672054e+00
   4.430000e+04   9.981929e-01   -2.710035e+00    4.426695e-02    8.713805e+01    4.459941e-02    8.722287e+01    9.989696e-01   -2.726054e+00
   4.530000e+04   9.989439e-01   -2.745071e+00    4.534205e-02    8.718383e+01    4.563000e-02    8.709305e+01    9.975755e-01   -2.780044e+00
   4.630000e+04   9.986137e-01   -2.816118e+00    4.637804e-02    8.700902e+01    4.659755e-02    8.714588e+01    9.988553e-01   -2.824092e+00
   4.730000e+04   9.988006e-01   -2.934040e+00    4.740316e-02    8.702907e+01    4.770977e-02    8.702784e+01    9.984927e-01   -2.916053e+00
   4.830000e+04   9.985368e-01   -2.974100e+00    4.832664e-02    8.709981e+01    4.864472e-02    8.687002e+01    9.987294e-01   -2.969029e+00
   4.930000e+04   9.984644e-01   -3.074000e+00    4.944091e-02    8.690994e+01    4.966343e-02    8.689293e+01    9.987203e-01   -2.998066e+00
   5.030000e+04   9.980729e-01   -3.074055e+00    5.036111e-02    8.685494e+01    5.061689e-02    8.682299e+01    9.986880e-01   -3.064114e+00
   5.130000e+04   9.975708e-01   -3.129065e+00    5.143883e-02    8.679594e+01    5.171777e-02    8.681682e+01    9.986483e-01   -3.178105e+00
   5.230000e+04   9.983469e-01   -3.194083e+00    5.248463e-02    8.673994e+01    5.261789e-02    8.663697e+01    9.985840e-01   -3.283036e+00
   5.330000e+04   9.985436e-01   -3.277126e+00    5.339083e-02    8.668386e+01    5.367424e-02    8.660193e+01    9.974483e-01   -3.319045e+00
   5.430000e+04   9.982536e-01   -3.403046e+00    5.446610e-02    8.654489e+01    5.465468e-02    8.653091e+01    9.984527e-01   -3.364082e+00
   5.530000e+04   9.984253e-01   -3.449053e+00    5.539944e-02    8.643001e+01    5.572577e-02    8.644192e+01    9.970395e-01   -3.446105e+00
   5.630000e+04   9.979230e-01   -3.502088e+00    5.643123e-02    8.643589e+01    5.685499e-02    8.636098e+01    9.982859e-01   -3.551020e+00
   5.730000e+04   9.983076e-01   -3.590019e+00    5.740561e-02    8.632905e+01    5.772358e-02    8.633991e+01    9.973327e-01   -3.571036e+00
   5.830000e+04   9.982155e-01   -3.609052e+00    5.858248e-02    8.637580e+01    5.875815e-02    8.624903e+01    9.980399e-01   -3.607073e+00
   5.930000e+04   9.980144e-01   -3.661064e+00    5.951477e-02    8.617397e+01    5.974124e-02    8.627492e+01    9.980988e-01   -3.680063e+00
   6.030000e+04   9.978930e-01   -3.725121e+00    6.049844e-02    8.613987e+01    6.065191e-02    8.619579e+01    9.981007e-01   -3.743046e+00
   6.130000e+04   9.976626e-01   -3.846044e+00    6.145928e-02    8.600703e+01    6.165084e-02    8.598100e+01    9.979884e-01   -3.789065e+00
   6.230000e+04   9.975937e-01   -3.890035e+00    6.233203e-02    8.603898e+01    6.273504e-02    8.597701e+01    9.979125e-01   -3.854049e+00
   6.330000e+04   9.976602e-01   -3.925079e+00    6.342087e-02    8.601390e+01    6.367687e-02    8.598589e+01    9.978971e-01   -3.903121e+00
   6.430000e+04   9.978165e-01   -4.004021e+00    6.449567e-02    8.591386e+01    6.468162e-02    8.587191e+01    9.977024e-01   -4.024084e+00
   6.530000e+04   9.977763e-01   -4.025140e+00    6.542515e-02    8.577207e+01    6.565904e-02    8.578203e+01    9.972132e-01   -4.108039e+00
   6.630000e+04   9.974607e-01   -4.164990e+00    6.647240e-02    8.583891e+01    6.667931e-02    8.581484e+01    9.977452e-01   -4.147032e+00
   6.730000e+04   9.976776e-01   -4.155113e+00    6.746013e-02    8.574790e+01    6.763129e-02    8.565791e+01    9.968757e-01   -4.179086e+00
   6.830000e+04   9.966012e-01   -4.268073e+00    6.846622e-02    8.564990e+01    6.871902e-02    8.556398e+01    9.976052e-01   -4.265059e+00
   6.930000e+04   9.975422e-01   -4.340997e+00    6.931154e-02    8.554988e+01    6.966331e-02    8.554401e+01    9.962040e-01   -4.324037e+00
   7.030000e+04   9.968397e-01   -4.338119e+00    7.055546e-02    8.543198e+01    7.068568e-02    8.555190e+01    9.974376e-01   -4.361086e+00
   7.130000e+04   9.969048e-01   -4.457046e+00    7.141834e-02    8.541097e+01    7.168188e-02    8.545194e+01    9.973628e-01   -4.447034e+00
   7.230000e+04   9.973161e-01   -4.503031e+00    7.245009e-02    8.538301e+01    7.265890e-02    8.539197e+01    9.966270e-01   -4.481071e+00
   7.330000e+04   9.972705e-01   -4.534086e+00    7.346306e-02    8.538987e+01    7.365787e-02    8.535989e+01    9.961242e-01   -4.552079e+00
   7.430000e+04   9.970222e-01   -4.620018e+00    7.446629e-02    8.526100e+01    7.468975e-02    8.524803e+01    9.970218e-01   -4.631035e+00
   7.530000e+04   9.970123e-01   -4.638076e+00    7.530201e-02    8.525988e+01    7.575400e-02    8.528088e+01    9.966671e-01   -4.666033e+00
   7.630000e+04   9.970240e-01   -4.714057e+00    7.635026e-02    8.513800e+01    7.663240e-02    8.516194e+01    9.957635e-01   -4.699086e+00
   7.730000e+04   9.966487e-01   -4.771061e+00    7.717888e-02    8.513395e+01    7.780319e-02    8.510097e+01    9.966484e-01   -4.785070e+00
   7.830000e+04   9.967793e-01   -4.832093e+00    7.831684e-02    8.508489e+01    7.875987e-02    8.506590e+01    9.964367e-01   -4.855049e+00
   7.930000e+04   9.955136e-01   -4.925007e+00    7.932367e-02    8.497289e+01    7.974477e-02    8.496094e+01    9.967748e-01   -4.904079e+00
   8.030000e+04   9.957571e-01   -4.932060e+00    8.036330e-02    8.486506e+01    8.068794e-02    8.490200e+01    9.966734e-01   -4.983055e+00
   8.130000e+04   9.965281e-01   -4.991996e+00    8.123539e-02    8.492191e+01    8.172312e-02    8.489793e+01    9.961843e-01   -5.038030e+00
   8.230000e+04   9.962933e-01   -4.988116e+00    8.228921e-02    8.483296e+01    8.271661e-02    8.482694e+01    9.962938e-01   -5.068047e+00
   8.330000e+04   9.959265e-01   -5.104062e+00    8.332645e-02    8.478884e+01    8.373026e-02    8.476492e+01    9.963853e-01   -5.115092e+00
   8.430000e+04   9.957316e-01   -5.166064e+00    8.438140e-02    8.463400e+01    8.471251e-02    8.468894e+01    9.963043e-01   -5.207044e+00
   8.530000e+04   9.960740e-01   -5.230022e+00    8.527007e-02    8.463500e+01    8.577221e-02    8.463391e+01    9.959591e-01   -5.251068e+00
   8.630000e+04   9.960668e-01   -5.252093e+00    8.625692e-02    8.463876e+01    8.675490e-02    8.454598e+01    9.957239e-01   -5.319063e+00
   8.730000e+04   9.952125e-01   -5.345114e+00    8.727111e-02    8.440205e+01    8.779508e-02    8.452792e+01    9.960140e-01   -5.382063e+00
   8.830000e+04   9.957923e-01   -5.459021e+00    8.826196e-02    8.444896e+01    8.873067e-02    8.444288e+01    9.957923e-01   -5.445073e+00
   8.930000e+04   9.956538e-01   -5.480053e+00    8.922032e-02    8.440490e+01    8.973524e-02    8.432598e+01    9.956537e-01   -5.518082e+00
   9.030000e+04   9.956707e-01   -5.533048e+00    9.032759e-02    8.430401e+01    9.070290e-02    8.430996e+01    9.955563e-01   -5.599998e+00
   9.130000e+04   9.954121e-01   -5.581064e+00    9.128670e-02    8.431289e+01    9.181370e-02    8.427294e+01    9.955276e-01   -5.598057e+00
   9.230000e+04   9.945758e-01   -5.645069e+00    9.217066e-02    8.420094e+01    9.270271e-02    8.421191e+01    9.956061e-01   -5.655084e+00
   9.330000e+04   9.951542e-01   -5.714036e+00    9.323845e-02    8.414598e+01    9.372269e-02    8.412296e+01    9.953826e-01   -5.739019e+00
   9.430000e+04   9.953856e-01   -5.750068e+00    9.426402e-02    8.412387e+01    9.468829e-02    8.408598e+01    9.948133e-01   -5.758089e+00
   9.530000e+04   9.950909e-01   -5.818098e+00    9.523959e-02    8.399599e+01    9.573427e-02    8.406286e+01    9.950914e-01   -5.847055e+00
   9.630000e+04   9.946981e-01   -5.916025e+00    9.624887e-02    8.398593e+01    9.672650e-02    8.391991e+01    9.951567e-01   -5.902080e+00
   9.730000e+04   9.942015e-01   -5.941079e+00    9.716919e-02    8.391291e+01    9.761775e-02    8.382798e+01    9.951163e-01   -5.982057e+00
   9.830000e+04   9.948329e-01   -6.020055e+00    9.816455e-02    8.382597e+01    9.866321e-02    8.380799e+01    9.943755e-01   -6.039044e+00
   9.930000e+04   9.945978e-01   -6.075103e+00    9.916348e-02    8.380090e+01    9.979328e-02    8.379891e+01    9.947115e-01   -6.083089e+00
   1.003000e+05   9.948021e-01   -6.178100e+00    1.001602e-01    8.370491e+01    1.006921e-01    8.370471e+01    9.941168e-01   -6.172088e+00
   1.013000e+05   9.943898e-01   -6.228016e+00    1.011149e-01    8.366090e+01    1.016402e-01    8.356204e+01    9.945048e-01   -6.216068e+00
   1.023000e+05   9.941287e-01   -6.236198e+00    1.020826e-01    8.360982e+01    1.026600e-01    8.357977e+01    9.944723e-01   -6.250198e+00
   1.033000e+05   9.939515e-01   -6.335198e+00    1.031509e-01    8.352179e+01    1.036747e-01    8.346590e+01    9.944080e-01   -6.349142e+00
   1.043000e+05   9.942477e-01   -6.433992e+00    1.040889e-01    8.341809e+01    1.046172e-01    8.341588e+01    9.940202e-01   -6.420110e+00
   1.053000e+05   9.938024e-01   -6.430094e+00    1.051978e-01    8.346190e+01    1.055987e-01    8.335402e+01    9.942583e-01   -6.475040e+00
   1.063000e+05   9.940963e-01   -6.477214e+00    1.060322e-01    8.341080e+01    1.066688e-01    8.336167e+01    9.936402e-01   -6.495154e+00
   1.073000e+05   9.935731e-01   -6.584082e+00    1.071293e-01    8.331173e+01    1.077226e-01    8.319508e+01    9.939161e-01   -6.572156e+00
   1.083000e+05   9.936107e-01   -6.625164e+00    1.081618e-01    8.317907e+01    1.085987e-01    8.323568e+01    9.938386e-01   -6.650122e+00
   1.093000e+05   9.937197e-01   -6.707094e+00    1.091368e-01    8.321475e+01    1.096406e-01    8.307693e+01    9.934914e-01   -6.711148e+00
   1.103000e+05   9.934837e-01   -6.754054e+00    1.100447e-01    8.308992e+01    1.105654e-01    8.303997e+01    9.934850e-01   -6.785040e+00
   1.113000e+05   9.928938e-01   -6.781158e+00    1.110606e-01    8.305094e+01    1.115988e-01    8.302679e+01    9.935785e-01   -6.805174e+00
   1.123000e+05   9.932837e-01   -6.860102e+00    1.120037e-01    8.301866e+01    1.125075e-01    8.292095e+01    9.932847e-01   -6.892130e+00
   1.133000e+05   9.928389e-01   -6.911134e+00    1.131060e-01    8.285011e+01    1.135235e-01    8.289797e+01    9.932957e-01   -6.957044e+00
   1.143000e+05   9.929813e-01   -6.978116e+00    1.140246e-01    8.290485e+01    1.144585e-01    8.288077e+01    9.932107e-01   -6.979114e+00
   1.153000e+05   9.925815e-01   -7.036052e+00    1.149539e-01    8.282986e+01    1.153386e-01    8.276401e+01    9.931503e-01   -7.036130e+00
   1.163000e+05   9.930447e-01   -7.062188e+00    1.159915e-01    8.275976e+01    1.165134e-01    8.276785e+01    9.922447e-01   -7.101076e+00
   1.173000e+05   9.929068e-01   -7.156240e+00    1.169677e-01    8.263992e+01    1.174266e-01    8.269176e+01    9.921076e-01   -7.139284e+00
   1.183000e+05   9.927675e-01   -7.275986e+00    1.179385e-01    8.260101e+01    1.184687e-01    8.257201e+01    9.923113e-01   -7.281018e+00
   1.193000e+05   9.925708e-01   -7.269138e+00    1.189924e-01    8.260780e+01    1.192944e-01    8.257773e+01    9.925697e-01   -7.290156e+00
   1.203000e+05   9.925198e-01   -7.338124e+00    1.200178e-01    8.250887e+01    1.204608e-01    8.244499e+01    9.919491e-01   -7.368084e+00
   1.213000e+05   9.923612e-01   -7.400072e+00    1.208723e-01    8.244490e+01    1.213746e-01    8.243777e+01    9.920196e-01   -7.410110e+00
   1.223000e+05   9.918743e-01   -7.436148e+00    1.217906e-01    8.239485e+01    1.224231e-01    8.232301e+01    9.921009e-01   -7.465130e+00
   1.233000e+05   9.921797e-01   -7.510098e+00    1.228422e-01    8.232089e+01    1.233947e-01    8.232991e+01    9.914943e-01   -7.530048e+00
   1.243000e+05   9.920988e-01   -7.559168e+00    1.238828e-01    8.226683e+01    1.242546e-01    8.228483e+01    9.913005e-01   -7.554232e+00
   1.253000e+05   9.918565e-01   -7.643046e+00    1.247399e-01    8.218383e+01    1.253016e-01    8.220087e+01    9.915151e-01   -7.670074e+00
   1.263000e+05   9.913260e-01   -7.666186e+00    1.256102e-01    8.209892e+01    1.263784e-01    8.213584e+01    9.915531e-01   -7.707186e+00
   1.273000e+05   9.915878e-01   -7.759128e+00    1.268349e-01    8.205887e+01    1.273321e-01    8.205494e+01    9.912486e-01   -7.800038e+00
   1.283000e+05   9.903885e-01   -7.823054e+00    1.277943e-01    8.199391e+01    1.281631e-01    8.202388e+01    9.916424e-01   -7.819140e+00
   1.293000e+05   9.906997e-01   -7.850188e+00    1.286763e-01    8.194881e+01    1.292849e-01    8.196389e+01    9.913825e-01   -7.889112e+00
   1.303000e+05   9.911425e-01   -7.944106e+00    1.297007e-01    8.185483e+01    1.302247e-01    8.190688e+01    9.909139e-01   -7.945110e+00
   1.313000e+05   9.910090e-01   -7.997116e+00    1.306126e-01    8.177198e+01    1.313060e-01    8.184774e+01    9.905539e-01   -8.000188e+00
   1.323000e+05   9.906676e-01   -8.055094e+00    1.317146e-01    8.176190e+01    1.323073e-01    8.171995e+01    9.907814e-01   -8.094092e+00
   1.333000e+05   9.906241e-01   -8.102150e+00    1.326220e-01    8.171188e+01    1.332038e-01    8.169477e+01    9.906255e-01   -8.140104e+00
   1.343000e+05   9.899587e-01   -8.177044e+00    1.335281e-01    8.164997e+01    1.342835e-01    8.158188e+01    9.906405e-01   -8.192092e+00
