! 250R05L0R3CV4
! Data taken January 31, 2003
! Data taken on a HP 8720C VNA using a shunt-through test fixture and TRL* de-embedding
#	mhz	s	ma	r	50
0	0.00000	-90.00000	0.99999	0.00000	0.99999	0.00000	0.00000	-90.00000
50	0.01081	-87.95712	0.99999	-1.31125	0.99999	-1.31125	0.01081	-87.95712
70	0.00467	-110.62203	0.99999	-1.19345	0.99999	-1.19345	0.00467	-110.62203
90	0.0039	-90.66334	0.99788	-1.1713	0.99788	-1.1713	0.0039	-90.66334
110	0.00638	-77.85635	0.99652	-1.36373	0.99652	-1.36373	0.00638	-77.85635
130	0.00981	-84.3155	0.9975	-1.7667	0.9975	-1.7667	0.00981	-84.3155
150	0.0117	-84.49435	0.99903	-2.25312	0.99903	-2.25312	0.0117	-84.49435
170	0.01252	-84.26305	0.99958	-2.18748	0.99958	-2.18748	0.01252	-84.26305
190	0.01296	-83.44766	0.99618	-2.54228	0.99618	-2.54228	0.01296	-83.44766
210	0.01393	-83.27029	0.99551	-2.74924	0.99551	-2.74924	0.01393	-83.27029
230	0.0156	-84.02904	0.99763	-2.80069	0.99763	-2.80069	0.0156	-84.02904
250	0.01739	-85.09804	0.99599	-3.24956	0.99599	-3.24956	0.01739	-85.09804
270	0.01918	-86.5746	0.99811	-3.19634	0.99811	-3.19634	0.01918	-86.5746
290	0.02048	-86.49102	0.99856	-3.45487	0.99856	-3.45487	0.02048	-86.49102
310	0.02183	-85.21416	0.99749	-3.6644	0.99749	-3.6644	0.02183	-85.21416
330	0.02322	-83.66045	0.99569	-3.79254	0.99569	-3.79254	0.02322	-83.66045
350	0.02406	-83.29587	0.99453	-4.13522	0.99453	-4.13522	0.02406	-83.29587
370	0.02448	-84.84147	0.99686	-4.46873	0.99686	-4.46873	0.02448	-84.84147
390	0.0256	-86.46818	0.99789	-4.67868	0.99789	-4.67868	0.0256	-86.46818
410	0.02721	-87.36535	0.99908	-4.92447	0.99908	-4.92447	0.02721	-87.36535
430	0.02912	-87.35714	1.00028	-5.21218	1.00028	-5.21218	0.02912	-87.35714
450	0.03113	-86.90253	0.99979	-5.39457	0.99979	-5.39457	0.03113	-86.90253
470	0.03225	-85.61826	0.99885	-5.62481	0.99885	-5.62481	0.03225	-85.61826
490	0.02673	-89.50	0.9972	-5.85459	0.9972	-5.85459	0.02673	-89.50
510	0.02295	-92.90821	0.99647	-6.03226	0.99647	-6.03226	0.02295	-92.90821
530	0.02347	-94.60104	0.99609	-6.19368	0.99609	-6.19368	0.02347	-94.60104
550	0.02504	-97.7344	0.99322	-6.46228	0.99322	-6.46228	0.02504	-97.7344
570	0.02715	-98.95319	0.9944	-6.6839	0.9944	-6.6839	0.02715	-98.95319
590	0.02881	-98.86504	0.99515	-6.86995	0.99515	-6.86995	0.02881	-98.86504
610	0.03056	-97.77418	0.99647	-7.1195	0.99647	-7.1195	0.03056	-97.77418
630	0.03218	-95.91361	0.99753	-7.40368	0.99753	-7.40368	0.03218	-95.91361
650	0.03272	-93.4451	0.99576	-7.56563	0.99576	-7.56563	0.03272	-93.4451
670	0.03252	-92.63342	0.99729	-7.78878	0.99729	-7.78878	0.03252	-92.63342
690	0.03227	-94.35956	0.99466	-8.04788	0.99466	-8.04788	0.03227	-94.35956
710	0.03236	-97.05209	0.9940	-8.30072	0.9940	-8.30072	0.03236	-97.05209
730	0.03314	-99.83351	0.99587	-8.51565	0.99587	-8.51565	0.03314	-99.83351
750	0.03487	-102.52031	0.99526	-8.6715	0.99526	-8.6715	0.03487	-102.52031
770	0.03767	-104.69916	0.99384	-9.23286	0.99384	-9.23286	0.03767	-104.69916
790	0.0411	-105.42723	0.99544	-9.182	0.99544	-9.182	0.0411	-105.42723
810	0.04397	-104.39535	0.99562	-9.22875	0.99562	-9.22875	0.04397	-104.39535
830	0.04581	-102.14532	0.99325	-9.55564	0.99325	-9.55564	0.04581	-102.14532
850	0.04693	-100.0699	0.99043	-9.81786	0.99043	-9.81786	0.04693	-100.0699
870	0.04792	-99.32004	0.99508	-10.00387	0.99508	-10.00387	0.04792	-99.32004
890	0.04794	-99.56746	0.99531	-10.24532	0.99531	-10.24532	0.04794	-99.56746
910	0.04809	-100.19722	0.99416	-10.46897	0.99416	-10.46897	0.04809	-100.19722
930	0.0489	-100.95317	0.99365	-10.69436	0.99365	-10.69436	0.0489	-100.95317
950	0.05044	-101.93798	0.99483	-11.03383	0.99483	-11.03383	0.05044	-101.93798
970	0.05263	-102.1888	0.99393	-11.22048	0.99393	-11.22048	0.05263	-102.1888
990	0.055	-101.64722	0.99363	-11.44895	0.99363	-11.44895	0.055	-101.64722
1010	0.05676	-100.82265	0.99302	-11.72875	0.99302	-11.72875	0.05676	-100.82265
1030	0.05781	-99.89168	0.99287	-11.98043	0.99287	-11.98043	0.05781	-99.89168
1050	0.05877	-98.6981	0.99564	-12.03564	0.99564	-12.03564	0.05877	-98.6981
1070	0.05811	-98.90266	0.99567	-12.41341	0.99567	-12.41341	0.05811	-98.90266
1090	0.05809	-99.43825	0.9955	-12.59862	0.9955	-12.59862	0.05809	-99.43825
1110	0.05848	-100.2643	0.99571	-12.77165	0.99571	-12.77165	0.05848	-100.2643
1130	0.05937	-101.39841	0.9957	-13.04299	0.9957	-13.04299	0.05937	-101.39841
1150	0.06116	-102.91641	0.99376	-13.4533	0.99376	-13.4533	0.06116	-102.91641
1170	0.06325	-103.60213	0.99386	-13.60834	0.99386	-13.60834	0.06325	-103.60213
1190	0.06516	-103.55191	0.99493	-13.79727	0.99493	-13.79727	0.06516	-103.55191
1210	0.06662	-103.15442	0.99519	-13.98636	0.99519	-13.98636	0.06662	-103.15442
1230	0.06765	-102.78207	0.99419	-14.19229	0.99419	-14.19229	0.06765	-102.78207
1250	0.06854	-102.79098	0.99285	-14.48218	0.99285	-14.48218	0.06854	-102.79098
1270	0.06875	-102.91313	0.9923	-14.70607	0.9923	-14.70607	0.06875	-102.91313
1290	0.06907	-103.47703	0.99063	-15.07741	0.99063	-15.07741	0.06907	-103.47703
1310	0.06969	-104.29438	0.99242	-15.29434	0.99242	-15.29434	0.06969	-104.29438
1330	0.07073	-105.37635	0.99618	-15.40667	0.99618	-15.40667	0.07073	-105.37635
1350	0.07219	-106.93356	0.99431	-15.81592	0.99431	-15.81592	0.07219	-106.93356
1370	0.07381	-107.86645	0.99403	-16.06642	0.99403	-16.06642	0.07381	-107.86645
1390	0.07584	-108.45717	0.9937	-16.25209	0.9937	-16.25209	0.07584	-108.45717
1410	0.0779	-108.80657	0.99317	-16.4961	0.99317	-16.4961	0.0779	-108.80657
1430	0.07983	-109.0621	0.9925	-16.75737	0.9925	-16.75737	0.07983	-109.0621
1450	0.08172	-109.41778	0.99202	-16.83059	0.99202	-16.83059	0.08172	-109.41778
1470	0.08373	-109.46	0.99395	-17.04106	0.99395	-17.04106	0.08373	-109.46
1490	0.08507	-109.49727	0.99424	-17.46192	0.99424	-17.46192	0.08507	-109.49727
1510	0.08621	-109.43672	0.99379	-17.75349	0.99379	-17.75349	0.08621	-109.43672
1530	0.08734	-109.37606	0.99341	-17.90613	0.99341	-17.90613	0.08734	-109.37606
1550	0.08837	-109.60358	0.99391	-18.24024	0.99391	-18.24024	0.08837	-109.60358
1570	0.08968	-110.09907	0.99178	-18.45179	0.99178	-18.45179	0.08968	-110.09907
1590	0.09082	-110.92056	0.99084	-18.70164	0.99084	-18.70164	0.09082	-110.92056
1610	0.09231	-111.58451	0.99124	-18.91493	0.99124	-18.91493	0.09231	-111.58451
1630	0.09433	-111.97473	0.99195	-19.09313	0.99195	-19.09313	0.09433	-111.97473
1650	0.0968	-112.34231	0.99069	-19.31403	0.99069	-19.31403	0.0968	-112.34231
1670	0.09868	-112.30715	0.99052	-19.60677	0.99052	-19.60677	0.09868	-112.30715
1690	0.10035	-112.04449	0.99028	-19.78073	0.99028	-19.78073	0.10035	-112.04449
1710	0.10157	-111.85301	0.99054	-20.01571	0.99054	-20.01571	0.10157	-111.85301
1730	0.10234	-111.91352	0.99077	-20.32304	0.99077	-20.32304	0.10234	-111.91352
1750	0.10291	-112.28887	0.98938	-20.5457	0.98938	-20.5457	0.10291	-112.28887
1770	0.10353	-113.00823	0.9912	-20.91059	0.9912	-20.91059	0.10353	-113.00823
1790	0.1051	-113.54901	0.99083	-21.04521	0.99083	-21.04521	0.1051	-113.54901
1810	0.10714	-114.02981	0.98896	-21.1903	0.98896	-21.1903	0.10714	-114.02981
1830	0.10944	-114.39588	0.98792	-21.43468	0.98792	-21.43468	0.10944	-114.39588
1850	0.11208	-114.4191	0.99167	-21.7153	0.99167	-21.7153	0.11208	-114.4191
1870	0.1139	-114.22614	0.99043	-22.00587	0.99043	-22.00587	0.1139	-114.22614
1890	0.11492	-113.8962	0.9906	-22.21699	0.9906	-22.21699	0.11492	-113.8962
1910	0.11579	-113.66485	0.99059	-22.36522	0.99059	-22.36522	0.11579	-113.66485
1930	0.11656	-113.67333	0.99027	-22.55169	0.99027	-22.55169	0.11656	-113.67333
1950	0.11667	-113.96858	0.99097	-22.96204	0.99097	-22.96204	0.11667	-113.96858
1970	0.11708	-114.68157	0.98837	-23.16448	0.98837	-23.16448	0.11708	-114.68157
1990	0.11851	-115.39372	0.98612	-23.38951	0.98612	-23.38951	0.11851	-115.39372
2010	0.12031	-115.94278	0.98705	-23.67548	0.98705	-23.67548	0.12031	-115.94278
2030	0.12221	-116.26219	0.98955	-23.96676	0.98955	-23.96676	0.12221	-116.26219
2050	0.12436	-116.38113	0.98758	-24.11368	0.98758	-24.11368	0.12436	-116.38113
2070	0.12578	-116.28896	0.9881	-24.39817	0.9881	-24.39817	0.12578	-116.28896
2090	0.12708	-116.36733	0.98514	-24.66182	0.98514	-24.66182	0.12708	-116.36733
2110	0.12798	-116.65144	0.98442	-25.01399	0.98442	-25.01399	0.12798	-116.65144
2130	0.12865	-117.04196	0.98637	-25.34029	0.98637	-25.34029	0.12865	-117.04196
2150	0.12973	-117.30498	0.98615	-25.30257	0.98615	-25.30257	0.12973	-117.30498
2170	0.13071	-117.84767	0.98803	-25.69171	0.98803	-25.69171	0.13071	-117.84767
2190	0.13262	-118.36932	0.98613	-25.91485	0.98613	-25.91485	0.13262	-118.36932
2210	0.13516	-118.78879	0.98504	-26.10882	0.98504	-26.10882	0.13516	-118.78879
2230	0.13747	-119.09266	0.98564	-26.33517	0.98564	-26.33517	0.13747	-119.09266
2250	0.13816	-119.33518	0.98506	-26.58013	0.98506	-26.58013	0.13816	-119.33518
2270	0.13944	-119.28522	0.98358	-26.72522	0.98358	-26.72522	0.13944	-119.28522
2290	0.14154	-119.30392	0.98562	-27.18164	0.98562	-27.18164	0.14154	-119.30392
2310	0.14299	-119.53362	0.98575	-27.51428	0.98575	-27.51428	0.14299	-119.53362
2330	0.14382	-119.88609	0.98319	-27.65705	0.98319	-27.65705	0.14382	-119.88609
2350	0.14552	-120.04259	0.98177	-27.91283	0.98177	-27.91283	0.14552	-120.04259
2370	0.14736	-120.26424	0.98171	-28.15706	0.98171	-28.15706	0.14736	-120.26424
2390	0.14947	-120.72046	0.98318	-28.50993	0.98318	-28.50993	0.14947	-120.72046
2410	0.15155	-120.97731	0.98288	-28.70408	0.98288	-28.70408	0.15155	-120.97731
2430	0.15338	-121.00615	0.98154	-28.78463	0.98154	-28.78463	0.15338	-121.00615
2450	0.15483	-121.18358	0.98389	-29.10915	0.98389	-29.10915	0.15483	-121.18358
2470	0.15621	-121.51994	0.98488	-29.39459	0.98488	-29.39459	0.15621	-121.51994
2490	0.15809	-121.69423	0.98155	-29.57204	0.98155	-29.57204	0.15809	-121.69423
2510	0.15975	-121.92835	0.98035	-29.70826	0.98035	-29.70826	0.15975	-121.92835
2530	0.16127	-122.23206	0.98175	-29.93546	0.98175	-29.93546	0.16127	-122.23206
2550	0.16353	-122.40292	0.98025	-30.45135	0.98025	-30.45135	0.16353	-122.40292
2570	0.16597	-122.34837	0.982	-30.52161	0.982	-30.52161	0.16597	-122.34837
2590	0.16785	-122.35615	0.98183	-30.81299	0.98183	-30.81299	0.16785	-122.35615
2610	0.16872	-122.58707	0.98209	-31.17731	0.98209	-31.17731	0.16872	-122.58707
2630	0.16928	-122.88862	0.9818	-31.48692	0.9818	-31.48692	0.16928	-122.88862
2650	0.17135	-122.795	0.97656	-31.63472	0.97656	-31.63472	0.17135	-122.795
2670	0.17327	-122.75855	0.97799	-31.79485	0.97799	-31.79485	0.17327	-122.75855
2690	0.17517	-123.01767	0.97795	-32.16103	0.97795	-32.16103	0.17517	-123.01767
2710	0.17714	-123.21913	0.97762	-32.42066	0.97762	-32.42066	0.17714	-123.21913
2730	0.17893	-123.29387	0.97796	-32.59231	0.97796	-32.59231	0.17893	-123.29387
2750	0.17996	-123.45696	0.97967	-33.02574	0.97967	-33.02574	0.17996	-123.45696
2770	0.17985	-123.80202	0.97696	-33.27982	0.97696	-33.27982	0.17985	-123.80202
2790	0.18171	-123.70892	0.97814	-33.49404	0.97814	-33.49404	0.18171	-123.70892
2810	0.18379	-123.82045	0.97836	-33.79199	0.97836	-33.79199	0.18379	-123.82045
2830	0.18508	-124.16068	0.97655	-34.14721	0.97655	-34.14721	0.18508	-124.16068
2850	0.18529	-124.13501	0.97542	-34.38315	0.97542	-34.38315	0.18529	-124.13501
2870	0.18663	-124.64961	0.9754	-34.35611	0.9754	-34.35611	0.18663	-124.64961
2890	0.18886	-124.99015	0.97202	-34.64783	0.97202	-34.64783	0.18886	-124.99015
2910	0.19119	-125.22707	0.97218	-35.01993	0.97218	-35.01993	0.19119	-125.22707
2930	0.19368	-125.30423	0.97529	-35.29132	0.97529	-35.29132	0.19368	-125.30423
2950	0.19723	-125.03887	0.97319	-35.33821	0.97319	-35.33821	0.19723	-125.03887
2970	0.19882	-125.13916	0.97434	-35.69433	0.97434	-35.69433	0.19882	-125.13916
2990	0.19929	-125.04172	0.97394	-36.01756	0.97394	-36.01756	0.19929	-125.04172
3010	0.19968	-125.05828	0.97406	-36.13637	0.97406	-36.13637	0.19968	-125.05828
3030	0.20062	-125.4018	0.97437	-36.20224	0.97437	-36.20224	0.20062	-125.4018
3050	0.20239	-126.18649	0.9721	-36.68967	0.9721	-36.68967	0.20239	-126.18649
3070	0.2033	-126.75933	0.968	-37.22126	0.968	-37.22126	0.2033	-126.75933
3090	0.20573	-126.90068	0.97134	-37.34251	0.97134	-37.34251	0.20573	-126.90068
3110	0.20879	-126.89093	0.97273	-37.44199	0.97273	-37.44199	0.20879	-126.89093
3130	0.21166	-126.83494	0.97017	-37.68011	0.97017	-37.68011	0.21166	-126.83494
3150	0.21362	-126.66199	0.96901	-37.98909	0.96901	-37.98909	0.21362	-126.66199
3170	0.21406	-126.66764	0.96871	-38.18646	0.96871	-38.18646	0.21406	-126.66764
3190	0.21487	-126.68774	0.96713	-38.31332	0.96713	-38.31332	0.21487	-126.68774
3210	0.21656	-126.88625	0.96757	-38.58024	0.96757	-38.58024	0.21656	-126.88625
3230	0.21866	-127.24469	0.96868	-38.92801	0.96868	-38.92801	0.21866	-127.24469
3250	0.21979	-127.56204	0.96439	-39.02763	0.96439	-39.02763	0.21979	-127.56204
3270	0.22333	-128.37108	0.97083	-39.68663	0.97083	-39.68663	0.22333	-128.37108
3290	0.22565	-128.57967	0.96884	-39.8699	0.96884	-39.8699	0.22565	-128.57967
3310	0.22809	-128.49143	0.96594	-39.90947	0.96594	-39.90947	0.22809	-128.49143
3330	0.23108	-128.2898	0.96682	-40.03136	0.96682	-40.03136	0.23108	-128.2898
3350	0.23411	-128.03809	0.97327	-40.35557	0.97327	-40.35557	0.23411	-128.03809
3370	0.23416	-128.26492	0.96483	-40.70534	0.96483	-40.70534	0.23416	-128.26492
3390	0.23501	-128.47724	0.9641	-40.96219	0.9641	-40.96219	0.23501	-128.47724
3410	0.23654	-128.66667	0.96377	-41.14011	0.96377	-41.14011	0.23654	-128.66667
3430	0.23845	-128.88278	0.96217	-41.3382	0.96217	-41.3382	0.23845	-128.88278
3450	0.24031	-129.23309	0.9633	-41.74072	0.9633	-41.74072	0.24031	-129.23309
3470	0.24165	-129.43758	0.96201	-42.12463	0.96201	-42.12463	0.24165	-129.43758
3490	0.24392	-129.41533	0.96434	-42.35355	0.96434	-42.35355	0.24392	-129.41533
3510	0.24604	-129.4385	0.96528	-42.53086	0.96528	-42.53086	0.24604	-129.4385
3530	0.24757	-129.55063	0.96383	-42.6801	0.96383	-42.6801	0.24757	-129.55063
3550	0.24875	-129.56662	0.96305	-42.745	0.96305	-42.745	0.24875	-129.56662
3570	0.24943	-130.02902	0.96187	-43.0922	0.96187	-43.0922	0.24943	-130.02902
3590	0.25059	-130.21278	0.96195	-43.3787	0.96195	-43.3787	0.25059	-130.21278
3610	0.25241	-130.3062	0.96187	-43.63791	0.96187	-43.63791	0.25241	-130.3062
3630	0.25476	-130.47462	0.96121	-43.90973	0.96121	-43.90973	0.25476	-130.47462
3650	0.25724	-130.86045	0.96053	-44.24053	0.96053	-44.24053	0.25724	-130.86045
3670	0.25854	-130.91013	0.95983	-44.3915	0.95983	-44.3915	0.25854	-130.91013
3690	0.25964	-130.94894	0.95906	-44.64401	0.95906	-44.64401	0.25964	-130.94894
3710	0.26074	-131.20858	0.95759	-44.98768	0.95759	-44.98768	0.26074	-131.20858
3730	0.2619	-131.59226	0.95606	-45.33597	0.95606	-45.33597	0.2619	-131.59226
3750	0.26302	-131.67467	0.95632	-45.5262	0.95632	-45.5262	0.26302	-131.67467
3770	0.26504	-132.00771	0.95685	-45.73471	0.95685	-45.73471	0.26504	-132.00771
3790	0.26779	-132.08634	0.95759	-45.97918	0.95759	-45.97918	0.26779	-132.08634
3810	0.26963	-132.39481	0.95573	-46.2025	0.95573	-46.2025	0.26963	-132.39481
3830	0.27082	-132.86157	0.95279	-46.44037	0.95279	-46.44037	0.27082	-132.86157
3850	0.27355	-132.85933	0.95463	-46.8213	0.95463	-46.8213	0.27355	-132.85933
3870	0.27472	-132.93329	0.95389	-46.95243	0.95389	-46.95243	0.27472	-132.93329
3890	0.27661	-132.95819	0.95563	-47.1449	0.95563	-47.1449	0.27661	-132.95819
3910	0.27748	-133.16188	0.95579	-47.43404	0.95579	-47.43404	0.27748	-133.16188
3930	0.27756	-133.55119	0.95395	-47.77345	0.95395	-47.77345	0.27756	-133.55119
3950	0.27899	-133.91197	0.9533	-48.03501	0.9533	-48.03501	0.27899	-133.91197
3970	0.28197	-134.10364	0.95168	-48.15058	0.95168	-48.15058	0.28197	-134.10364
3990	0.28391	-134.43263	0.94936	-48.38264	0.94936	-48.38264	0.28391	-134.43263
4010	0.28582	-134.66191	0.94858	-48.60966	0.94858	-48.60966	0.28582	-134.66191
4030	0.28787	-134.75972	0.94981	-48.82248	0.94981	-48.82248	0.28787	-134.75972
4050	0.28941	-134.8996	0.95173	-49.12431	0.95173	-49.12431	0.28941	-134.8996
4070	0.29014	-135.1196	0.95119	-49.73069	0.95119	-49.73069	0.29014	-135.1196
4090	0.29088	-135.61749	0.94769	-49.96586	0.94769	-49.96586	0.29088	-135.61749
4110	0.29182	-135.98531	0.94648	-50.07267	0.94648	-50.07267	0.29182	-135.98531
4130	0.29299	-136.16154	0.94776	-50.19509	0.94776	-50.19509	0.29299	-136.16154
4150	0.29421	-136.4311	0.9467	-50.37817	0.9467	-50.37817	0.29421	-136.4311
4170	0.297	-136.71846	0.94459	-50.9062	0.94459	-50.9062	0.297	-136.71846
4190	0.2995	-136.87336	0.94602	-51.12099	0.94602	-51.12099	0.2995	-136.87336
4210	0.30111	-137.03195	0.94698	-51.26255	0.94698	-51.26255	0.30111	-137.03195
4230	0.30199	-137.20235	0.946	-51.44317	0.946	-51.44317	0.30199	-137.20235
4250	0.30308	-137.26469	0.9442	-51.64734	0.9442	-51.64734	0.30308	-137.26469
4270	0.30326	-137.31879	0.94346	-51.94403	0.94346	-51.94403	0.30326	-137.31879
4290	0.3041	-138.05047	0.94353	-52.44677	0.94353	-52.44677	0.3041	-138.05047
4310	0.30502	-138.69334	0.94371	-52.82334	0.94371	-52.82334	0.30502	-138.69334
4330	0.30665	-139.07795	0.94533	-53.06539	0.94533	-53.06539	0.30665	-139.07795
4350	0.31078	-139.63182	0.95171	-53.48837	0.95171	-53.48837	0.31078	-139.63182
4370	0.31183	-139.84519	0.94374	-53.57458	0.94374	-53.57458	0.31183	-139.84519
4390	0.31412	-139.8753	0.94142	-53.69796	0.94142	-53.69796	0.31412	-139.8753
4410	0.31567	-139.9486	0.94119	-53.90587	0.94119	-53.90587	0.31567	-139.9486
4430	0.31601	-140.15983	0.94103	-54.1746	0.94103	-54.1746	0.31601	-140.15983
4450	0.31613	-140.47204	0.94045	-54.40937	0.94045	-54.40937	0.31613	-140.47204
4470	0.31939	-140.88342	0.94262	-54.7981	0.94262	-54.7981	0.31939	-140.88342
4490	0.31988	-141.24783	0.9394	-55.04244	0.9394	-55.04244	0.31988	-141.24783
4510	0.32192	-141.39913	0.93821	-55.12877	0.93821	-55.12877	0.32192	-141.39913
4530	0.32573	-141.57521	0.93995	-55.25472	0.93995	-55.25472	0.32573	-141.57521
4550	0.32752	-142.4179	0.93895	-55.82908	0.93895	-55.82908	0.32752	-142.4179
4570	0.32704	-142.68215	0.93435	-55.84209	0.93435	-55.84209	0.32704	-142.68215
4590	0.32882	-142.91092	0.93965	-56.05536	0.93965	-56.05536	0.32882	-142.91092
4610	0.33041	-143.12032	0.94184	-56.4154	0.94184	-56.4154	0.33041	-143.12032
4630	0.33148	-143.4243	0.93765	-56.82294	0.93765	-56.82294	0.33148	-143.4243
4650	0.33386	-144.03462	0.93348	-57.13287	0.93348	-57.13287	0.33386	-144.03462
4670	0.33477	-144.01879	0.93377	-57.19618	0.93377	-57.19618	0.33477	-144.01879
4690	0.33598	-144.42715	0.93203	-57.45171	0.93203	-57.45171	0.33598	-144.42715
4710	0.33721	-144.81178	0.93093	-57.76618	0.93093	-57.76618	0.33721	-144.81178
4730	0.33868	-145.10226	0.93115	-58.06523	0.93115	-58.06523	0.33868	-145.10226
4750	0.34119	-145.60563	0.93132	-58.33334	0.93132	-58.33334	0.34119	-145.60563
4770	0.34187	-145.77264	0.92936	-58.39152	0.92936	-58.39152	0.34187	-145.77264
4790	0.34349	-146.15142	0.93125	-58.84281	0.93125	-58.84281	0.34349	-146.15142
4810	0.34505	-146.49907	0.93169	-59.19677	0.93169	-59.19677	0.34505	-146.49907
4830	0.34653	-146.77562	0.93044	-59.36103	0.93044	-59.36103	0.34653	-146.77562
4850	0.34887	-147.14401	0.93235	-59.64124	0.93235	-59.64124	0.34887	-147.14401
4870	0.35133	-147.45017	0.92923	-59.82157	0.92923	-59.82157	0.35133	-147.45017
4890	0.35206	-147.76893	0.92809	-59.97926	0.92809	-59.97926	0.35206	-147.76893
4910	0.35296	-148.11537	0.92753	-60.17582	0.92753	-60.17582	0.35296	-148.11537
4930	0.35477	-148.46229	0.92674	-60.47361	0.92674	-60.47361	0.35477	-148.46229
4950	0.357	-148.74016	0.92554	-60.93585	0.92554	-60.93585	0.357	-148.74016
4970	0.35589	-148.90451	0.92339	-60.82011	0.92339	-60.82011	0.35589	-148.90451
4990	0.35801	-149.2569	0.92782	-61.23292	0.92782	-61.23292	0.35801	-149.2569
5010	0.35988	-149.78625	0.92677	-61.753	0.92677	-61.753	0.35988	-149.78625
5030	0.36063	-150.32144	0.92039	-62.06612	0.92039	-62.06612	0.36063	-150.32144
5050	0.36197	-150.53133	0.92103	-61.96515	0.92103	-61.96515	0.36197	-150.53133
5070	0.36508	-150.93091	0.92336	-62.34471	0.92336	-62.34471	0.36508	-150.93091
