!{R05L2R2}
!Johanson Technology Inc.
!www.johansontechnology.com
!Test Board Conditions:
!Substrate Type  RO4350B
!Substrate Thickness        10 mil
!Substrate Dk      3.66
!TL Type: GCPW 
!TL Trace Width  22 mil
!TL Gap  25 mil
!Electrode orientation      Horizontal
!DUT TOPOLOGY	SERIES
!Mounting Pad LxW         11x14.5 mil
! Created Wed Nov 25 17:33:21 2020
! 2 Port Network Data from SP1.SP block
! freq  magS11  angS11  magS21  angS21  magS12  angS12  magS22  angS22  
! 
# khz S ma R 50     
   3.000000e+02   9.999980e-01   -3.250000e-01    4.431895e-04    8.772700e+01    4.198938e-04    9.010100e+01    9.998200e-01   -3.120000e-01
   1.300000e+03   9.999812e-01   -1.610000e-01    1.835236e-03    8.789500e+01    1.848170e-03    8.897300e+01    9.998661e-01   -1.390000e-01
   2.300000e+03   9.999876e-01   -3.650000e-01    3.240813e-03    9.052900e+01    3.212950e-03    8.986100e+01    9.998136e-01   -3.250000e-01
   3.300000e+03   9.999880e-01   -4.540000e-01    4.609935e-03    8.934700e+01    4.640821e-03    8.963300e+01    9.991824e-01   -4.440000e-01
   4.300000e+03   9.999805e-01   -5.310000e-01    6.038673e-03    8.967500e+01    6.028948e-03    8.908300e+01    9.995201e-01   -5.210000e-01
   5.300000e+03   9.999710e-01   -6.250000e-01    7.379678e-03    8.939800e+01    7.404358e-03    8.962900e+01    9.992805e-01   -6.110000e-01
   6.300000e+03   9.999283e-01   -6.800000e-01    8.802760e-03    8.921200e+01    8.843391e-03    8.909100e+01    9.999283e-01   -6.990000e-01
   7.300000e+03   9.999447e-01   -7.800000e-01    1.016192e-02    8.903400e+01    1.021941e-02    8.924700e+01    9.994869e-01   -7.510000e-01
   8.300000e+03   9.999299e-01   -8.770000e-01    1.163776e-02    8.899100e+01    1.166056e-02    8.913300e+01    9.995749e-01   -8.300000e-01
   9.300000e+03   9.999045e-01   -9.570000e-01    1.298822e-02    8.876700e+01    1.304817e-02    8.900100e+01    9.996477e-01   -9.120000e-01
   1.030000e+04   9.998747e-01   -9.610000e-01    1.440290e-02    8.886200e+01    1.446439e-02    8.897700e+01    9.997608e-01   -9.590000e-01
   1.130000e+04   9.983895e-01   -1.001000e+00    1.575252e-02    8.887500e+01    1.579610e-02    8.899100e+01    9.982746e-01   -9.810000e-01
   1.230000e+04   9.980447e-01   -1.032000e+00    1.721076e-02    8.879900e+01    1.724249e-02    8.893100e+01    9.980447e-01   -1.037000e+00
   1.330000e+04   9.980447e-01   -1.122000e+00    1.851825e-02    8.888400e+01    1.859516e-02    8.901300e+01    9.977001e-01   -1.086000e+00
   1.430000e+04   9.978149e-01   -1.204000e+00    1.992049e-02    8.864900e+01    2.004472e-02    8.873000e+01    9.975852e-01   -1.201000e+00
   1.530000e+04   9.980447e-01   -1.260000e+00    2.132308e-02    8.861100e+01    2.147830e-02    8.871700e+01    9.982746e-01   -1.288000e+00
   1.630000e+04   9.983895e-01   -1.376000e+00    2.267775e-02    8.871000e+01    2.284021e-02    8.858400e+01    9.981596e-01   -1.359000e+00
   1.730000e+04   9.987344e-01   -1.479000e+00    2.411571e-02    8.849700e+01    2.423260e-02    8.857700e+01    9.983895e-01   -1.471000e+00
   1.830000e+04   9.994083e-01   -1.577000e+00    2.549471e-02    8.835500e+01    2.563894e-02    8.841800e+01    9.992441e-01   -1.570000e+00
   1.930000e+04   9.995554e-01   -1.712000e+00    2.693395e-02    8.823400e+01    2.709880e-02    8.817200e+01    9.993711e-01   -1.691000e+00
   2.030000e+04   9.995856e-01   -1.807000e+00    2.829032e-02    8.815600e+01    2.845037e-02    8.814500e+01    9.989184e-01   -1.773000e+00
   2.130000e+04   9.995194e-01   -1.911000e+00    2.968788e-02    8.805000e+01    2.984209e-02    8.805400e+01    9.993685e-01   -1.870000e+00
   2.230000e+04   9.994004e-01   -1.984000e+00    3.110458e-02    8.799800e+01    3.121220e-02    8.798800e+01    9.994866e-01   -1.987000e+00
   2.330000e+04   9.989807e-01   -2.086000e+00    3.253064e-02    8.779500e+01    3.266951e-02    8.781300e+01    9.994472e-01   -2.058000e+00
   2.430000e+04   9.992488e-01   -2.165000e+00    3.393577e-02    8.770700e+01    3.401792e-02    8.780600e+01    9.993925e-01   -2.127000e+00
   2.530000e+04   9.989918e-01   -2.247000e+00    3.531912e-02    8.774000e+01    3.547398e-02    8.775200e+01    9.993556e-01   -2.201000e+00
   2.630000e+04   9.992565e-01   -2.291000e+00    3.662644e-02    8.758500e+01    3.687608e-02    8.766500e+01    9.990451e-01   -2.288000e+00
   2.730000e+04   9.992215e-01   -2.387000e+00    3.804729e-02    8.746300e+01    3.826253e-02    8.747100e+01    9.987836e-01   -2.345000e+00
   2.830000e+04   9.992018e-01   -2.465000e+00    3.951205e-02    8.751600e+01    3.967615e-02    8.746900e+01    9.985761e-01   -2.440000e+00
   2.930000e+04   9.991355e-01   -2.556000e+00    4.089942e-02    8.737400e+01    4.108347e-02    8.740800e+01    9.986744e-01   -2.521000e+00
   3.030000e+04   9.986431e-01   -2.604000e+00    4.224354e-02    8.730600e+01    4.247763e-02    8.736700e+01    9.990639e-01   -2.566000e+00
   3.130000e+04   9.988733e-01   -2.679000e+00    4.364153e-02    8.729300e+01    4.385307e-02    8.735200e+01    9.988551e-01   -2.637000e+00
   3.230000e+04   9.989617e-01   -2.757000e+00    4.502719e-02    8.710000e+01    4.519859e-02    8.722700e+01    9.983317e-01   -2.738000e+00
   3.330000e+04   9.979642e-01   -2.814000e+00    4.642105e-02    8.711300e+01    4.662995e-02    8.713300e+01    9.989008e-01   -2.802000e+00
   3.430000e+04   9.987493e-01   -2.925097e+00    4.781205e-02    8.699887e+01    4.808797e-02    8.699085e+01    9.985889e-01   -2.889101e+00
   3.530000e+04   9.987317e-01   -3.022078e+00    4.922397e-02    8.686901e+01    4.941145e-02    8.683601e+01    9.983121e-01   -2.990091e+00
   3.630000e+04   9.982751e-01   -3.100088e+00    5.053737e-02    8.688286e+01    5.083490e-02    8.684791e+01    9.982751e-01   -3.081056e+00
   3.730000e+04   9.984973e-01   -3.188092e+00    5.198863e-02    8.673893e+01    5.222264e-02    8.675394e+01    9.984970e-01   -3.137114e+00
   3.830000e+04   9.982539e-01   -3.280092e+00    5.337060e-02    8.666594e+01    5.366637e-02    8.669393e+01    9.984871e-01   -3.251081e+00
   3.930000e+04   9.983742e-01   -3.372044e+00    5.473372e-02    8.660186e+01    5.505594e-02    8.662181e+01    9.982583e-01   -3.332065e+00
   4.030000e+04   9.983797e-01   -3.416139e+00    5.619430e-02    8.646298e+01    5.643410e-02    8.643408e+01    9.973136e-01   -3.397087e+00
   4.130000e+04   9.981794e-01   -3.555087e+00    5.760619e-02    8.644497e+01    5.776564e-02    8.651184e+01    9.982924e-01   -3.484091e+00
   4.230000e+04   9.982230e-01   -3.642087e+00    5.901055e-02    8.641087e+01    5.922839e-02    8.635182e+01    9.977983e-01   -3.575059e+00
   4.330000e+04   9.977584e-01   -3.729078e+00    6.037884e-02    8.628086e+01    6.063672e-02    8.617488e+01    9.981032e-01   -3.634102e+00
   4.430000e+04   9.974873e-01   -3.807065e+00    6.166206e-02    8.614094e+01    6.206067e-02    8.605211e+01    9.979825e-01   -3.736093e+00
   4.530000e+04   9.971188e-01   -3.872105e+00    6.315476e-02    8.607892e+01    6.333694e-02    8.615679e+01    9.979852e-01   -3.829072e+00
   4.630000e+04   9.977140e-01   -3.977092e+00    6.453056e-02    8.600187e+01    6.485825e-02    8.595100e+01    9.977144e-01   -3.901040e+00
   4.730000e+04   9.973769e-01   -4.069066e+00    6.589742e-02    8.587690e+01    6.620159e-02    8.595391e+01    9.977429e-01   -3.941166e+00
   4.830000e+04   9.976875e-01   -4.135079e+00    6.729536e-02    8.577602e+01    6.760594e-02    8.586281e+01    9.968431e-01   -4.107075e+00
   4.930000e+04   9.971521e-01   -4.214104e+00    6.863098e-02    8.579079e+01    6.891618e-02    8.567597e+01    9.975741e-01   -4.182097e+00
   5.030000e+04   9.973278e-01   -4.318082e+00    7.003202e-02    8.557997e+01    7.048487e-02    8.564784e+01    9.972126e-01   -4.279122e+00
   5.130000e+04   9.973662e-01   -4.400135e+00    7.143540e-02    8.554492e+01    7.178162e-02    8.548298e+01    9.967929e-01   -4.401030e+00
   5.230000e+04   9.970889e-01   -4.535093e+00    7.286879e-02    8.546782e+01    7.318844e-02    8.546188e+01    9.972034e-01   -4.431114e+00
   5.330000e+04   9.970470e-01   -4.628030e+00    7.415225e-02    8.528697e+01    7.463176e-02    8.534300e+01    9.968182e-01   -4.545065e+00
   5.430000e+04   9.965842e-01   -4.658143e+00    7.560001e-02    8.526092e+01    7.597529e-02    8.534287e+01    9.970434e-01   -4.610090e+00
   5.530000e+04   9.963460e-01   -4.801085e+00    7.694281e-02    8.517689e+01    7.742255e-02    8.520895e+01    9.969202e-01   -4.700107e+00
   5.630000e+04   9.958427e-01   -4.886073e+00    7.829754e-02    8.506685e+01    7.868617e-02    8.515984e+01    9.968739e-01   -4.807076e+00
   5.730000e+04   9.965700e-01   -4.959051e+00    7.968310e-02    8.491802e+01    8.013373e-02    8.499597e+01    9.964551e-01   -4.883106e+00
   5.830000e+04   9.965949e-01   -5.010172e+00    8.123175e-02    8.493790e+01    8.153161e-02    8.496486e+01    9.963657e-01   -4.989128e+00
   5.930000e+04   9.963978e-01   -5.182012e+00    8.255425e-02    8.483886e+01    8.289725e-02    8.482886e+01    9.963974e-01   -5.117042e+00
   6.030000e+04   9.962828e-01   -5.194136e+00    8.381855e-02    8.470089e+01    8.429261e-02    8.468888e+01    9.959393e-01   -5.159127e+00
   6.130000e+04   9.959598e-01   -5.330075e+00    8.524113e-02    8.458698e+01    8.559523e-02    8.457195e+01    9.961887e-01   -5.286036e+00
   6.230000e+04   9.960479e-01   -5.405060e+00    8.670360e-02    8.456990e+01    8.713380e-02    8.452086e+01    9.958194e-01   -5.322127e+00
   6.330000e+04   9.954375e-01   -5.465060e+00    8.802804e-02    8.447394e+01    8.837325e-02    8.438504e+01    9.960096e-01   -5.449019e+00
   6.430000e+04   9.958908e-01   -5.525139e+00    8.949905e-02    8.440993e+01    8.980887e-02    8.441991e+01    9.954328e-01   -5.468126e+00
   6.530000e+04   9.955295e-01   -5.664099e+00    9.084700e-02    8.433786e+01    9.132926e-02    8.433381e+01    9.956440e-01   -5.594080e+00
   6.630000e+04   9.954727e-01   -5.763064e+00    9.219042e-02    8.420095e+01    9.254149e-02    8.413895e+01    9.954720e-01   -5.674032e+00
   6.730000e+04   9.954683e-01   -5.827103e+00    9.355876e-02    8.415186e+01    9.405539e-02    8.408798e+01    9.947820e-01   -5.706120e+00
   6.830000e+04   9.949118e-01   -5.930005e+00    9.501473e-02    8.401599e+01    9.535443e-02    8.406393e+01    9.953706e-01   -5.826049e+00
   6.930000e+04   9.943586e-01   -5.935180e+00    9.634951e-02    8.400778e+01    9.668291e-02    8.399784e+01    9.952748e-01   -5.875138e+00
   7.030000e+04   9.942977e-01   -6.115046e+00    9.777387e-02    8.379301e+01    9.815714e-02    8.384099e+01    9.950991e-01   -6.013051e+00
   7.130000e+04   9.944419e-01   -6.161033e+00    9.922810e-02    8.380292e+01    9.941130e-02    8.382785e+01    9.950140e-01   -6.064127e+00
   7.230000e+04   9.946339e-01   -6.194107e+00    1.004429e-01    8.372593e+01    1.008834e-01    8.368295e+01    9.946335e-01   -6.191071e+00
   7.330000e+04   9.945957e-01   -6.301059e+00    1.018012e-01    8.365890e+01    1.023534e-01    8.363285e+01    9.942522e-01   -6.262082e+00
   7.430000e+04   9.944403e-01   -6.360156e+00    1.032250e-01    8.355781e+01    1.036655e-01    8.347898e+01    9.940978e-01   -6.344099e+00
   7.530000e+04   9.938264e-01   -6.516087e+00    1.046323e-01    8.336799e+01    1.049341e-01    8.345385e+01    9.943982e-01   -6.443070e+00
   7.630000e+04   9.939632e-01   -6.603005e+00    1.059196e-01    8.336091e+01    1.064207e-01    8.330802e+01    9.940781e-01   -6.513060e+00
   7.730000e+04   9.934818e-01   -6.608111e+00    1.073163e-01    8.327498e+01    1.078115e-01    8.333188e+01    9.940538e-01   -6.573102e+00
   7.830000e+04   9.933994e-01   -6.719100e+00    1.087624e-01    8.325181e+01    1.091138e-01    8.321492e+01    9.939708e-01   -6.675067e+00
   7.930000e+04   9.935347e-01   -6.819070e+00    1.100498e-01    8.305795e+01    1.105958e-01    8.313985e+01    9.935358e-01   -6.742106e+00
   8.030000e+04   9.926155e-01   -6.889053e+00    1.114772e-01    8.300497e+01    1.118759e-01    8.298795e+01    9.936437e-01   -6.848062e+00
   8.130000e+04   9.931957e-01   -6.942091e+00    1.128340e-01    8.297595e+01    1.133027e-01    8.294094e+01    9.933107e-01   -6.910042e+00
   8.230000e+04   9.924986e-01   -7.033093e+00    1.141263e-01    8.292392e+01    1.146925e-01    8.288588e+01    9.932986e-01   -6.952128e+00
   8.330000e+04   9.924789e-01   -7.126069e+00    1.156314e-01    8.284784e+01    1.160584e-01    8.276692e+01    9.931640e-01   -7.080080e+00
   8.430000e+04   9.926822e-01   -7.195139e+00    1.168196e-01    8.268893e+01    1.174804e-01    8.268789e+01    9.926824e-01   -7.160057e+00
   8.530000e+04   9.924961e-01   -7.334046e+00    1.182862e-01    8.261693e+01    1.188459e-01    8.257596e+01    9.926120e-01   -7.217088e+00
   8.630000e+04   9.909942e-01   -7.380130e+00    1.195847e-01    8.254590e+01    1.201505e-01    8.253987e+01    9.927057e-01   -7.305097e+00
   8.730000e+04   9.920321e-01   -7.510062e+00    1.209849e-01    8.244694e+01    1.215573e-01    8.241195e+01    9.923757e-01   -7.402071e+00
   8.830000e+04   9.910952e-01   -7.572092e+00    1.223404e-01    8.238586e+01    1.229053e-01    8.235689e+01    9.923503e-01   -7.473107e+00
   8.930000e+04   9.915195e-01   -7.664044e+00    1.236819e-01    8.224999e+01    1.244387e-01    8.224591e+01    9.919748e-01   -7.580041e+00
   9.030000e+04   9.919623e-01   -7.708127e+00    1.251410e-01    8.223687e+01    1.256753e-01    8.216091e+01    9.909354e-01   -7.621126e+00
   9.130000e+04   9.917255e-01   -7.835076e+00    1.264436e-01    8.211191e+01    1.270563e-01    8.207491e+01    9.911557e-01   -7.747069e+00
   9.230000e+04   9.911562e-01   -7.911036e+00    1.278929e-01    8.201794e+01    1.283946e-01    8.198794e+01    9.914979e-01   -7.816089e+00
   9.330000e+04   9.912991e-01   -7.947165e+00    1.291990e-01    8.195286e+01    1.297805e-01    8.193181e+01    9.909568e-01   -7.905121e+00
   9.430000e+04   9.910511e-01   -8.112099e+00    1.305270e-01    8.181692e+01    1.312050e-01    8.173800e+01    9.907086e-01   -8.026017e+00
   9.530000e+04   9.909642e-01   -8.211016e+00    1.317993e-01    8.173890e+01    1.324990e-01    8.173994e+01    9.903945e-01   -8.043119e+00
   9.630000e+04   9.906050e-01   -8.227119e+00    1.332617e-01    8.163991e+01    1.338152e-01    8.168190e+01    9.906054e-01   -8.162091e+00
   9.730000e+04   9.902135e-01   -8.346065e+00    1.347203e-01    8.155095e+01    1.352799e-01    8.157884e+01    9.905559e-01   -8.253084e+00
   9.830000e+04   9.897153e-01   -8.411049e+00    1.359767e-01    8.150490e+01    1.366044e-01    8.141703e+01    9.903987e-01   -8.337077e+00
   9.930000e+04   9.899006e-01   -8.460140e+00    1.373713e-01    8.140392e+01    1.379735e-01    8.144788e+01    9.901280e-01   -8.414056e+00
   1.003000e+05   9.899988e-01   -8.600212e+00    1.387373e-01    8.132784e+01    1.392814e-01    8.133076e+01    9.896583e-01   -8.470222e+00
   1.013000e+05   9.895029e-01   -8.706044e+00    1.400476e-01    8.124880e+01    1.405484e-01    8.121084e+01    9.898431e-01   -8.581212e+00
   1.023000e+05   9.896032e-01   -8.728198e+00    1.414391e-01    8.114686e+01    1.420104e-01    8.113078e+01    9.891483e-01   -8.687086e+00
   1.033000e+05   9.892217e-01   -8.827154e+00    1.427751e-01    8.107587e+01    1.434176e-01    8.102190e+01    9.891094e-01   -8.730202e+00
   1.043000e+05   9.885774e-01   -8.904228e+00    1.441183e-01    8.100864e+01    1.447665e-01    8.097285e+01    9.892587e-01   -8.831242e+00
   1.053000e+05   9.889441e-01   -9.018118e+00    1.455559e-01    8.083103e+01    1.460767e-01    8.089680e+01    9.887183e-01   -8.952076e+00
   1.063000e+05   9.881591e-01   -9.077124e+00    1.467859e-01    8.084681e+01    1.474806e-01    8.079689e+01    9.888401e-01   -8.990124e+00
   1.073000e+05   9.884406e-01   -9.139192e+00    1.480673e-01    8.075086e+01    1.488703e-01    8.073973e+01    9.882121e-01   -9.052214e+00
   1.083000e+05   9.884277e-01   -9.235158e+00    1.495386e-01    8.067880e+01    1.501424e-01    8.060683e+01    9.877463e-01   -9.159142e+00
   1.093000e+05   9.879844e-01   -9.314216e+00    1.509063e-01    8.057891e+01    1.515505e-01    8.052386e+01    9.878688e-01   -9.230190e+00
   1.103000e+05   9.880939e-01   -9.422198e+00    1.521796e-01    8.053475e+01    1.528645e-01    8.045169e+01    9.870722e-01   -9.325220e+00
   1.113000e+05   9.876131e-01   -9.521152e+00    1.535486e-01    8.041182e+01    1.542567e-01    8.029795e+01    9.873861e-01   -9.435066e+00
   1.123000e+05   9.873688e-01   -9.597160e+00    1.551086e-01    8.032371e+01    1.555027e-01    8.027481e+01    9.873679e-01   -9.468276e+00
   1.133000e+05   9.872195e-01   -9.677122e+00    1.562507e-01    8.018000e+01    1.570077e-01    8.017787e+01    9.867670e-01   -9.606082e+00
   1.143000e+05   9.865601e-01   -9.738234e+00    1.576451e-01    8.017970e+01    1.582269e-01    8.011282e+01    9.871266e-01   -9.647178e+00
   1.153000e+05   9.867760e-01   -9.855158e+00    1.589377e-01    8.002981e+01    1.594876e-01    8.002186e+01    9.865506e-01   -9.736216e+00
   1.163000e+05   9.860306e-01   -9.934142e+00    1.603422e-01    7.993292e+01    1.608786e-01    7.995188e+01    9.867129e-01   -9.844130e+00
   1.173000e+05   9.854560e-01   -1.000518e+01    1.616381e-01    7.989095e+01    1.622349e-01    7.989169e+01    9.865894e-01   -9.909186e+00
   1.183000e+05   9.858917e-01   -1.009315e+01    1.629248e-01    7.986665e+01    1.636387e-01    7.973696e+01    9.861194e-01   -1.000214e+01
   1.193000e+05   9.854382e-01   -1.016723e+01    1.643373e-01    7.969384e+01    1.648681e-01    7.971569e+01    9.860034e-01   -1.007314e+01
   1.203000e+05   9.856883e-01   -1.028015e+01    1.656522e-01    7.961577e+01    1.663017e-01    7.956193e+01    9.851229e-01   -1.014414e+01
   1.213000e+05   9.850718e-01   -1.035710e+01    1.670030e-01    7.950087e+01    1.675422e-01    7.952790e+01    9.854089e-01   -1.021220e+01
   1.223000e+05   9.854453e-01   -1.040515e+01    1.683025e-01    7.943771e+01    1.688070e-01    7.947978e+01    9.842015e-01   -1.031130e+01
   1.233000e+05   9.845466e-01   -1.048221e+01    1.697238e-01    7.929302e+01    1.702134e-01    7.936990e+01    9.850003e-01   -1.046105e+01
   1.243000e+05   9.842958e-01   -1.058518e+01    1.709357e-01    7.930383e+01    1.716259e-01    7.932187e+01    9.848630e-01   -1.048508e+01
   1.253000e+05   9.838732e-01   -1.067313e+01    1.722842e-01    7.921989e+01    1.729601e-01    7.925780e+01    9.846635e-01   -1.052522e+01
   1.263000e+05   9.843759e-01   -1.073714e+01    1.736075e-01    7.916273e+01    1.744083e-01    7.915684e+01    9.836957e-01   -1.063720e+01
   1.273000e+05   9.842012e-01   -1.080715e+01    1.750816e-01    7.902585e+01    1.756065e-01    7.907483e+01    9.832960e-01   -1.073914e+01
   1.283000e+05   9.838264e-01   -1.088418e+01    1.763297e-01    7.894887e+01    1.769191e-01    7.899188e+01    9.833735e-01   -1.081011e+01
   1.293000e+05   9.836420e-01   -1.097525e+01    1.777231e-01    7.888275e+01    1.781540e-01    7.893069e+01    9.831923e-01   -1.086528e+01
   1.303000e+05   9.823394e-01   -1.110007e+01    1.789031e-01    7.875605e+01    1.796463e-01    7.877492e+01    9.834696e-01   -1.100398e+01
   1.313000e+05   9.825856e-01   -1.113420e+01    1.802711e-01    7.877865e+01    1.810615e-01    7.873290e+01    9.830350e-01   -1.099320e+01
   1.323000e+05   9.829409e-01   -1.123423e+01    1.815242e-01    7.860487e+01    1.823204e-01    7.868072e+01    9.818139e-01   -1.109119e+01
   1.333000e+05   9.817037e-01   -1.134712e+01    1.828041e-01    7.853884e+01    1.837324e-01    7.853884e+01    9.826049e-01   -1.118420e+01
   1.343000e+05   9.823448e-01   -1.140609e+01    1.840858e-01    7.845997e+01    1.849784e-01    7.845692e+01    9.815530e-01   -1.128416e+01
