!{R05L1R9}
!Johanson Technology Inc.
!www.johansontechnology.com
!Test Board Conditions:
!Substrate Type  RO4350B
!Substrate Thickness        10 mil
!Substrate Dk      3.66
!TL Type: GCPW 
!TL Trace Width  22 mil
!TL Gap  25 mil
!Electrode orientation      Horizontal
!DUT TOPOLOGY	SERIES
!Mounting Pad LxW         11x14.5 mil
! Created Wed Nov 25 17:33:21 2020
! 2 Port Network Data from SP1.SP block
! freq  magS11  angS11  magS21  angS21  magS12  angS12  magS22  angS22  
! 
# khz S ma R 50  
   3.000000e+02   9.999980e-01   -3.350000e-01    3.365109e-04    8.283200e+01    3.127153e-04    8.578100e+01    9.988475e-01   -4.260000e-01
   1.300000e+03   9.997667e-01   -1.130000e-01    1.558291e-03    8.941200e+01    1.542583e-03    8.949000e+01    9.999969e-01   -1.180000e-01
   2.300000e+03   9.999949e-01   -2.850000e-01    2.753581e-03    9.004900e+01    2.761200e-03    8.973500e+01    9.996781e-01   -2.940000e-01
   3.300000e+03   9.999911e-01   -3.650000e-01    3.955452e-03    8.996800e+01    3.957730e-03    8.942700e+01    9.996458e-01   -3.810000e-01
   4.300000e+03   9.999844e-01   -4.840000e-01    5.133851e-03    8.954200e+01    5.174796e-03    8.959300e+01    9.996391e-01   -4.780000e-01
   5.300000e+03   9.999787e-01   -5.360000e-01    6.347325e-03    8.930500e+01    6.341482e-03    8.949300e+01    9.996333e-01   -5.230000e-01
   6.300000e+03   9.999497e-01   -6.270000e-01    7.549674e-03    8.924800e+01    7.549674e-03    8.920200e+01    9.999497e-01   -6.080000e-01
   7.300000e+03   9.999255e-01   -6.670000e-01    8.720920e-03    8.923700e+01    8.779348e-03    8.887900e+01    9.998861e-01   -6.650000e-01
   8.300000e+03   9.999442e-01   -7.660000e-01    9.895227e-03    8.908900e+01    9.958084e-03    8.920500e+01    9.997140e-01   -7.360000e-01
   9.300000e+03   9.999336e-01   -7.950000e-01    1.114426e-02    8.909800e+01    1.120602e-02    8.907900e+01    9.994487e-01   -8.010000e-01
   1.030000e+04   9.995815e-01   -7.880000e-01    1.227157e-02    8.901600e+01    1.234099e-02    8.918400e+01    9.993897e-01   -8.040000e-01
   1.130000e+04   9.987344e-01   -8.210000e-01    1.347101e-02    8.886200e+01    1.352851e-02    8.901400e+01    9.987344e-01   -8.280000e-01
   1.230000e+04   9.978149e-01   -8.640000e-01    1.469772e-02    8.898900e+01    1.471804e-02    8.916800e+01    9.978149e-01   -8.720000e-01
   1.330000e+04   9.979298e-01   -9.310000e-01    1.583252e-02    8.895800e+01    1.592759e-02    8.908700e+01    9.979298e-01   -9.400000e-01
   1.430000e+04   9.978149e-01   -9.970000e-01    1.702550e-02    8.890600e+01    1.712774e-02    8.905800e+01    9.978149e-01   -9.940000e-01
   1.530000e+04   9.978149e-01   -1.047000e+00    1.822217e-02    8.897000e+01    1.832314e-02    8.904800e+01    9.981596e-01   -1.046000e+00
   1.630000e+04   9.986194e-01   -1.159000e+00    1.944688e-02    8.880600e+01    1.954114e-02    8.874300e+01    9.987344e-01   -1.154000e+00
   1.730000e+04   9.986194e-01   -1.259000e+00    2.060630e-02    8.865600e+01    2.075152e-02    8.869300e+01    9.990345e-01   -1.243000e+00
   1.830000e+04   9.993879e-01   -1.325000e+00    2.181223e-02    8.854100e+01    2.191038e-02    8.858600e+01    9.991762e-01   -1.338000e+00
   1.930000e+04   9.995381e-01   -1.414000e+00    2.308873e-02    8.842500e+01    2.314462e-02    8.839300e+01    9.996870e-01   -1.439000e+00
   2.030000e+04   9.994889e-01   -1.528000e+00    2.427130e-02    8.832100e+01    2.431885e-02    8.837400e+01    9.996858e-01   -1.506000e+00
   2.130000e+04   9.996694e-01   -1.596000e+00    2.544651e-02    8.832600e+01    2.549343e-02    8.841100e+01    9.995168e-01   -1.594000e+00
   2.230000e+04   9.996038e-01   -1.681000e+00    2.668955e-02    8.823600e+01    2.675415e-02    8.821500e+01    9.995651e-01   -1.682000e+00
   2.330000e+04   9.989655e-01   -1.745000e+00    2.783084e-02    8.817600e+01    2.790785e-02    8.814200e+01    9.996053e-01   -1.760000e+00
   2.430000e+04   9.995683e-01   -1.832000e+00    2.898338e-02    8.809200e+01    2.907361e-02    8.802500e+01    9.990428e-01   -1.840000e+00
   2.530000e+04   9.994261e-01   -1.897000e+00    3.018496e-02    8.804600e+01    3.029985e-02    8.807600e+01    9.995086e-01   -1.896000e+00
   2.630000e+04   9.994930e-01   -1.974000e+00    3.145159e-02    8.802200e+01    3.151683e-02    8.793100e+01    9.992985e-01   -1.956000e+00
   2.730000e+04   9.994482e-01   -2.016000e+00    3.258181e-02    8.786900e+01    3.269831e-02    8.801500e+01    9.992482e-01   -2.020000e+00
   2.830000e+04   9.990625e-01   -2.083000e+00    3.376370e-02    8.786900e+01    3.394689e-02    8.793900e+01    9.993172e-01   -2.081000e+00
   2.930000e+04   9.993698e-01   -2.139000e+00    3.494733e-02    8.775900e+01    3.510864e-02    8.778600e+01    9.987831e-01   -2.144000e+00
   3.030000e+04   9.990134e-01   -2.198000e+00    3.617379e-02    8.775700e+01    3.631566e-02    8.778400e+01    9.993253e-01   -2.199000e+00
   3.130000e+04   9.992675e-01   -2.264000e+00    3.727917e-02    8.768700e+01    3.750302e-02    8.768700e+01    9.988794e-01   -2.267000e+00
   3.230000e+04   9.991430e-01   -2.326000e+00    3.856791e-02    8.756100e+01    3.869244e-02    8.766000e+01    9.991947e-01   -2.306000e+00
   3.330000e+04   9.991515e-01   -2.400000e+00    3.968530e-02    8.752600e+01    3.988225e-02    8.760800e+01    9.990256e-01   -2.407000e+00
   3.430000e+04   9.991000e-01   -2.453097e+00    4.093564e-02    8.750789e+01    4.108682e-02    8.751286e+01    9.990517e-01   -2.471060e+00
   3.530000e+04   9.990432e-01   -2.550070e+00    4.204606e-02    8.740092e+01    4.228878e-02    8.737097e+01    9.988427e-01   -2.531085e+00
   3.630000e+04   9.990072e-01   -2.620033e+00    4.329755e-02    8.731892e+01    4.353246e-02    8.733892e+01    9.987399e-01   -2.616069e+00
   3.730000e+04   9.988435e-01   -2.653090e+00    4.446601e-02    8.723489e+01    4.469700e-02    8.726387e+01    9.988969e-01   -2.685096e+00
   3.830000e+04   9.987399e-01   -2.743085e+00    4.567166e-02    8.712698e+01    4.592992e-02    8.713693e+01    9.988356e-01   -2.781053e+00
   3.930000e+04   9.988367e-01   -2.828068e+00    4.692741e-02    8.710179e+01    4.707354e-02    8.707199e+01    9.987208e-01   -2.834076e+00
   4.030000e+04   9.987447e-01   -2.896050e+00    4.807170e-02    8.688811e+01    4.825459e-02    8.706589e+01    9.986406e-01   -2.910035e+00
   4.130000e+04   9.987552e-01   -2.946119e+00    4.936623e-02    8.699382e+01    4.946882e-02    8.695694e+01    9.984438e-01   -2.945125e+00
   4.230000e+04   9.986597e-01   -3.065095e+00    5.045481e-02    8.681204e+01    5.074015e-02    8.689978e+01    9.982892e-01   -3.070035e+00
   4.330000e+04   9.982778e-01   -3.160068e+00    5.168928e-02    8.685285e+01    5.188014e-02    8.667602e+01    9.986102e-01   -3.105112e+00
   4.430000e+04   9.978951e-01   -3.228012e+00    5.281725e-02    8.670399e+01    5.309167e-02    8.670093e+01    9.985617e-01   -3.217034e+00
   4.530000e+04   9.983054e-01   -3.240111e+00    5.395442e-02    8.669395e+01    5.430319e-02    8.663100e+01    9.983658e-01   -3.251119e+00
   4.630000e+04   9.980241e-01   -3.351048e+00    5.528386e-02    8.664482e+01    5.543066e-02    8.663184e+01    9.984530e-01   -3.370067e+00
   4.730000e+04   9.982741e-01   -3.399111e+00    5.626842e-02    8.646098e+01    5.663229e-02    8.646997e+01    9.980483e-01   -3.437049e+00
   4.830000e+04   9.982238e-01   -3.510095e+00    5.759055e-02    8.643885e+01    5.788960e-02    8.644088e+01    9.980839e-01   -3.486113e+00
   4.930000e+04   9.978596e-01   -3.605064e+00    5.879696e-02    8.629389e+01    5.901413e-02    8.631993e+01    9.982112e-01   -3.599063e+00
   5.030000e+04   9.980051e-01   -3.669050e+00    5.990618e-02    8.618400e+01    6.027283e-02    8.624898e+01    9.979296e-01   -3.662082e+00
   5.130000e+04   9.980573e-01   -3.719121e+00    6.102855e-02    8.618189e+01    6.139491e-02    8.623096e+01    9.975482e-01   -3.744051e+00
   5.230000e+04   9.976598e-01   -3.840022e+00    6.227046e-02    8.607106e+01    6.255070e-02    8.618687e+01    9.979900e-01   -3.795096e+00
   5.330000e+04   9.974641e-01   -3.862081e+00    6.351196e-02    8.613085e+01    6.381257e-02    8.605788e+01    9.979232e-01   -3.891085e+00
   5.430000e+04   9.975581e-01   -3.943109e+00    6.472112e-02    8.598282e+01    6.513965e-02    8.593289e+01    9.977293e-01   -3.976072e+00
   5.530000e+04   9.971387e-01   -4.052063e+00    6.586635e-02    8.580402e+01    6.620082e-02    8.582393e+01    9.977381e-01   -4.048073e+00
   5.630000e+04   9.972086e-01   -4.115069e+00    6.708784e-02    8.581990e+01    6.738979e-02    8.574996e+01    9.976675e-01   -4.121097e+00
   5.730000e+04   9.974499e-01   -4.184081e+00    6.830429e-02    8.572486e+01    6.865903e-02    8.571395e+01    9.974497e-01   -4.218043e+00
   5.830000e+04   9.974531e-01   -4.265075e+00    6.939057e-02    8.557994e+01    6.970280e-02    8.566289e+01    9.972228e-01   -4.261101e+00
   5.930000e+04   9.974471e-01   -4.340092e+00    7.066377e-02    8.551994e+01    7.094108e-02    8.554795e+01    9.965298e-01   -4.362085e+00
   6.030000e+04   9.971629e-01   -4.432075e+00    7.177513e-02    8.546190e+01    7.221428e-02    8.550194e+01    9.971627e-01   -4.447059e+00
   6.130000e+04   9.972037e-01   -4.507062e+00    7.307861e-02    8.535899e+01    7.338215e-02    8.544092e+01    9.969742e-01   -4.506029e+00
   6.230000e+04   9.970762e-01   -4.569106e+00    7.414567e-02    8.534687e+01    7.447943e-02    8.535990e+01    9.969612e-01   -4.535105e+00
   6.330000e+04   9.969976e-01   -4.675026e+00    7.540512e-02    8.521796e+01    7.584035e-02    8.526093e+01    9.966549e-01   -4.640041e+00
   6.430000e+04   9.957499e-01   -4.701073e+00    7.648162e-02    8.518087e+01    7.683463e-02    8.519490e+01    9.970106e-01   -4.681120e+00
   6.530000e+04   9.966420e-01   -4.774074e+00    7.774925e-02    8.505400e+01    7.809004e-02    8.509700e+01    9.967568e-01   -4.801030e+00
   6.630000e+04   9.965440e-01   -4.848089e+00    7.900480e-02    8.505094e+01    7.925073e-02    8.510187e+01    9.967735e-01   -4.831085e+00
   6.730000e+04   9.964457e-01   -4.937059e+00    8.027115e-02    8.498994e+01    8.048410e-02    8.497288e+01    9.966749e-01   -4.916100e+00
   6.830000e+04   9.964580e-01   -4.996067e+00    8.136087e-02    8.493387e+01    8.167981e-02    8.485695e+01    9.964579e-01   -5.016042e+00
   6.930000e+04   9.964168e-01   -5.063065e+00    8.259375e-02    8.479992e+01    8.274618e-02    8.480996e+01    9.963026e-01   -5.058098e+00
   7.030000e+04   9.959258e-01   -5.128063e+00    8.372070e-02    8.471994e+01    8.402010e-02    8.476999e+01    9.963842e-01   -5.156046e+00
   7.130000e+04   9.960800e-01   -5.191081e+00    8.485945e-02    8.465894e+01    8.523158e-02    8.476390e+01    9.961952e-01   -5.202080e+00
   7.230000e+04   9.954989e-01   -5.272076e+00    8.597979e-02    8.459802e+01    8.642639e-02    8.466286e+01    9.961860e-01   -5.282028e+00
   7.330000e+04   9.959574e-01   -5.348058e+00    8.713602e-02    8.462083e+01    8.757832e-02    8.451989e+01    9.958432e-01   -5.310151e+00
   7.430000e+04   9.956045e-01   -5.406103e+00    8.849977e-02    8.445596e+01    8.872438e-02    8.441401e+01    9.959474e-01   -5.461003e+00
   7.530000e+04   9.958787e-01   -5.509043e+00    8.960088e-02    8.441496e+01    8.999382e-02    8.442385e+01    9.951923e-01   -5.464114e+00
   7.630000e+04   9.951492e-01   -5.552051e+00    9.073913e-02    8.437087e+01    9.122082e-02    8.427301e+01    9.957217e-01   -5.578049e+00
   7.730000e+04   9.954648e-01   -5.603108e+00    9.210456e-02    8.424592e+01    9.246573e-02    8.428085e+01    9.954648e-01   -5.627063e+00
   7.830000e+04   9.953454e-01   -5.711025e+00    9.320283e-02    8.416393e+01    9.349311e-02    8.413104e+01    9.953452e-01   -5.690094e+00
   7.930000e+04   9.953402e-01   -5.736072e+00    9.433599e-02    8.408995e+01    9.473866e-02    8.417092e+01    9.951113e-01   -5.784055e+00
   8.030000e+04   9.951342e-01   -5.808058e+00    9.558437e-02    8.403490e+01    9.595933e-02    8.408987e+01    9.951345e-01   -5.839099e+00
   8.130000e+04   9.948163e-01   -5.866100e+00    9.670478e-02    8.393496e+01    9.715110e-02    8.395793e+01    9.950456e-01   -5.938050e+00
   8.230000e+04   9.945779e-01   -5.966074e+00    9.780122e-02    8.389693e+01    9.820747e-02    8.389196e+01    9.950360e-01   -5.988041e+00
   8.330000e+04   9.945219e-01   -6.040078e+00    9.901919e-02    8.382297e+01    9.948766e-02    8.384987e+01    9.948653e-01   -6.029082e+00
   8.430000e+04   9.945001e-01   -6.118064e+00    1.001637e-01    8.379490e+01    1.006029e-01    8.372290e+01    9.947290e-01   -6.111084e+00
   8.530000e+04   9.943843e-01   -6.182071e+00    1.013816e-01    8.369093e+01    1.018965e-01    8.362700e+01    9.944989e-01   -6.195049e+00
   8.630000e+04   9.941825e-01   -6.253082e+00    1.024758e-01    8.361588e+01    1.030911e-01    8.362296e+01    9.944109e-01   -6.244064e+00
   8.730000e+04   9.943157e-01   -6.335061e+00    1.036763e-01    8.349596e+01    1.042868e-01    8.358080e+01    9.939722e-01   -6.308099e+00
   8.830000e+04   9.941777e-01   -6.396052e+00    1.048623e-01    8.345193e+01    1.054554e-01    8.337798e+01    9.937213e-01   -6.407073e+00
   8.930000e+04   9.932626e-01   -6.448080e+00    1.060398e-01    8.338401e+01    1.065660e-01    8.335694e+01    9.941771e-01   -6.480037e+00
   9.030000e+04   9.937130e-01   -6.528080e+00    1.072422e-01    8.339189e+01    1.077620e-01    8.330093e+01    9.939413e-01   -6.517066e+00
   9.130000e+04   9.938457e-01   -6.608059e+00    1.084111e-01    8.328091e+01    1.088865e-01    8.323495e+01    9.935026e-01   -6.583098e+00
   9.230000e+04   9.936564e-01   -6.667043e+00    1.095950e-01    8.318990e+01    1.101515e-01    8.318489e+01    9.934273e-01   -6.681081e+00
   9.330000e+04   9.935912e-01   -6.710107e+00    1.107547e-01    8.309095e+01    1.112404e-01    8.307592e+01    9.930192e-01   -6.762072e+00
   9.430000e+04   9.934965e-01   -6.817074e+00    1.119235e-01    8.303793e+01    1.125048e-01    8.299394e+01    9.926969e-01   -6.834043e+00
   9.530000e+04   9.931734e-01   -6.891055e+00    1.131435e-01    8.296488e+01    1.136920e-01    8.293898e+01    9.930596e-01   -6.877089e+00
   9.630000e+04   9.926991e-01   -6.946076e+00    1.143199e-01    8.284595e+01    1.148740e-01    8.291989e+01    9.931552e-01   -6.966073e+00
   9.730000e+04   9.930668e-01   -7.022072e+00    1.154870e-01    8.279198e+01    1.160201e-01    8.281192e+01    9.923822e-01   -7.039069e+00
   9.830000e+04   9.924447e-01   -7.094086e+00    1.166436e-01    8.277292e+01    1.171954e-01    8.273392e+01    9.929018e-01   -7.108084e+00
   9.930000e+04   9.923485e-01   -7.180048e+00    1.178741e-01    8.269690e+01    1.182956e-01    8.265095e+01    9.928052e-01   -7.192062e+00
   1.003000e+05   9.923825e-01   -7.228138e+00    1.189837e-01    8.259992e+01    1.195053e-01    8.260173e+01    9.924960e-01   -7.254206e+00
   1.013000e+05   9.924228e-01   -7.297158e+00    1.201586e-01    8.256080e+01    1.206025e-01    8.246699e+01    9.921950e-01   -7.357098e+00
   1.023000e+05   9.920679e-01   -7.376166e+00    1.212273e-01    8.245990e+01    1.218847e-01    8.246369e+01    9.921821e-01   -7.406110e+00
   1.033000e+05   9.919228e-01   -7.459152e+00    1.224577e-01    8.240981e+01    1.229524e-01    8.230988e+01    9.920365e-01   -7.461188e+00
   1.043000e+05   9.918539e-01   -7.535144e+00    1.236109e-01    8.231283e+01    1.242385e-01    8.225089e+01    9.917411e-01   -7.555114e+00
   1.053000e+05   9.913007e-01   -7.607100e+00    1.248139e-01    8.222989e+01    1.253755e-01    8.219582e+01    9.918692e-01   -7.612188e+00
   1.063000e+05   9.917277e-01   -7.657176e+00    1.259511e-01    8.217684e+01    1.265030e-01    8.210698e+01    9.911577e-01   -7.706086e+00
   1.073000e+05   9.915235e-01   -7.745132e+00    1.272800e-01    8.209887e+01    1.277207e-01    8.209479e+01    9.912961e-01   -7.749204e+00
   1.083000e+05   9.911015e-01   -7.811112e+00    1.282851e-01    8.203192e+01    1.288920e-01    8.199082e+01    9.913297e-01   -7.851098e+00
   1.093000e+05   9.909359e-01   -7.867150e+00    1.294506e-01    8.199179e+01    1.300329e-01    8.190187e+01    9.911641e-01   -7.900112e+00
   1.103000e+05   9.907687e-01   -7.942202e+00    1.307014e-01    8.188880e+01    1.311839e-01    8.183785e+01    9.909973e-01   -7.956172e+00
   1.113000e+05   9.904586e-01   -8.043142e+00    1.318542e-01    8.178683e+01    1.323714e-01    8.176182e+01    9.909150e-01   -8.042170e+00
   1.123000e+05   9.901923e-01   -8.114108e+00    1.329770e-01    8.170183e+01    1.335446e-01    8.167293e+01    9.907615e-01   -8.127170e+00
   1.133000e+05   9.903700e-01   -8.168078e+00    1.340622e-01    8.161796e+01    1.346031e-01    8.163985e+01    9.904849e-01   -8.212082e+00
   1.143000e+05   9.899202e-01   -8.207196e+00    1.353649e-01    8.159567e+01    1.357401e-01    8.156474e+01    9.904884e-01   -8.253256e+00
   1.153000e+05   9.901227e-01   -8.305104e+00    1.363319e-01    8.143096e+01    1.370237e-01    8.143299e+01    9.897806e-01   -8.381110e+00
   1.163000e+05   9.901275e-01   -8.357166e+00    1.376570e-01    8.140996e+01    1.381017e-01    8.142776e+01    9.896728e-01   -8.436106e+00
   1.173000e+05   9.896924e-01   -8.440162e+00    1.387420e-01    8.138877e+01    1.393023e-01    8.130693e+01    9.898066e-01   -8.489118e+00
   1.183000e+05   9.894328e-01   -8.521162e+00    1.399405e-01    8.127385e+01    1.405377e-01    8.127182e+01    9.896588e-01   -8.548108e+00
   1.193000e+05   9.896314e-01   -8.602134e+00    1.411175e-01    8.119979e+01    1.416222e-01    8.118295e+01    9.889491e-01   -8.602194e+00
   1.203000e+05   9.892928e-01   -8.669092e+00    1.422925e-01    8.109690e+01    1.428504e-01    8.115984e+01    9.891780e-01   -8.699146e+00
   1.213000e+05   9.892906e-01   -8.715214e+00    1.434436e-01    8.104892e+01    1.439400e-01    8.107882e+01    9.887225e-01   -8.772128e+00
   1.223000e+05   9.889303e-01   -8.822064e+00    1.446182e-01    8.100784e+01    1.451685e-01    8.098976e+01    9.889296e-01   -8.836156e+00
   1.233000e+05   9.888250e-01   -8.854202e+00    1.458064e-01    8.092974e+01    1.462770e-01    8.087095e+01    9.884846e-01   -8.914130e+00
   1.243000e+05   9.884163e-01   -8.955086e+00    1.469253e-01    8.080003e+01    1.473323e-01    8.084785e+01    9.886443e-01   -8.979076e+00
   1.253000e+05   9.880585e-01   -8.998118e+00    1.479924e-01    8.081579e+01    1.486583e-01    8.077485e+01    9.885116e-01   -9.017174e+00
   1.263000e+05   9.883347e-01   -9.057158e+00    1.491629e-01    8.071194e+01    1.498340e-01    8.070191e+01    9.877663e-01   -9.104126e+00
   1.273000e+05   9.881922e-01   -9.136158e+00    1.503310e-01    8.068384e+01    1.508859e-01    8.065886e+01    9.878535e-01   -9.167132e+00
   1.283000e+05   9.872431e-01   -9.215152e+00    1.514365e-01    8.060179e+01    1.520128e-01    8.058781e+01    9.881507e-01   -9.233160e+00
   1.293000e+05   9.876964e-01   -9.291160e+00    1.526265e-01    8.049785e+01    1.531374e-01    8.049090e+01    9.875827e-01   -9.313132e+00
   1.303000e+05   9.874593e-01   -9.371116e+00    1.537359e-01    8.042186e+01    1.544989e-01    8.044187e+01    9.873449e-01   -9.379174e+00
   1.313000e+05   9.874259e-01   -9.429130e+00    1.548323e-01    8.035083e+01    1.556006e-01    8.037777e+01    9.869715e-01   -9.466158e+00
   1.323000e+05   9.871499e-01   -9.494220e+00    1.560590e-01    8.026388e+01    1.567615e-01    8.026279e+01    9.868083e-01   -9.545102e+00
   1.333000e+05   9.870484e-01   -9.604008e+00    1.570709e-01    8.020592e+01    1.579048e-01    8.015599e+01    9.863677e-01   -9.596096e+00
   1.343000e+05   9.867152e-01   -9.608172e+00    1.583244e-01    8.016485e+01    1.590920e-01    8.014981e+01    9.864862e-01   -9.644206e+00
