!{R05L1R4}
!Johanson Technology Inc.
!www.johansontechnology.com
!Test Board Conditions:
!Substrate Type  RO4350B
!Substrate Thickness        10 mil
!Substrate Dk      3.66
!TL Type: GCPW 
!TL Trace Width  22 mil
!TL Gap  25 mil
!Electrode orientation      Horizontal
!DUT TOPOLOGY	SERIES
!Mounting Pad LxW         11x14.5 mil
! Created Wed Nov 25 17:33:21 2020
! 2 Port Network Data from SP1.SP block
! freq  magS11  angS11  magS21  angS21  magS12  angS12  magS22  angS22  
! 
# khz S ma R 50  
   3.000000e+02   9.988494e-01   -2.420000e-01    3.272653e-04    8.337400e+01    3.042286e-04    8.901700e+01    9.992269e-01   -2.180000e-01
   1.300000e+03   9.999950e-01    1.400000e-02    1.151988e-03    8.983400e+01    1.127192e-03    8.769100e+01    9.997648e-01    2.000000e-02
   2.300000e+03   9.998776e-01   -1.820000e-01    2.057296e-03    9.010200e+01    2.099166e-03    8.994800e+01    9.999927e-01   -1.660000e-01
   3.300000e+03   9.998790e-01   -2.450000e-01    2.918082e-03    9.012900e+01    2.934590e-03    8.938800e+01    9.999941e-01   -2.610000e-01
   4.300000e+03   9.998706e-01   -3.350000e-01    3.780018e-03    9.014300e+01    3.833927e-03    8.918200e+01    9.999858e-01   -3.400000e-01
   5.300000e+03   9.999874e-01   -4.010000e-01    4.705920e-03    8.977800e+01    4.712426e-03    8.926600e+01    9.998723e-01   -3.950000e-01
   6.300000e+03   9.995222e-01   -4.560000e-01    5.589107e-03    8.934600e+01    5.588464e-03    8.934800e+01    9.999826e-01   -4.550000e-01
   7.300000e+03   9.999772e-01   -5.100000e-01    6.484703e-03    8.940200e+01    6.467554e-03    8.937700e+01    9.997469e-01   -5.120000e-01
   8.300000e+03   9.998473e-01   -5.900000e-01    7.326282e-03    8.927800e+01    7.371972e-03    8.916700e+01    9.999624e-01   -5.590000e-01
   9.300000e+03   9.999478e-01   -6.110000e-01    8.258046e-03    8.931600e+01    8.289480e-03    8.936900e+01    9.999478e-01   -6.140000e-01
   1.030000e+04   9.999345e-01   -6.100000e-01    9.112693e-03    8.929500e+01    9.153702e-03    8.928600e+01    9.999272e-01   -6.050000e-01
   1.130000e+04   9.992223e-01   -6.300000e-01    9.978149e-03    8.947400e+01    1.006932e-02    8.930900e+01    9.991978e-01   -6.330000e-01
   1.230000e+04   9.985044e-01   -6.480000e-01    1.089557e-02    8.927600e+01    1.089055e-02    8.938500e+01    9.986194e-01   -6.500000e-01
   1.330000e+04   9.981596e-01   -6.980000e-01    1.174762e-02    8.913000e+01    1.184132e-02    8.937700e+01    9.985044e-01   -7.110000e-01
   1.430000e+04   9.982746e-01   -7.500000e-01    1.260085e-02    8.912600e+01    1.270135e-02    8.895500e+01    9.982746e-01   -7.520000e-01
   1.530000e+04   9.987344e-01   -8.010000e-01    1.347411e-02    8.917300e+01    1.357688e-02    8.912000e+01    9.987344e-01   -7.980000e-01
   1.630000e+04   9.988827e-01   -8.920000e-01    1.439627e-02    8.905200e+01    1.450107e-02    8.904800e+01    9.990799e-01   -8.870000e-01
   1.730000e+04   9.992715e-01   -9.530000e-01    1.522825e-02    8.881100e+01    1.533381e-02    8.896500e+01    9.989490e-01   -9.580000e-01
   1.830000e+04   9.998580e-01   -1.007000e+00    1.615947e-02    8.892300e+01    1.628272e-02    8.883000e+01    9.993365e-01   -9.940000e-01
   1.930000e+04   9.997628e-01   -1.088000e+00    1.707736e-02    8.884100e+01    1.712462e-02    8.878400e+01    9.998368e-01   -1.088000e+00
   2.030000e+04   9.997062e-01   -1.137000e+00    1.795411e-02    8.880100e+01    1.802245e-02    8.887300e+01    9.998282e-01   -1.173000e+00
   2.130000e+04   9.996645e-01   -1.221000e+00    1.883622e-02    8.869500e+01    1.894933e-02    8.871800e+01    9.997971e-01   -1.236000e+00
   2.230000e+04   9.997202e-01   -1.296000e+00    1.976056e-02    8.854900e+01    1.980155e-02    8.864500e+01    9.997816e-01   -1.294000e+00
   2.330000e+04   9.997531e-01   -1.348000e+00    2.056769e-02    8.859500e+01    2.073173e-02    8.840500e+01    9.994931e-01   -1.357000e+00
   2.430000e+04   9.995623e-01   -1.400000e+00    2.150103e-02    8.857100e+01    2.156797e-02    8.851800e+01    9.997584e-01   -1.375000e+00
   2.530000e+04   9.997303e-01   -1.420000e+00    2.236447e-02    8.849200e+01    2.244443e-02    8.851600e+01    9.996279e-01   -1.455000e+00
   2.630000e+04   9.995941e-01   -1.480000e+00    2.322121e-02    8.851500e+01    2.331229e-02    8.848600e+01    9.997127e-01   -1.504000e+00
   2.730000e+04   9.996691e-01   -1.554000e+00    2.417467e-02    8.833600e+01    2.424993e-02    8.845200e+01    9.996509e-01   -1.542000e+00
   2.830000e+04   9.995608e-01   -1.567000e+00    2.501374e-02    8.836700e+01    2.517843e-02    8.836300e+01    9.996220e-01   -1.569000e+00
   2.930000e+04   9.996413e-01   -1.617000e+00    2.585918e-02    8.834300e+01    2.601445e-02    8.831100e+01    9.993450e-01   -1.611000e+00
   3.030000e+04   9.996085e-01   -1.627000e+00    2.681592e-02    8.826100e+01    2.691180e-02    8.826400e+01    9.994970e-01   -1.663000e+00
   3.130000e+04   9.995612e-01   -1.706000e+00    2.767419e-02    8.823300e+01    2.781473e-02    8.816200e+01    9.994822e-01   -1.713000e+00
   3.230000e+04   9.994276e-01   -1.729000e+00    2.849182e-02    8.802300e+01    2.866620e-02    8.830300e+01    9.995323e-01   -1.771000e+00
   3.330000e+04   9.995472e-01   -1.802000e+00    2.942346e-02    8.812700e+01    2.958651e-02    8.814900e+01    9.990729e-01   -1.778000e+00
   3.430000e+04   9.995224e-01   -1.846053e+00    3.028140e-02    8.807299e+01    3.043516e-02    8.811304e+01    9.990537e-01   -1.816068e+00
   3.530000e+04   9.994875e-01   -1.899015e+00    3.116574e-02    8.806184e+01    3.130235e-02    8.815686e+01    9.993132e-01   -1.884051e+00
   3.630000e+04   9.994735e-01   -1.914083e+00    3.210239e-02    8.790004e+01    3.220245e-02    8.801495e+01    9.986525e-01   -1.935089e+00
   3.730000e+04   9.993961e-01   -1.997066e+00    3.291004e-02    8.793991e+01    3.312659e-02    8.796795e+01    9.992428e-01   -2.024032e+00
   3.830000e+04   9.992356e-01   -2.063039e+00    3.385592e-02    8.784894e+01    3.395750e-02    8.792092e+01    9.994045e-01   -2.056061e+00
   3.930000e+04   9.991099e-01   -2.101998e+00    3.472505e-02    8.779391e+01    3.491742e-02    8.783580e+01    9.993523e-01   -2.117074e+00
   4.030000e+04   9.992722e-01   -2.100072e+00    3.562577e-02    8.770507e+01    3.576553e-02    8.763605e+01    9.991605e-01   -2.191057e+00
   4.130000e+04   9.989490e-01   -2.172126e+00    3.650669e-02    8.777184e+01    3.668795e-02    8.768191e+01    9.993031e-01   -2.248007e+00
   4.230000e+04   9.992154e-01   -2.297990e+00    3.737282e-02    8.761695e+01    3.764035e-02    8.759410e+01    9.989967e-01   -2.255102e+00
   4.330000e+04   9.992586e-01   -2.288079e+00    3.830517e-02    8.756405e+01    3.838911e-02    8.769799e+01    9.986842e-01   -2.357003e+00
   4.430000e+04   9.986678e-01   -2.367110e+00    3.920909e-02    8.760972e+01    3.935844e-02    8.768478e+01    9.992168e-01   -2.360088e+00
   4.530000e+04   9.990636e-01   -2.477038e+00    4.001774e-02    8.733395e+01    4.027660e-02    8.746008e+01    9.989880e-01   -2.448097e+00
   4.630000e+04   9.991432e-01   -2.515086e+00    4.082406e-02    8.728212e+01    4.110698e-02    8.754472e+01    9.977908e-01   -2.545037e+00
   4.730000e+04   9.982900e-01   -2.600982e+00    4.176884e-02    8.740193e+01    4.199555e-02    8.726401e+01    9.991021e-01   -2.582029e+00
   4.830000e+04   9.990726e-01   -2.583123e+00    4.249271e-02    8.732888e+01    4.280180e-02    8.727290e+01    9.972066e-01   -2.611035e+00
   4.930000e+04   9.990276e-01   -2.706010e+00    4.364677e-02    8.720897e+01    4.373231e-02    8.717700e+01    9.983148e-01   -2.646075e+00
   5.030000e+04   9.989596e-01   -2.716097e+00    4.453604e-02    8.717894e+01    4.465433e-02    8.717780e+01    9.987808e-01   -2.721049e+00
   5.130000e+04   9.988925e-01   -2.813015e+00    4.523182e-02    8.711595e+01    4.556086e-02    8.697515e+01    9.983872e-01   -2.770122e+00
   5.230000e+04   9.989119e-01   -2.828080e+00    4.627452e-02    8.707095e+01    4.638137e-02    8.712780e+01    9.986289e-01   -2.892008e+00
   5.330000e+04   9.986764e-01   -2.908014e+00    4.709859e-02    8.702488e+01    4.738133e-02    8.692904e+01    9.987387e-01   -2.900133e+00
   5.430000e+04   9.977332e-01   -2.922088e+00    4.796725e-02    8.690399e+01    4.818289e-02    8.696696e+01    9.988268e-01   -3.032973e+00
   5.530000e+04   9.987940e-01   -3.010084e+00    4.897141e-02    8.689090e+01    4.897173e-02    8.692277e+01    9.976283e-01   -3.006081e+00
   5.630000e+04   9.982329e-01   -3.094066e+00    4.966710e-02    8.678907e+01    4.998250e-02    8.669010e+01    9.986676e-01   -3.087072e+00
   5.730000e+04   9.981761e-01   -3.160023e+00    5.062457e-02    8.686186e+01    5.085234e-02    8.678894e+01    9.986860e-01   -3.159080e+00
   5.830000e+04   9.979967e-01   -3.183106e+00    5.152193e-02    8.672403e+01    5.170611e-02    8.673099e+01    9.986484e-01   -3.239020e+00
   5.930000e+04   9.986115e-01   -3.288978e+00    5.240216e-02    8.674998e+01    5.255944e-02    8.672595e+01    9.979131e-01   -3.259020e+00
   6.030000e+04   9.985457e-01   -3.267053e+00    5.315871e-02    8.672486e+01    5.350867e-02    8.667785e+01    9.975098e-01   -3.279082e+00
   6.130000e+04   9.984728e-01   -3.320040e+00    5.406468e-02    8.658601e+01    5.438925e-02    8.652596e+01    9.978659e-01   -3.361081e+00
   6.230000e+04   9.968678e-01   -3.360109e+00    5.499779e-02    8.659182e+01    5.525792e-02    8.648296e+01    9.984644e-01   -3.442047e+00
   6.330000e+04   9.982931e-01   -3.469050e+00    5.605160e-02    8.641106e+01    5.621970e-02    8.644195e+01    9.983009e-01   -3.489051e+00
   6.430000e+04   9.983667e-01   -3.519069e+00    5.675359e-02    8.647085e+01    5.699581e-02    8.639092e+01    9.970950e-01   -3.540005e+00
   6.530000e+04   9.982418e-01   -3.588045e+00    5.769412e-02    8.631601e+01    5.788706e-02    8.631095e+01    9.980482e-01   -3.545068e+00
   6.630000e+04   9.971303e-01   -3.633025e+00    5.852730e-02    8.632299e+01    5.871639e-02    8.625793e+01    9.982637e-01   -3.613067e+00
   6.730000e+04   9.977014e-01   -3.658009e+00    5.944388e-02    8.631484e+01    5.975249e-02    8.618297e+01    9.981611e-01   -3.680036e+00
   6.830000e+04   9.975450e-01   -3.667115e+00    6.033073e-02    8.615497e+01    6.049079e-02    8.615097e+01    9.981191e-01   -3.716063e+00
   6.930000e+04   9.977976e-01   -3.782044e+00    6.118547e-02    8.611996e+01    6.144670e-02    8.611799e+01    9.980275e-01   -3.779064e+00
   7.030000e+04   9.975964e-01   -3.826038e+00    6.199563e-02    8.607995e+01    6.230329e-02    8.610586e+01    9.980017e-01   -3.843037e+00
   7.130000e+04   9.979694e-01   -3.864058e+00    6.290330e-02    8.603096e+01    6.320076e-02    8.597089e+01    9.969361e-01   -3.880022e+00
   7.230000e+04   9.979118e-01   -3.922070e+00    6.380408e-02    8.599197e+01    6.394392e-02    8.585903e+01    9.971086e-01   -3.902052e+00
   7.330000e+04   9.977674e-01   -3.992047e+00    6.471942e-02    8.596394e+01    6.498082e-02    8.588488e+01    9.976521e-01   -3.954090e+00
   7.430000e+04   9.977602e-01   -4.039041e+00    6.551373e-02    8.590192e+01    6.586158e-02    8.576300e+01    9.971861e-01   -4.044023e+00
   7.530000e+04   9.976889e-01   -4.080091e+00    6.643335e-02    8.581697e+01    6.676304e-02    8.576389e+01    9.971950e-01   -4.067077e+00
   7.630000e+04   9.976407e-01   -4.170977e+00    6.734887e-02    8.578695e+01    6.768289e-02    8.565003e+01    9.970669e-01   -4.144058e+00
   7.730000e+04   9.975825e-01   -4.148103e+00    6.829740e-02    8.573392e+01    6.841569e-02    8.567797e+01    9.973536e-01   -4.202078e+00
   7.830000e+04   9.970582e-01   -4.251054e+00    6.909958e-02    8.565493e+01    6.945859e-02    8.564694e+01    9.975167e-01   -4.280055e+00
   7.930000e+04   9.973735e-01   -4.305026e+00    6.990585e-02    8.558997e+01    7.035791e-02    8.558500e+01    9.971434e-01   -4.335024e+00
   8.030000e+04   9.974142e-01   -4.331050e+00    7.082410e-02    8.555495e+01    7.119195e-02    8.558786e+01    9.967259e-01   -4.359045e+00
   8.130000e+04   9.972608e-01   -4.381070e+00    7.170749e-02    8.550793e+01    7.205498e-02    8.544399e+01    9.970317e-01   -4.404052e+00
   8.230000e+04   9.970067e-01   -4.451007e+00    7.264445e-02    8.544189e+01    7.291273e-02    8.543002e+01    9.972359e-01   -4.456030e+00
   8.330000e+04   9.970638e-01   -4.458109e+00    7.338029e-02    8.533296e+01    7.380367e-02    8.545084e+01    9.969495e-01   -4.486090e+00
   8.430000e+04   9.967826e-01   -4.567011e+00    7.445685e-02    8.529595e+01    7.462877e-02    8.528800e+01    9.971267e-01   -4.576044e+00
   8.530000e+04   9.968025e-01   -4.578100e+00    7.518213e-02    8.524485e+01    7.563354e-02    8.529087e+01    9.969173e-01   -4.620097e+00
   8.630000e+04   9.967098e-01   -4.678076e+00    7.613305e-02    8.509698e+01    7.654614e-02    8.516398e+01    9.968238e-01   -4.717041e+00
   8.730000e+04   9.969197e-01   -4.754025e+00    7.694242e-02    8.507999e+01    7.736864e-02    8.514695e+01    9.962328e-01   -4.758020e+00
   8.830000e+04   9.960875e-01   -4.779070e+00    7.788459e-02    8.507494e+01    7.815427e-02    8.509789e+01    9.968894e-01   -4.778106e+00
   8.930000e+04   9.967072e-01   -4.849040e+00    7.866343e-02    8.501697e+01    7.914478e-02    8.499095e+01    9.963624e-01   -4.884019e+00
   9.030000e+04   9.967344e-01   -4.889070e+00    7.962220e-02    8.498885e+01    7.999894e-02    8.494289e+01    9.958173e-01   -4.903084e+00
   9.130000e+04   9.965658e-01   -4.959041e+00    8.047497e-02    8.483596e+01    8.086501e-02    8.483802e+01    9.961072e-01   -4.987053e+00
   9.230000e+04   9.964764e-01   -5.000021e+00    8.137137e-02    8.479607e+01    8.172822e-02    8.485393e+01    9.962473e-01   -5.040022e+00
   9.330000e+04   9.962401e-01   -5.021071e+00    8.221831e-02    8.486697e+01    8.265492e-02    8.477991e+01    9.963540e-01   -5.062039e+00
   9.430000e+04   9.963991e-01   -5.092039e+00    8.308799e-02    8.483492e+01    8.355801e-02    8.468799e+01    9.957128e-01   -5.101063e+00
   9.530000e+04   9.953396e-01   -5.131064e+00    8.394114e-02    8.475890e+01    8.438703e-02    8.467993e+01    9.963698e-01   -5.164070e+00
   9.630000e+04   9.961870e-01   -5.195093e+00    8.471237e-02    8.465491e+01    8.531894e-02    8.460496e+01    9.956145e-01   -5.234069e+00
   9.730000e+04   9.958844e-01   -5.288045e+00    8.585448e-02    8.456099e+01    8.619134e-02    8.456790e+01    9.961135e-01   -5.303038e+00
   9.830000e+04   9.958811e-01   -5.333029e+00    8.664861e-02    8.454891e+01    8.712879e-02    8.446794e+01    9.958807e-01   -5.341055e+00
   9.930000e+04   9.958948e-01   -5.362053e+00    8.747179e-02    8.445401e+01    8.797660e-02    8.441096e+01    9.955509e-01   -5.396043e+00
   1.003000e+05   9.959005e-01   -5.415160e+00    8.839434e-02    8.445876e+01    8.873121e-02    8.437589e+01    9.955577e-01   -5.439196e+00
   1.013000e+05   9.954935e-01   -5.495056e+00    8.922722e-02    8.433994e+01    8.976256e-02    8.432191e+01    9.957236e-01   -5.537072e+00
   1.023000e+05   9.951178e-01   -5.523160e+00    9.011194e-02    8.430985e+01    9.043440e-02    8.427496e+01    9.958029e-01   -5.573090e+00
   1.033000e+05   9.956820e-01   -5.603076e+00    9.097660e-02    8.423299e+01    9.143839e-02    8.425669e+01    9.951099e-01   -5.618122e+00
   1.043000e+05   9.954732e-01   -5.641158e+00    9.190468e-02    8.422973e+01    9.225443e-02    8.410091e+01    9.953559e-01   -5.679164e+00
   1.053000e+05   9.955965e-01   -5.720050e+00    9.276670e-02    8.409298e+01    9.307718e-02    8.405699e+01    9.941105e-01   -5.761048e+00
   1.063000e+05   9.952321e-01   -5.745120e+00    9.366594e-02    8.408281e+01    9.409835e-02    8.405089e+01    9.952312e-01   -5.785058e+00
   1.073000e+05   9.952694e-01   -5.805150e+00    9.446032e-02    8.398590e+01    9.492900e-02    8.399694e+01    9.948107e-01   -5.814192e+00
   1.083000e+05   9.952814e-01   -5.880072e+00    9.541213e-02    8.393705e+01    9.583047e-02    8.396484e+01    9.945952e-01   -5.910074e+00
   1.093000e+05   9.950646e-01   -5.916196e+00    9.624086e-02    8.396070e+01    9.666265e-02    8.388473e+01    9.949507e-01   -5.947146e+00
   1.103000e+05   9.947398e-01   -6.014056e+00    9.712194e-02    8.381196e+01    9.745815e-02    8.374792e+01    9.949689e-01   -6.020034e+00
   1.113000e+05   9.946167e-01   -6.042060e+00    9.798572e-02    8.379282e+01    9.841550e-02    8.370800e+01    9.948446e-01   -6.037196e+00
   1.123000e+05   9.948021e-01   -6.072204e+00    9.879740e-02    8.370491e+01    9.931030e-02    8.370976e+01    9.944594e-01   -6.135110e+00
   1.133000e+05   9.945402e-01   -6.174056e+00    9.977682e-02    8.365902e+01    1.001566e-01    8.358908e+01    9.946542e-01   -6.190062e+00
   1.143000e+05   9.946445e-01   -6.202124e+00    1.006297e-01    8.366982e+01    1.010126e-01    8.362892e+01    9.945296e-01   -6.221112e+00
   1.153000e+05   9.946377e-01   -6.264048e+00    1.015951e-01    8.357896e+01    1.018879e-01    8.358890e+01    9.942947e-01   -6.277106e+00
   1.163000e+05   9.944761e-01   -6.288172e+00    1.024827e-01    8.355980e+01    1.027784e-01    8.353879e+01    9.943621e-01   -6.330104e+00
   1.173000e+05   9.941838e-01   -6.374062e+00    1.031868e-01    8.345800e+01    1.036392e-01    8.343179e+01    9.942985e-01   -6.382102e+00
   1.183000e+05   9.940011e-01   -6.405150e+00    1.040503e-01    8.345587e+01    1.045186e-01    8.332792e+01    9.942277e-01   -6.433064e+00
   1.193000e+05   9.942885e-01   -6.480112e+00    1.048627e-01    8.339270e+01    1.053705e-01    8.328897e+01    9.933761e-01   -6.465188e+00
   1.203000e+05   9.936024e-01   -6.536132e+00    1.058085e-01    8.324496e+01    1.061136e-01    8.327592e+01    9.941731e-01   -6.559050e+00
   1.213000e+05   9.939400e-01   -6.602032e+00    1.068356e-01    8.322692e+01    1.071808e-01    8.323687e+01    9.938251e-01   -6.584106e+00
   1.223000e+05   9.938812e-01   -6.618010e+00    1.075579e-01    8.318489e+01    1.080046e-01    8.317002e+01    9.935401e-01   -6.637132e+00
   1.233000e+05   9.932038e-01   -6.623198e+00    1.084787e-01    8.312989e+01    1.088917e-01    8.317983e+01    9.938873e-01   -6.703018e+00
   1.243000e+05   9.937592e-01   -6.722168e+00    1.092793e-01    8.307571e+01    1.097710e-01    8.309682e+01    9.930732e-01   -6.712222e+00
   1.253000e+05   9.936269e-01   -6.806164e+00    1.101363e-01    8.293300e+01    1.105684e-01    8.300591e+01    9.930558e-01   -6.823038e+00
   1.263000e+05   9.934485e-01   -6.887960e+00    1.110204e-01    8.293088e+01    1.115069e-01    8.296090e+01    9.932193e-01   -6.842070e+00
   1.273000e+05   9.933722e-01   -6.868190e+00    1.119872e-01    8.287089e+01    1.123359e-01    8.291187e+01    9.929167e-01   -6.877136e+00
   1.283000e+05   9.928634e-01   -6.962988e+00    1.127708e-01    8.281600e+01    1.131090e-01    8.284898e+01    9.933208e-01   -6.945212e+00
   1.293000e+05   9.928103e-01   -6.957124e+00    1.136900e-01    8.281786e+01    1.140967e-01    8.283881e+01    9.932667e-01   -7.050978e+00
   1.303000e+05   9.928685e-01   -7.019162e+00    1.144717e-01    8.274595e+01    1.150131e-01    8.274497e+01    9.928674e-01   -7.040112e+00
   1.313000e+05   9.930732e-01   -7.100134e+00    1.153423e-01    8.271888e+01    1.157816e-01    8.272784e+01    9.925045e-01   -7.096018e+00
   1.323000e+05   9.921400e-01   -7.167094e+00    1.162195e-01    8.265692e+01    1.167697e-01    8.264584e+01    9.929376e-01   -7.105190e+00
   1.333000e+05   9.926842e-01   -7.214046e+00    1.170757e-01    8.261794e+01    1.177784e-01    8.256791e+01    9.923398e-01   -7.200120e+00
   1.343000e+05   9.928048e-01   -7.237046e+00    1.178342e-01    8.258986e+01    1.184329e-01    8.252507e+01    9.916666e-01   -7.260084e+00
