!{R05L1R2}
!Johanson Technology Inc.
!www.johansontechnology.com
!Test Board Conditions:
!Substrate Type  RO4350B
!Substrate Thickness        10 mil
!Substrate Dk      3.66
!TL Type: GCPW 
!TL Trace Width  22 mil
!TL Gap  25 mil
!Electrode orientation      Horizontal
!DUT TOPOLOGY	SERIES
!Mounting Pad LxW         11x14.5 mil
! Created Wed Nov 25 17:33:21 2020
! 2 Port Network Data from SP1.SP block
! freq  magS11  angS11  magS21  angS21  magS12  angS12  magS22  angS22  
! 
# khz S ma R 50  
   3.000000e+02   9.974704e-01   -1.700000e-01    2.142891e-04    1.065550e+02    2.088334e-04    8.124000e+01    9.979298e-01   -1.570000e-01
   1.300000e+03   9.999974e-01    4.300000e-02    9.749871e-04    8.952600e+01    9.514782e-04    8.862600e+01    9.996520e-01    5.000000e-02
   2.300000e+03   9.999713e-01   -1.400000e-01    1.742559e-03    9.038900e+01    1.758076e-03    9.096900e+01    9.999713e-01   -1.350000e-01
   3.300000e+03   9.999794e-01   -2.060000e-01    2.504904e-03    8.937600e+01    2.504327e-03    8.944300e+01    9.999794e-01   -2.240000e-01
   4.300000e+03   9.998742e-01   -2.870000e-01    3.201808e-03    8.941700e+01    3.241122e-03    8.955400e+01    9.999893e-01   -3.000000e-01
   5.300000e+03   9.999890e-01   -3.500000e-01    3.983779e-03    8.927200e+01    4.017864e-03    8.945100e+01    9.996437e-01   -3.520000e-01
   6.300000e+03   9.996403e-01   -4.070000e-01    4.737440e-03    8.899200e+01    4.759855e-03    8.960800e+01    9.999856e-01   -3.960000e-01
   7.300000e+03   9.999826e-01   -4.450000e-01    5.490254e-03    8.962200e+01    5.520043e-03    8.931100e+01    9.997524e-01   -4.520000e-01
   8.300000e+03   9.996336e-01   -5.120000e-01    6.237217e-03    8.946800e+01    6.260959e-03    8.940700e+01    9.999789e-01   -4.760000e-01
   9.300000e+03   9.999728e-01   -5.260000e-01    7.007098e-03    8.936300e+01    7.028104e-03    8.971300e+01    9.998577e-01   -5.380000e-01
   1.030000e+04   9.998085e-01   -5.380000e-01    7.747326e-03    8.946500e+01    7.755358e-03    8.953000e+01    9.999688e-01   -5.230000e-01
   1.130000e+04   9.992699e-01   -5.330000e-01    8.490827e-03    8.939800e+01    8.480081e-03    8.929900e+01    9.990726e-01   -5.430000e-01
   1.230000e+04   9.986194e-01   -5.520000e-01    9.225714e-03    8.939700e+01    9.284318e-03    8.953000e+01    9.986194e-01   -5.360000e-01
   1.330000e+04   9.982746e-01   -5.960000e-01    9.996547e-03    8.951100e+01    1.001613e-02    8.933800e+01    9.986194e-01   -5.920000e-01
   1.430000e+04   9.982746e-01   -6.400000e-01    1.070163e-02    8.905800e+01    1.074732e-02    8.951400e+01    9.985044e-01   -6.180000e-01
   1.530000e+04   9.986194e-01   -6.790000e-01    1.146965e-02    8.913100e+01    1.150403e-02    8.941200e+01    9.990367e-01   -6.590000e-01
   1.630000e+04   9.988494e-01   -7.480000e-01    1.226027e-02    8.921500e+01    1.226592e-02    8.950100e+01    9.992164e-01   -7.510000e-01
   1.730000e+04   9.994054e-01   -8.130000e-01    1.296433e-02    8.911600e+01    1.305419e-02    8.907800e+01    9.988494e-01   -8.130000e-01
   1.830000e+04   9.998978e-01   -8.410000e-01    1.373710e-02    8.889200e+01    1.381482e-02    8.908800e+01    9.993998e-01   -8.380000e-01
   1.930000e+04   9.996284e-01   -9.280000e-01    1.448902e-02    8.914700e+01    1.454418e-02    8.922200e+01    9.998879e-01   -9.210000e-01
   2.030000e+04   9.998763e-01   -9.670000e-01    1.523974e-02    8.914900e+01    1.530832e-02    8.901700e+01    9.996338e-01   -1.000000e+00
   2.130000e+04   9.996334e-01   -1.049000e+00    1.599670e-02    8.891700e+01    1.604651e-02    8.889800e+01    9.998675e-01   -1.060000e+00
   2.230000e+04   9.998320e-01   -1.100000e+00    1.673060e-02    8.874600e+01    1.681943e-02    8.879400e+01    9.997313e-01   -1.108000e+00
   2.330000e+04   9.997936e-01   -1.154000e+00    1.746223e-02    8.885200e+01    1.759745e-02    8.864800e+01    9.997418e-01   -1.163000e+00
   2.430000e+04   9.995587e-01   -1.189000e+00    1.823160e-02    8.890100e+01    1.832208e-02    8.879200e+01    9.998241e-01   -1.182000e+00
   2.530000e+04   9.998120e-01   -1.221000e+00    1.901813e-02    8.872000e+01    1.907295e-02    8.888300e+01    9.996720e-01   -1.224000e+00
   2.630000e+04   9.996417e-01   -1.252000e+00    1.977255e-02    8.867700e+01    1.983182e-02    8.872400e+01    9.997962e-01   -1.264000e+00
   2.730000e+04   9.996818e-01   -1.318000e+00    2.048146e-02    8.866900e+01    2.059258e-02    8.858700e+01    9.997542e-01   -1.300000e+00
   2.830000e+04   9.993097e-01   -1.323000e+00    2.125724e-02    8.856500e+01    2.137012e-02    8.863200e+01    9.997632e-01   -1.330000e+00
   2.930000e+04   9.997391e-01   -1.373000e+00    2.197566e-02    8.853700e+01    2.207710e-02    8.856600e+01    9.995442e-01   -1.353000e+00
   3.030000e+04   9.997265e-01   -1.389000e+00    2.272730e-02    8.860800e+01    2.287956e-02    8.864500e+01    9.992682e-01   -1.389000e+00
   3.130000e+04   9.996632e-01   -1.440000e+00    2.351521e-02    8.853400e+01    2.352333e-02    8.851100e+01    9.997171e-01   -1.431000e+00
   3.230000e+04   9.994594e-01   -1.464000e+00    2.421587e-02    8.844500e+01    2.432764e-02    8.855400e+01    9.996192e-01   -1.486000e+00
   3.330000e+04   9.996760e-01   -1.525000e+00    2.496185e-02    8.842300e+01    2.510306e-02    8.856200e+01    9.991612e-01   -1.483000e+00
   3.430000e+04   9.996578e-01   -1.574031e+00    2.570604e-02    8.833891e+01    2.580987e-02    8.827313e+01    9.989430e-01   -1.532057e+00
   3.530000e+04   9.995384e-01   -1.605035e+00    2.646835e-02    8.824405e+01    2.660585e-02    8.840604e+01    9.995912e-01   -1.589036e+00
   3.630000e+04   9.995975e-01   -1.640064e+00    2.720198e-02    8.829495e+01    2.735894e-02    8.844790e+01    9.994164e-01   -1.625075e+00
   3.730000e+04   9.995430e-01   -1.704037e+00    2.800223e-02    8.824297e+01    2.808623e-02    8.835286e+01    9.995775e-01   -1.700030e+00
   3.830000e+04   9.995189e-01   -1.741033e+00    2.876957e-02    8.821193e+01    2.891235e-02    8.821589e+01    9.994934e-01   -1.730049e+00
   3.930000e+04   9.995337e-01   -1.774026e+00    2.949107e-02    8.814392e+01    2.963759e-02    8.810490e+01    9.992779e-01   -1.779068e+00
   4.030000e+04   9.990781e-01   -1.800023e+00    3.009558e-02    8.806595e+01    3.040182e-02    8.800511e+01    9.994787e-01   -1.847046e+00
   4.130000e+04   9.993769e-01   -1.823140e+00    3.106186e-02    8.801304e+01    3.115856e-02    8.811001e+01    9.994842e-01   -1.893006e+00
   4.230000e+04   9.994907e-01   -1.962945e+00    3.173006e-02    8.805688e+01    3.182893e-02    8.811808e+01    9.986287e-01   -1.899063e+00
   4.330000e+04   9.994116e-01   -1.908107e+00    3.243467e-02    8.793714e+01    3.261811e-02    8.819870e+01    9.993253e-01   -1.962033e+00
   4.430000e+04   9.989911e-01   -2.015085e+00    3.318302e-02    8.808066e+01    3.331702e-02    8.789599e+01    9.994360e-01   -1.995055e+00
   4.530000e+04   9.991589e-01   -2.100021e+00    3.402380e-02    8.773999e+01    3.418093e-02    8.788789e+01    9.993765e-01   -2.050099e+00
   4.630000e+04   9.993719e-01   -2.121082e+00    3.460988e-02    8.773398e+01    3.485384e-02    8.778205e+01    9.985859e-01   -2.149037e+00
   4.730000e+04   9.984418e-01   -2.202973e+00    3.536824e-02    8.770897e+01    3.565843e-02    8.782780e+01    9.993446e-01   -2.186047e+00
   4.830000e+04   9.993229e-01   -2.176115e+00    3.625509e-02    8.768195e+01    3.645592e-02    8.763309e+01    9.981253e-01   -2.233017e+00
   4.930000e+04   9.993056e-01   -2.290997e+00    3.699331e-02    8.763401e+01    3.712128e-02    8.772185e+01    9.984830e-01   -2.250061e+00
   5.030000e+04   9.990720e-01   -2.288118e+00    3.784324e-02    8.764396e+01    3.795243e-02    8.757006e+01    9.992480e-01   -2.311049e+00
   5.130000e+04   9.991850e-01   -2.405983e+00    3.845885e-02    8.760792e+01    3.867193e-02    8.762582e+01    9.990929e-01   -2.360098e+00
   5.230000e+04   9.985413e-01   -2.389091e+00    3.916653e-02    8.753003e+01    3.934269e-02    8.744297e+01    9.992111e-01   -2.457990e+00
   5.330000e+04   9.986764e-01   -2.480025e+00    4.011661e-02    8.755583e+01    4.020449e-02    8.741082e+01    9.991856e-01   -2.448093e+00
   5.430000e+04   9.984060e-01   -2.505041e+00    4.083510e-02    8.738402e+01    4.096216e-02    8.722713e+01    9.991369e-01   -2.540990e+00
   5.530000e+04   9.991246e-01   -2.546078e+00    4.159707e-02    8.740293e+01    4.165475e-02    8.735376e+01    9.985286e-01   -2.531110e+00
   5.630000e+04   9.980201e-01   -2.624059e+00    4.218326e-02    8.733187e+01    4.242181e-02    8.711220e+01    9.990796e-01   -2.641038e+00
   5.730000e+04   9.989826e-01   -2.683021e+00    4.304693e-02    8.720106e+01    4.320081e-02    8.731182e+01    9.989742e-01   -2.679044e+00
   5.830000e+04   9.978173e-01   -2.704080e+00    4.372284e-02    8.726184e+01    4.384894e-02    8.713003e+01    9.990322e-01   -2.723019e+00
   5.930000e+04   9.989836e-01   -2.783993e+00    4.451403e-02    8.709802e+01    4.471942e-02    8.716300e+01    9.980945e-01   -2.742017e+00
   6.030000e+04   9.989610e-01   -2.777066e+00    4.529465e-02    8.711790e+01    4.542543e-02    8.716685e+01    9.978308e-01   -2.759082e+00
   6.130000e+04   9.989018e-01   -2.843026e+00    4.590005e-02    8.701999e+01    4.626070e-02    8.701597e+01    9.976167e-01   -2.841066e+00
   6.230000e+04   9.976077e-01   -2.869063e+00    4.677524e-02    8.701486e+01    4.703987e-02    8.698707e+01    9.988776e-01   -2.907048e+00
   6.330000e+04   9.987298e-01   -2.932065e+00    4.749799e-02    8.687797e+01    4.778314e-02    8.706190e+01    9.986726e-01   -2.955045e+00
   6.430000e+04   9.987997e-01   -2.997029e+00    4.825265e-02    8.684800e+01    4.848642e-02    8.695994e+01    9.981086e-01   -2.999988e+00
   6.530000e+04   9.987585e-01   -3.026078e+00    4.898936e-02    8.684395e+01    4.910796e-02    8.689890e+01    9.984043e-01   -2.988078e+00
   6.630000e+04   9.970445e-01   -3.104008e+00    4.975309e-02    8.679702e+01    4.989091e-02    8.679793e+01    9.987472e-01   -3.066027e+00
   6.730000e+04   9.985448e-01   -3.112019e+00    5.045898e-02    8.681504e+01    5.075596e-02    8.672602e+01    9.985170e-01   -3.093029e+00
   6.830000e+04   9.983641e-01   -3.131084e+00    5.127373e-02    8.685685e+01    5.140984e-02    8.674904e+01    9.986527e-01   -3.122066e+00
   6.930000e+04   9.975859e-01   -3.215028e+00    5.193464e-02    8.671195e+01    5.223431e-02    8.679387e+01    9.986180e-01   -3.188051e+00
   7.030000e+04   9.981300e-01   -3.243025e+00    5.277382e-02    8.665994e+01    5.293207e-02    8.665991e+01    9.985700e-01   -3.239044e+00
   7.130000e+04   9.985090e-01   -3.268042e+00    5.346977e-02    8.660203e+01    5.367323e-02    8.656599e+01    9.980492e-01   -3.283028e+00
   7.230000e+04   9.984979e-01   -3.310084e+00    5.425051e-02    8.663587e+01    5.438192e-02    8.656002e+01    9.980396e-01   -3.311050e+00
   7.330000e+04   9.982709e-01   -3.394050e+00    5.502418e-02    8.650695e+01    5.525275e-02    8.657590e+01    9.983849e-01   -3.361065e+00
   7.430000e+04   9.984050e-01   -3.444007e+00    5.568152e-02    8.645896e+01    5.595779e-02    8.647796e+01    9.976230e-01   -3.426008e+00
   7.530000e+04   9.983599e-01   -3.451084e+00    5.649445e-02    8.641599e+01    5.670959e-02    8.643487e+01    9.975868e-01   -3.434061e+00
   7.630000e+04   9.981487e-01   -3.535006e+00    5.718754e-02    8.640090e+01    5.749779e-02    8.630109e+01    9.981479e-01   -3.495049e+00
   7.730000e+04   9.982705e-01   -3.541060e+00    5.800822e-02    8.630095e+01    5.828280e-02    8.639498e+01    9.974366e-01   -3.544079e+00
   7.830000e+04   9.978233e-01   -3.601018e+00    5.861512e-02    8.624798e+01    5.900780e-02    8.637689e+01    9.981674e-01   -3.623041e+00
   7.930000e+04   9.980912e-01   -3.619070e+00    5.944652e-02    8.622906e+01    5.981016e-02    8.626989e+01    9.978608e-01   -3.664013e+00
   8.030000e+04   9.981539e-01   -3.689016e+00    6.029787e-02    8.628775e+01    6.046484e-02    8.616303e+01    9.973498e-01   -3.677065e+00
   8.130000e+04   9.980743e-01   -3.705066e+00    6.091182e-02    8.603406e+01    6.121412e-02    8.619800e+01    9.972323e-01   -3.742018e+00
   8.230000e+04   9.978028e-01   -3.771038e+00    6.169018e-02    8.609389e+01    6.200339e-02    8.619791e+01    9.979648e-01   -3.760018e+00
   8.330000e+04   9.978283e-01   -3.809070e+00    6.249011e-02    8.597904e+01    6.271356e-02    8.611085e+01    9.978290e-01   -3.778089e+00
   8.430000e+04   9.973148e-01   -3.878993e+00    6.324656e-02    8.602296e+01    6.348735e-02    8.596503e+01    9.979351e-01   -3.867028e+00
   8.530000e+04   9.976400e-01   -3.872104e+00    6.393715e-02    8.598485e+01    6.422488e-02    8.599294e+01    9.978082e-01   -3.895067e+00
   8.630000e+04   9.974419e-01   -3.976053e+00    6.471298e-02    8.583501e+01    6.500432e-02    8.593491e+01    9.977855e-01   -3.962060e+00
   8.730000e+04   9.977560e-01   -4.029021e+00    6.529248e-02    8.584096e+01    6.571458e-02    8.584603e+01    9.971430e-01   -4.022009e+00
   8.830000e+04   9.968324e-01   -4.050068e+00    6.618761e-02    8.579698e+01    6.640142e-02    8.587291e+01    9.977648e-01   -4.031089e+00
   8.930000e+04   9.976333e-01   -4.118023e+00    6.693847e-02    8.578092e+01    6.725521e-02    8.578493e+01    9.974028e-01   -4.120032e+00
   9.030000e+04   9.976376e-01   -4.141063e+00    6.769015e-02    8.569799e+01    6.803391e-02    8.571395e+01    9.965999e-01   -4.152069e+00
   9.130000e+04   9.975576e-01   -4.204037e+00    6.844522e-02    8.569286e+01    6.878485e-02    8.566593e+01    9.970988e-01   -4.221029e+00
   9.230000e+04   9.973254e-01   -4.241016e+00    6.923748e-02    8.555810e+01    6.953311e-02    8.559099e+01    9.973255e-01   -4.250007e+00
   9.330000e+04   9.972398e-01   -4.257049e+00    6.992850e-02    8.565791e+01    7.029169e-02    8.558596e+01    9.973537e-01   -4.257041e+00
   9.430000e+04   9.974214e-01   -4.306050e+00    7.068420e-02    8.556600e+01    7.101054e-02    8.554895e+01    9.965945e-01   -4.298043e+00
   9.530000e+04   9.968646e-01   -4.356051e+00    7.136584e-02    8.556484e+01    7.176960e-02    8.549695e+01    9.973227e-01   -4.341084e+00
   9.630000e+04   9.972709e-01   -4.407085e+00    7.208051e-02    8.540093e+01    7.251340e-02    8.544491e+01    9.965827e-01   -4.425050e+00
   9.730000e+04   9.970840e-01   -4.492020e+00    7.285108e-02    8.533201e+01    7.335606e-02    8.535698e+01    9.968541e-01   -4.475028e+00
   9.830000e+04   9.971259e-01   -4.512022e+00    7.356232e-02    8.533897e+01    7.407197e-02    8.534190e+01    9.965525e-01   -4.503065e+00
   9.930000e+04   9.970055e-01   -4.534073e+00    7.447343e-02    8.530793e+01    7.473119e-02    8.524694e+01    9.968905e-01   -4.568033e+00
   1.003000e+05   9.969892e-01   -4.607116e+00    7.512758e-02    8.524101e+01    7.547458e-02    8.518691e+01    9.966465e-01   -4.601146e+00
   1.013000e+05   9.964960e-01   -4.665006e+00    7.586373e-02    8.524688e+01    7.632788e-02    8.514098e+01    9.969548e-01   -4.674038e+00
   1.023000e+05   9.965390e-01   -4.668182e+00    7.662174e-02    8.518781e+01    7.700204e-02    8.513097e+01    9.968814e-01   -4.693086e+00
   1.033000e+05   9.968725e-01   -4.759058e+00    7.733019e-02    8.509512e+01    7.773155e-02    8.511671e+01    9.962995e-01   -4.736138e+00
   1.043000e+05   9.967893e-01   -4.788140e+00    7.816470e-02    8.515664e+01    7.841727e-02    8.497196e+01    9.965572e-01   -4.805126e+00
   1.053000e+05   9.968152e-01   -4.858076e+00    7.882676e-02    8.497789e+01    7.917230e-02    8.494984e+01    9.953276e-01   -4.868062e+00
   1.063000e+05   9.964244e-01   -4.896068e+00    7.961646e-02    8.492295e+01    7.992872e-02    8.487096e+01    9.965377e-01   -4.899042e+00
   1.073000e+05   9.966014e-01   -4.930144e+00    8.041362e-02    8.489885e+01    8.072901e-02    8.484891e+01    9.960281e-01   -4.920124e+00
   1.083000e+05   9.965244e-01   -5.002018e+00    8.116074e-02    8.482599e+01    8.147908e-02    8.480408e+01    9.960672e-01   -4.982084e+00
   1.093000e+05   9.961340e-01   -5.011236e+00    8.187954e-02    8.482087e+01    8.221011e-02    8.484280e+01    9.964775e-01   -5.024104e+00
   1.103000e+05   9.963043e-01   -5.128996e+00    8.261316e-02    8.475776e+01    8.292776e-02    8.474491e+01    9.963039e-01   -5.076124e+00
   1.113000e+05   9.962565e-01   -5.127094e+00    8.329697e-02    8.463616e+01    8.368149e-02    8.470187e+01    9.960265e-01   -5.138104e+00
   1.123000e+05   9.963182e-01   -5.174182e+00    8.407293e-02    8.471391e+01    8.448031e-02    8.463882e+01    9.957458e-01   -5.190020e+00
   1.133000e+05   9.961382e-01   -5.264998e+00    8.484507e-02    8.466882e+01    8.518786e-02    8.454797e+01    9.960237e-01   -5.200152e+00
   1.143000e+05   9.959711e-01   -5.264116e+00    8.551776e-02    8.457989e+01    8.597128e-02    8.453400e+01    9.959718e-01   -5.276026e+00
   1.153000e+05   9.957619e-01   -5.322038e+00    8.643927e-02    8.452295e+01    8.660912e-02    8.453497e+01    9.961052e-01   -5.289102e+00
   1.163000e+05   9.958757e-01   -5.341124e+00    8.700892e-02    8.449883e+01    8.743038e-02    8.451878e+01    9.958767e-01   -5.340090e+00
   1.173000e+05   9.954876e-01   -5.403054e+00    8.784010e-02    8.441293e+01    8.812390e-02    8.440701e+01    9.959455e-01   -5.385086e+00
   1.183000e+05   9.956599e-01   -5.430118e+00    8.855591e-02    8.437689e+01    8.893402e-02    8.441178e+01    9.957718e-01   -5.428110e+00
   1.193000e+05   9.958821e-01   -5.489092e+00    8.924160e-02    8.432089e+01    8.966361e-02    8.430301e+01    9.946256e-01   -5.483154e+00
   1.203000e+05   9.951138e-01   -5.535138e+00    9.014205e-02    8.426801e+01    9.045420e-02    8.430978e+01    9.957989e-01   -5.559980e+00
   1.213000e+05   9.956742e-01   -5.603966e+00    9.068289e-02    8.427096e+01    9.113273e-02    8.420203e+01    9.951025e-01   -5.550122e+00
   1.223000e+05   9.954064e-01   -5.587074e+00    9.150768e-02    8.425092e+01    9.185619e-02    8.421898e+01    9.955219e-01   -5.611148e+00
   1.233000e+05   9.950071e-01   -5.624176e+00    9.222155e-02    8.421082e+01    9.266867e-02    8.420969e+01    9.955778e-01   -5.684954e+00
   1.243000e+05   9.954069e-01   -5.712142e+00    9.291995e-02    8.412086e+01    9.342379e-02    8.405697e+01    9.948345e-01   -5.662222e+00
   1.253000e+05   9.953693e-01   -5.783126e+00    9.380811e-02    8.405293e+01    9.415444e-02    8.404302e+01    9.950233e-01   -5.772988e+00
   1.263000e+05   9.954359e-01   -5.845916e+00    9.447568e-02    8.401697e+01    9.486819e-02    8.405499e+01    9.939499e-01   -5.767092e+00
   1.273000e+05   9.951277e-01   -5.804190e+00    9.517803e-02    8.400085e+01    9.563915e-02    8.404783e+01    9.950140e-01   -5.813122e+00
   1.283000e+05   9.948111e-01   -5.899004e+00    9.601682e-02    8.392496e+01    9.637137e-02    8.396192e+01    9.951556e-01   -5.874192e+00
   1.293000e+05   9.943649e-01   -5.901156e+00    9.671671e-02    8.390384e+01    9.715220e-02    8.392183e+01    9.951653e-01   -5.969948e+00
   1.303000e+05   9.947037e-01   -5.979140e+00    9.738711e-02    8.382295e+01    9.794879e-02    8.383785e+01    9.948189e-01   -5.944122e+00
   1.313000e+05   9.944883e-01   -6.049058e+00    9.823273e-02    8.379706e+01    9.852749e-02    8.376204e+01    9.949466e-01   -6.004902e+00
   1.323000e+05   9.943095e-01   -6.078102e+00    9.895262e-02    8.382689e+01    9.938666e-02    8.378285e+01    9.948811e-01   -5.956220e+00
   1.333000e+05   9.945477e-01   -6.129034e+00    9.962816e-02    8.376997e+01    1.001569e-01    8.370890e+01    9.946606e-01   -6.066120e+00
   1.343000e+05   9.947806e-01   -6.146030e+00    1.004001e-01    8.375275e+01    1.008057e-01    8.365803e+01    9.940971e-01   -6.126094e+00
