!{R05L1R3}
!Johanson Technology Inc.
!www.johansontechnology.com
!Test Board Conditions:
!Substrate Type  RO4350B
!Substrate Thickness        10 mil
!Substrate Dk      3.66
!TL Type: GCPW 
!TL Trace Width  22 mil
!TL Gap  25 mil
!Electrode orientation      Horizontal
!DUT TOPOLOGY	SERIES
!Mounting Pad LxW         11x14.5 mil
! Created Wed Nov 25 17:33:21 2020
! 2 Port Network Data from SP1.SP block
! freq  magS11  angS11  magS21  angS21  magS12  angS12  magS22  angS22  
! 
# khz S ma R 50  
   3.000000e+02   9.973555e-01    6.636000e-03    2.592388e-04    9.832900e+01    2.270649e-04    9.867300e+01    9.970111e-01   -2.200000e-02
   1.300000e+03   9.998782e-01    6.400000e-02    1.010176e-03    8.895500e+01    1.042430e-03    8.901700e+01    9.999933e-01    4.300000e-02
   2.300000e+03   9.999962e-01   -1.300000e-01    1.784220e-03    8.991100e+01    1.832307e-03    8.919100e+01    9.994232e-01   -1.340000e-01
   3.300000e+03   9.999949e-01   -2.030000e-01    2.627833e-03    8.985800e+01    2.639963e-03    8.914200e+01    9.996496e-01   -2.270000e-01
   4.300000e+03   9.997624e-01   -3.030000e-01    3.399749e-03    8.930500e+01    3.414655e-03    8.980100e+01    9.999926e-01   -3.080000e-01
   5.300000e+03   9.999621e-01   -3.460000e-01    4.187777e-03    8.923100e+01    4.226526e-03    8.951600e+01    9.999621e-01   -3.530000e-01
   6.300000e+03   9.999856e-01   -3.880000e-01    4.985902e-03    8.954600e+01    5.000274e-03    8.936300e+01    9.997554e-01   -4.160000e-01
   7.300000e+03   9.998340e-01   -4.340000e-01    5.794965e-03    8.989100e+01    5.805650e-03    8.950600e+01    9.999807e-01   -4.460000e-01
   8.300000e+03   9.995049e-01   -4.730000e-01    6.593106e-03    8.965400e+01    6.600701e-03    8.930400e+01    9.999772e-01   -4.840000e-01
   9.300000e+03   9.999566e-01   -5.270000e-01    7.372121e-03    8.951600e+01    7.389966e-03    8.925600e+01    9.999597e-01   -5.440000e-01
   1.030000e+04   9.998277e-01   -5.070000e-01    8.149857e-03    8.948700e+01    8.159245e-03    8.961300e+01    9.995215e-01   -5.310000e-01
   1.130000e+04   9.985044e-01   -5.470000e-01    8.927914e-03    8.924200e+01    8.917641e-03    8.942500e+01    9.986194e-01   -5.440000e-01
   1.230000e+04   9.986194e-01   -5.290000e-01    9.735315e-03    8.950100e+01    9.736436e-03    8.946100e+01    9.979298e-01   -5.560000e-01
   1.330000e+04   9.980447e-01   -5.960000e-01    1.049059e-02    8.926900e+01    1.055237e-02    8.962900e+01    9.982746e-01   -5.960000e-01
   1.430000e+04   9.979298e-01   -6.140000e-01    1.127847e-02    8.942600e+01    1.129536e-02    8.917700e+01    9.981596e-01   -6.420000e-01
   1.530000e+04   9.993511e-01   -6.710000e-01    1.210319e-02    8.914000e+01    1.213249e-02    8.944800e+01    9.982746e-01   -6.900000e-01
   1.630000e+04   9.985044e-01   -7.230000e-01    1.289437e-02    8.888900e+01    1.295538e-02    8.944200e+01    9.989687e-01   -7.410000e-01
   1.730000e+04   9.995089e-01   -7.890000e-01    1.368044e-02    8.924200e+01    1.374042e-02    8.928300e+01    9.993769e-01   -8.190000e-01
   1.830000e+04   9.996967e-01   -8.570000e-01    1.448698e-02    8.910100e+01    1.452874e-02    8.915600e+01    9.998915e-01   -8.810000e-01
   1.930000e+04   9.998793e-01   -9.360000e-01    1.528458e-02    8.899200e+01    1.531981e-02    8.914500e+01    9.997632e-01   -9.400000e-01
   2.030000e+04   9.997227e-01   -1.002000e+00    1.605326e-02    8.900300e+01    1.612550e-02    8.890500e+01    9.998601e-01   -1.025000e+00
   2.130000e+04   9.998349e-01   -1.063000e+00    1.681513e-02    8.882400e+01    1.690831e-02    8.889800e+01    9.997408e-01   -1.084000e+00
   2.230000e+04   9.994409e-01   -1.090000e+00    1.759288e-02    8.892300e+01    1.769851e-02    8.871500e+01    9.998356e-01   -1.164000e+00
   2.330000e+04   9.998256e-01   -1.180000e+00    1.844008e-02    8.880300e+01    1.849749e-02    8.879600e+01    9.995257e-01   -1.195000e+00
   2.430000e+04   9.998096e-01   -1.249000e+00    1.924991e-02    8.863300e+01    1.930539e-02    8.877600e+01    9.994072e-01   -1.191000e+00
   2.530000e+04   9.997901e-01   -1.246000e+00    1.998371e-02    8.877000e+01    2.008983e-02    8.855300e+01    9.993170e-01   -1.244000e+00
   2.630000e+04   9.997041e-01   -1.318000e+00    2.076968e-02    8.862300e+01    2.087997e-02    8.857300e+01    9.997314e-01   -1.319000e+00
   2.730000e+04   9.997128e-01   -1.345000e+00    2.157059e-02    8.848000e+01    2.170261e-02    8.870900e+01    9.996722e-01   -1.351000e+00
   2.830000e+04   9.996413e-01   -1.400000e+00    2.233377e-02    8.858300e+01    2.251708e-02    8.847300e+01    9.996586e-01   -1.379000e+00
   2.930000e+04   9.992321e-01   -1.418000e+00    2.313690e-02    8.849500e+01    2.325975e-02    8.847800e+01    9.997193e-01   -1.421000e+00
   3.030000e+04   9.995927e-01   -1.469000e+00    2.395724e-02    8.850100e+01    2.405674e-02    8.861000e+01    9.996891e-01   -1.464000e+00
   3.130000e+04   9.996786e-01   -1.503000e+00    2.475284e-02    8.844500e+01    2.481847e-02    8.856800e+01    9.996021e-01   -1.532000e+00
   3.230000e+04   9.996486e-01   -1.536000e+00    2.548557e-02    8.846000e+01    2.566518e-02    8.851600e+01    9.993155e-01   -1.553000e+00
   3.330000e+04   9.993025e-01   -1.568000e+00    2.630466e-02    8.827900e+01    2.642304e-02    8.837500e+01    9.996365e-01   -1.600000e+00
   3.430000e+04   9.995643e-01   -1.631024e+00    2.709393e-02    8.827994e+01    2.720340e-02    8.837090e+01    9.995795e-01   -1.637063e+00
   3.530000e+04   9.995267e-01   -1.655044e+00    2.790408e-02    8.821898e+01    2.808455e-02    8.827199e+01    9.994881e-01   -1.700049e+00
   3.630000e+04   9.993228e-01   -1.699057e+00    2.866611e-02    8.819598e+01    2.883824e-02    8.825890e+01    9.995551e-01   -1.749044e+00
   3.730000e+04   9.991600e-01   -1.756106e+00    2.945873e-02    8.817085e+01    2.963224e-02    8.815496e+01    9.995411e-01   -1.793051e+00
   3.830000e+04   9.991399e-01   -1.862035e+00    3.021834e-02    8.802299e+01    3.042413e-02    8.811894e+01    9.995085e-01   -1.844042e+00
   3.930000e+04   9.986773e-01   -1.896989e+00    3.111339e-02    8.801713e+01    3.115662e-02    8.805773e+01    9.995116e-01   -1.886044e+00
   4.030000e+04   9.992756e-01   -1.886119e+00    3.179044e-02    8.814675e+01    3.204755e-02    8.779209e+01    9.993903e-01   -1.930023e+00
   4.130000e+04   9.994257e-01   -2.004974e+00    3.262314e-02    8.789914e+01    3.276246e-02    8.787902e+01    9.991925e-01   -1.953083e+00
   4.230000e+04   9.992116e-01   -1.979097e+00    3.347790e-02    8.803393e+01    3.367871e-02    8.790100e+01    9.993889e-01   -2.036100e+00
   4.330000e+04   9.990630e-01   -2.076046e+00    3.433614e-02    8.796095e+01    3.433627e-02    8.790091e+01    9.994078e-01   -2.136021e+00
   4.430000e+04   9.992774e-01   -2.122029e+00    3.502077e-02    8.791469e+01    3.514993e-02    8.780701e+01    9.993439e-01   -2.157077e+00
   4.530000e+04   9.992903e-01   -2.151107e+00    3.588806e-02    8.760412e+01    3.592127e-02    8.781491e+01    9.992910e-01   -2.234022e+00
   4.630000e+04   9.987069e-01   -2.258016e+00    3.655633e-02    8.772473e+01    3.672931e-02    8.772074e+01    9.993149e-01   -2.256077e+00
   4.730000e+04   9.992480e-01   -2.274092e+00    3.738794e-02    8.745419e+01    3.758653e-02    8.746503e+01    9.985886e-01   -2.333077e+00
   4.830000e+04   9.991281e-01   -2.366067e+00    3.809669e-02    8.764485e+01    3.835625e-02    8.749393e+01    9.991419e-01   -2.410033e+00
   4.930000e+04   9.992051e-01   -2.433021e+00    3.896841e-02    8.749397e+01    3.913492e-02    8.742911e+01    9.988602e-01   -2.443049e+00
   5.030000e+04   9.991188e-01   -2.454063e+00    3.968951e-02    8.745899e+01    4.001520e-02    8.753686e+01    9.988899e-01   -2.492057e+00
   5.130000e+04   9.983181e-01   -2.517085e+00    4.044288e-02    8.744589e+01    4.070443e-02    8.739590e+01    9.991540e-01   -2.549054e+00
   5.230000e+04   9.990532e-01   -2.602079e+00    4.132826e-02    8.733097e+01    4.156204e-02    8.729589e+01    9.989389e-01   -2.603058e+00
   5.330000e+04   9.985064e-01   -2.681065e+00    4.211720e-02    8.730277e+01    4.232620e-02    8.718290e+01    9.990821e-01   -2.661112e+00
   5.430000e+04   9.977246e-01   -2.745935e+00    4.291888e-02    8.707802e+01    4.311196e-02    8.708504e+01    9.990553e-01   -2.773011e+00
   5.530000e+04   9.987446e-01   -2.681133e+00    4.379354e-02    8.709894e+01    4.392505e-02    8.712977e+01    9.989748e-01   -2.784071e+00
   5.630000e+04   9.984272e-01   -2.814019e+00    4.434400e-02    8.703909e+01    4.470271e-02    8.690012e+01    9.989117e-01   -2.855072e+00
   5.730000e+04   9.980748e-01   -2.833128e+00    4.513924e-02    8.713187e+01    4.539987e-02    8.702387e+01    9.989532e-01   -2.926998e+00
   5.830000e+04   9.986371e-01   -2.960952e+00    4.608093e-02    8.700104e+01    4.638410e-02    8.689092e+01    9.988235e-01   -2.925039e+00
   5.930000e+04   9.988527e-01   -2.913084e+00    4.692010e-02    8.704278e+01    4.700141e-02    8.680707e+01    9.985656e-01   -2.964074e+00
   6.030000e+04   9.972651e-01   -2.997051e+00    4.756665e-02    8.682003e+01    4.785771e-02    8.687497e+01    9.988380e-01   -3.038050e+00
   6.130000e+04   9.986796e-01   -3.048048e+00    4.838095e-02    8.685490e+01    4.860423e-02    8.684080e+01    9.986997e-01   -3.088105e+00
   6.230000e+04   9.987253e-01   -3.096077e+00    4.922133e-02    8.675296e+01    4.941441e-02    8.663711e+01    9.982804e-01   -3.193046e+00
   6.330000e+04   9.986095e-01   -3.173056e+00    4.991424e-02    8.670992e+01    5.013874e-02    8.674497e+01    9.986304e-01   -3.238976e+00
   6.430000e+04   9.985595e-01   -3.229082e+00    5.082543e-02    8.662797e+01    5.093108e-02    8.671188e+01    9.986208e-01   -3.215077e+00
   6.530000e+04   9.985546e-01   -3.311011e+00    5.156156e-02    8.659300e+01    5.187709e-02    8.659188e+01    9.983386e-01   -3.292042e+00
   6.630000e+04   9.985737e-01   -3.322048e+00    5.237432e-02    8.659286e+01    5.264026e-02    8.647501e+01    9.978762e-01   -3.334087e+00
   6.730000e+04   9.985018e-01   -3.370021e+00    5.322855e-02    8.644905e+01    5.345574e-02    8.648703e+01    9.981787e-01   -3.420974e+00
   6.830000e+04   9.983576e-01   -3.391052e+00    5.394425e-02    8.649888e+01    5.413717e-02    8.651993e+01    9.984390e-01   -3.395110e+00
   6.930000e+04   9.982012e-01   -3.443015e+00    5.473322e-02    8.637596e+01    5.497947e-02    8.645087e+01    9.984014e-01   -3.505056e+00
   7.030000e+04   9.964135e-01   -3.458053e+00    5.552585e-02    8.633294e+01    5.571788e-02    8.632304e+01    9.984326e-01   -3.561006e+00
   7.130000e+04   9.983714e-01   -3.511102e+00    5.635432e-02    8.627390e+01    5.646483e-02    8.636181e+01    9.977490e-01   -3.567094e+00
   7.230000e+04   9.982710e-01   -3.613033e+00    5.712693e-02    8.617306e+01    5.734438e-02    8.617304e+01    9.978181e-01   -3.661011e+00
   7.330000e+04   9.976264e-01   -3.646039e+00    5.795278e-02    8.623206e+01    5.817328e-02    8.621594e+01    9.982731e-01   -3.672025e+00
   7.430000e+04   9.975906e-01   -3.685039e+00    5.879376e-02    8.628689e+01    5.892261e-02    8.615309e+01    9.982463e-01   -3.697077e+00
   7.530000e+04   9.980923e-01   -3.724047e+00    5.949841e-02    8.617992e+01    5.972500e-02    8.624396e+01    9.981074e-01   -3.774036e+00
   7.630000e+04   9.981319e-01   -3.771045e+00    6.017199e-02    8.610299e+01    6.051240e-02    8.620590e+01    9.974434e-01   -3.810010e+00
   7.730000e+04   9.979273e-01   -3.816030e+00    6.105259e-02    8.609095e+01    6.139798e-02    8.610293e+01    9.979278e-01   -3.820049e+00
   7.830000e+04   9.974742e-01   -3.846064e+00    6.175285e-02    8.604192e+01    6.210224e-02    8.603392e+01    9.980075e-01   -3.869067e+00
   7.930000e+04   9.978465e-01   -3.910038e+00    6.254171e-02    8.595989e+01    6.292440e-02    8.595090e+01    9.977314e-01   -3.936092e+00
   8.030000e+04   9.978592e-01   -3.948060e+00    6.340501e-02    8.584600e+01    6.369766e-02    8.584795e+01    9.975120e-01   -4.027970e+00
   8.130000e+04   9.978696e-01   -4.007978e+00    6.416221e-02    8.584699e+01    6.444363e-02    8.580099e+01    9.969521e-01   -3.998044e+00
   8.230000e+04   9.974631e-01   -3.986101e+00    6.494591e-02    8.583989e+01    6.533594e-02    8.579491e+01    9.976932e-01   -4.042105e+00
   8.330000e+04   9.971307e-01   -4.087058e+00    6.566851e-02    8.572897e+01    6.610839e-02    8.570699e+01    9.977039e-01   -4.146995e+00
   8.430000e+04   9.976485e-01   -4.145086e+00    6.647541e-02    8.570001e+01    6.682839e-02    8.569293e+01    9.972541e-01   -4.142094e+00
   8.530000e+04   9.969684e-01   -4.230996e+00    6.729559e-02    8.570490e+01    6.765293e-02    8.561998e+01    9.976567e-01   -4.236049e+00
   8.630000e+04   9.974154e-01   -4.227060e+00    6.812890e-02    8.560491e+01    6.849061e-02    8.559995e+01    9.974156e-01   -4.285032e+00
   8.730000e+04   9.972181e-01   -4.287048e+00    6.894367e-02    8.551899e+01    6.926193e-02    8.555499e+01    9.974467e-01   -4.317034e+00
   8.830000e+04   9.974940e-01   -4.335057e+00    6.963305e-02    8.550895e+01    6.998671e-02    8.554790e+01    9.966905e-01   -4.351060e+00
   8.930000e+04   9.974227e-01   -4.392044e+00    7.045056e-02    8.545795e+01    7.083274e-02    8.545195e+01    9.966195e-01   -4.411081e+00
   9.030000e+04   9.973471e-01   -4.436043e+00    7.128547e-02    8.540592e+01    7.160628e-02    8.540094e+01    9.968891e-01   -4.492053e+00
   9.130000e+04   9.966155e-01   -4.479024e+00    7.199995e-02    8.532595e+01    7.234064e-02    8.534004e+01    9.973038e-01   -4.544998e+00
   9.230000e+04   9.966674e-01   -4.503073e+00    7.276202e-02    8.527896e+01    7.313163e-02    8.538291e+01    9.970115e-01   -4.543035e+00
   9.330000e+04   9.969050e-01   -4.576028e+00    7.353747e-02    8.524096e+01    7.399595e-02    8.528896e+01    9.970195e-01   -4.578043e+00
   9.430000e+04   9.969964e-01   -4.604042e+00    7.437864e-02    8.519901e+01    7.471345e-02    8.524798e+01    9.968819e-01   -4.621056e+00
   9.530000e+04   9.968224e-01   -4.646065e+00    7.515746e-02    8.520899e+01    7.559134e-02    8.522784e+01    9.969365e-01   -4.677027e+00
   9.630000e+04   9.969663e-01   -4.711038e+00    7.591637e-02    8.520190e+01    7.634583e-02    8.506398e+01    9.963936e-01   -4.704088e+00
   9.730000e+04   9.964298e-01   -4.749031e+00    7.673642e-02    8.510194e+01    7.715268e-02    8.504395e+01    9.968887e-01   -4.792041e+00
   9.830000e+04   9.963717e-01   -4.780079e+00    7.758454e-02    8.504099e+01    7.791587e-02    8.499395e+01    9.968303e-01   -4.833033e+00
   9.930000e+04   9.965408e-01   -4.859008e+00    7.827981e-02    8.502994e+01    7.874070e-02    8.494601e+01    9.966555e-01   -4.866037e+00
   1.003000e+05   9.965033e-01   -4.867142e+00    7.912005e-02    8.496678e+01    7.949467e-02    8.495869e+01    9.966189e-01   -4.903128e+00
   1.013000e+05   9.960158e-01   -4.938086e+00    7.979493e-02    8.485801e+01    8.030180e-02    8.480598e+01    9.965889e-01   -4.967130e+00
   1.023000e+05   9.961635e-01   -4.981124e+00    8.063802e-02    8.486485e+01    8.115004e-02    8.479583e+01    9.965083e-01   -5.032126e+00
   1.033000e+05   9.958395e-01   -5.043162e+00    8.147003e-02    8.479200e+01    8.188361e-02    8.471298e+01    9.965253e-01   -5.095042e+00
   1.043000e+05   9.964767e-01   -5.123968e+00    8.232385e-02    8.478988e+01    8.265638e-02    8.470298e+01    9.960204e-01   -5.116060e+00
   1.053000e+05   9.956209e-01   -5.108098e+00    8.306174e-02    8.472986e+01    8.346428e-02    8.469398e+01    9.964200e-01   -5.146140e+00
   1.063000e+05   9.963943e-01   -5.157200e+00    8.379914e-02    8.465783e+01    8.416675e-02    8.468466e+01    9.953640e-01   -5.216166e+00
   1.073000e+05   9.961386e-01   -5.257134e+00    8.458201e-02    8.457395e+01    8.505059e-02    8.451393e+01    9.959102e-01   -5.299160e+00
   1.083000e+05   9.959085e-01   -5.324022e+00    8.536422e-02    8.454691e+01    8.576832e-02    8.447699e+01    9.961358e-01   -5.379008e+00
   1.093000e+05   9.961421e-01   -5.335166e+00    8.601627e-02    8.450387e+01    8.652281e-02    8.446984e+01    9.953419e-01   -5.383088e+00
   1.103000e+05   9.956245e-01   -5.417990e+00    8.689682e-02    8.443686e+01    8.740828e-02    8.439096e+01    9.959693e-01   -5.427196e+00
   1.113000e+05   9.952173e-01   -5.413116e+00    8.769519e-02    8.436896e+01    8.807965e-02    8.436997e+01    9.960199e-01   -5.524910e+00
   1.123000e+05   9.950411e-01   -5.471158e+00    8.847055e-02    8.434785e+01    8.883810e-02    8.435678e+01    9.959570e-01   -5.480128e+00
   1.133000e+05   9.953219e-01   -5.550092e+00    8.928358e-02    8.427388e+01    8.970594e-02    8.424490e+01    9.957806e-01   -5.544128e+00
   1.143000e+05   9.951686e-01   -5.596054e+00    9.009577e-02    8.421407e+01    9.048029e-02    8.419703e+01    9.957407e-01   -5.608026e+00
   1.153000e+05   9.954858e-01   -5.623144e+00    9.092654e-02    8.424770e+01    9.127295e-02    8.420977e+01    9.955972e-01   -5.621184e+00
   1.163000e+05   9.956723e-01   -5.695080e+00    9.153234e-02    8.409699e+01    9.202880e-02    8.409593e+01    9.941848e-01   -5.713084e+00
   1.173000e+05   9.955508e-01   -5.735006e+00    9.237864e-02    8.409187e+01    9.279425e-02    8.405996e+01    9.948649e-01   -5.755150e+00
   1.183000e+05   9.952153e-01   -5.738142e+00    9.321247e-02    8.402504e+01    9.357814e-02    8.403882e+01    9.953286e-01   -5.830076e+00
   1.193000e+05   9.953946e-01   -5.809104e+00    9.397312e-02    8.404577e+01    9.438492e-02    8.394800e+01    9.948236e-01   -5.868004e+00
   1.203000e+05   9.949082e-01   -5.861020e+00    9.482886e-02    8.393098e+01    9.513492e-02    8.394601e+01    9.952510e-01   -5.870116e+00
   1.213000e+05   9.951527e-01   -5.871290e+00    9.567442e-02    8.392288e+01    9.591741e-02    8.395180e+01    9.950395e-01   -5.928084e+00
   1.223000e+05   9.946072e-01   -6.015992e+00    9.629604e-02    8.386284e+01    9.671814e-02    8.385087e+01    9.951799e-01   -5.970168e+00
   1.233000e+05   9.945161e-01   -6.012102e+00    9.704392e-02    8.378496e+01    9.741372e-02    8.378784e+01    9.950878e-01   -6.054100e+00
   1.243000e+05   9.946953e-01   -6.063164e+00    9.779037e-02    8.376687e+01    9.836636e-02    8.370798e+01    9.948096e-01   -6.104120e+00
   1.253000e+05   9.947017e-01   -6.145086e+00    9.846938e-02    8.370276e+01    9.910617e-02    8.369978e+01    9.947031e-01   -6.164104e+00
   1.263000e+05   9.940960e-01   -6.187944e+00    9.935402e-02    8.358309e+01    9.993901e-02    8.359110e+01    9.947820e-01   -6.215972e+00
   1.273000e+05   9.943833e-01   -6.160206e+00    1.001986e-01    8.362673e+01    1.007418e-01    8.363880e+01    9.946132e-01   -6.202160e+00
   1.283000e+05   9.939815e-01   -6.263126e+00    1.010379e-01    8.349395e+01    1.013993e-01    8.353805e+01    9.946663e-01   -6.282084e+00
   1.293000e+05   9.945478e-01   -6.325894e+00    1.017963e-01    8.346807e+01    1.022543e-01    8.356176e+01    9.942036e-01   -6.324154e+00
   1.303000e+05   9.945199e-01   -6.273252e+00    1.025347e-01    8.350273e+01    1.029607e-01    8.344387e+01    9.938350e-01   -6.401120e+00
   1.313000e+05   9.940554e-01   -6.399174e+00    1.033750e-01    8.336606e+01    1.038640e-01    8.338083e+01    9.942827e-01   -6.460898e+00
   1.323000e+05   9.943169e-01   -6.485976e+00    1.039996e-01    8.339596e+01    1.044434e-01    8.329603e+01    9.937447e-01   -6.410168e+00
   1.333000e+05   9.942874e-01   -6.474114e+00    1.048140e-01    8.337682e+01    1.052010e-01    8.331091e+01    9.937157e-01   -6.494108e+00
   1.343000e+05   9.941007e-01   -6.531028e+00    1.056665e-01    8.328900e+01    1.061297e-01    8.326403e+01    9.937579e-01   -6.548070e+00
