! P/N: 250R05L0R4BV4								
! Measured by Marlon								
! Oct. 29, 2003								
#	mhz	s	ma	r	50
0	0.00000	-90.00000	0.99999	0.00000	0.99999	0.00000	0.00000	-90.00000			
50	0.00656	-132.13362	0.99059	-0.84201	0.99059	-0.84201	0.00656	-132.13362
70	0.00814	-119.85283	0.99999	-0.98304	0.99999	-0.98304	0.00814	-119.85283
90	0.00937	-110.64366	0.99999	-1.22722	0.99999	-1.22722	0.00937	-110.64366
110	0.01002	-108.39556	0.99999	-1.44188	0.99999	-1.44188	0.01002	-108.39556
130	0.01026	-110.31452	0.99999	-1.61532	0.99999	-1.61532	0.01026	-110.31452
150	0.01064	-106.92303	0.99999	-1.8568	0.99999	-1.8568	0.01064	-106.92303
170	0.01276	-106.97438	0.99999	-2.18853	0.99999	-2.18853	0.01276	-106.97438
190	0.01551	-105.09456	0.99999	-2.47431	0.99999	-2.47431	0.01551	-105.09456
210	0.01817	-103.80142	0.99999	-2.71388	0.99999	-2.71388	0.01817	-103.80142
230	0.02024	-101.89552	0.99999	-2.98655	0.99999	-2.98655	0.02024	-101.89552
250	0.02144	-94.46009	0.99999	-3.45123	0.99999	-3.45123	0.02144	-94.46009
270	0.02327	-89.81592	0.99999	-3.31699	0.99999	-3.31699	0.02327	-89.81592
290	0.02378	-86.42704	0.99999	-3.56045	0.99999	-3.56045	0.02378	-86.42704
310	0.02357	-83.895	0.99999	-3.87796	0.99999	-3.87796	0.02357	-83.895
330	0.02284	-83.05034	0.99999	-4.16642	0.99999	-4.16642	0.02284	-83.05034
350	0.02135	-85.95268	0.99999	-4.52332	0.99999	-4.52332	0.02135	-85.95268
370	0.02162	-90.95409	0.99999	-4.61221	0.99999	-4.61221	0.02162	-90.95409
390	0.02312	-97.4134	0.99999	-4.82827	0.99999	-4.82827	0.02312	-97.4134
410	0.02522	-102.67548	0.99999	-5.22435	0.99999	-5.22435	0.02522	-102.67548
430	0.02778	-105.54082	0.99999	-5.61291	0.99999	-5.61291	0.02778	-105.54082
450	0.03104	-106.26556	0.99999	-5.56602	0.99999	-5.56602	0.03104	-106.26556
470	0.03491	-105.51405	0.99999	-5.95098	0.99999	-5.95098	0.03491	-105.51405
490	0.03356	-107.85539	0.99999	-6.04964	0.99999	-6.04964	0.03356	-107.85539
510	0.03348	-107.85147	0.99999	-6.21652	0.99999	-6.21652	0.03348	-107.85147
530	0.03623	-104.70525	0.99999	-6.51566	0.99999	-6.51566	0.03623	-104.70525
550	0.03843	-102.26079	0.99999	-6.72063	0.99999	-6.72063	0.03843	-102.26079
570	0.03982	-99.82237	0.99999	-7.08534	0.99999	-7.08534	0.03982	-99.82237
590	0.04093	-97.95874	0.99999	-7.43367	0.99999	-7.43367	0.04093	-97.95874
610	0.0421	-96.98472	0.99999	-7.68631	0.99999	-7.68631	0.0421	-96.98472
630	0.04322	-96.69031	0.99999	-7.85043	0.99999	-7.85043	0.04322	-96.69031
650	0.04373	-96.34074	0.99999	-8.0197	0.99999	-8.0197	0.04373	-96.34074
670	0.04557	-95.49832	0.99999	-8.26527	0.99999	-8.26527	0.04557	-95.49832
690	0.04662	-94.47145	0.99999	-8.85454	0.99999	-8.85454	0.04662	-94.47145
710	0.04789	-93.60789	0.99999	-9.11133	0.99999	-9.11133	0.04789	-93.60789
730	0.04945	-92.95491	0.99999	-9.01216	0.99999	-9.01216	0.04945	-92.95491
750	0.05042	-92.25925	0.99999	-9.18631	0.99999	-9.18631	0.05042	-92.25925
770	0.05102	-91.1627	0.99999	-9.45635	0.99999	-9.45635	0.05102	-91.1627
790	0.05117	-91.90102	0.99999	-9.67317	0.99999	-9.67317	0.05117	-91.90102
810	0.0514	-92.58724	0.99999	-9.91635	0.99999	-9.91635	0.0514	-92.58724
830	0.05188	-92.82279	0.99929	-10.21543	0.99929	-10.21543	0.05188	-92.82279
850	0.05253	-93.69755	0.99807	-10.54992	0.99807	-10.54992	0.05253	-93.69755
870	0.05406	-94.39468	0.99999	-10.66811	0.99999	-10.66811	0.05406	-94.39468
890	0.0556	-94.87473	0.99999	-10.95361	0.99999	-10.95361	0.0556	-94.87473
910	0.05675	-94.93284	0.99999	-11.19907	0.99999	-11.19907	0.05675	-94.93284
930	0.05747	-94.69249	0.99999	-11.35514	0.99999	-11.35514	0.05747	-94.69249
950	0.05806	-94.60544	0.99999	-11.5305	0.99999	-11.5305	0.05806	-94.60544
970	0.05817	-95.15116	0.99999	-11.97487	0.99999	-11.97487	0.05817	-95.15116
990	0.05858	-96.84241	0.99999	-12.18266	0.99999	-12.18266	0.05858	-96.84241
1010	0.05908	-98.96241	0.99999	-12.3431	0.99999	-12.3431	0.05908	-98.96241
1030	0.06001	-100.99169	0.99901	-12.56671	0.99901	-12.56671	0.06001	-100.99169
1050	0.06221	-102.60807	0.99791	-12.88535	0.99791	-12.88535	0.06221	-102.60807
1070	0.0660	-104.19656	0.99923	-13.115	0.99923	-13.115	0.0660	-104.19656
1090	0.07011	-105.05902	0.99903	-13.40636	0.99903	-13.40636	0.07011	-105.05902
1110	0.07371	-104.89245	0.99879	-13.68907	0.99879	-13.68907	0.07371	-104.89245
1130	0.07664	-103.90631	0.99985	-13.92681	0.99985	-13.92681	0.07664	-103.90631
1150	0.07941	-102.82257	0.99999	-14.11739	0.99999	-14.11739	0.07941	-102.82257
1170	0.08076	-102.2349	0.99999	-14.38207	0.99999	-14.38207	0.08076	-102.2349
1190	0.0816	-101.91184	0.99904	-14.64823	0.99904	-14.64823	0.0816	-101.91184
1210	0.08279	-101.93096	0.99937	-14.91205	0.99937	-14.91205	0.08279	-101.93096
1230	0.08453	-102.11088	0.99999	-15.12638	0.99999	-15.12638	0.08453	-102.11088
1250	0.0863	-102.01127	0.99862	-15.20076	0.99862	-15.20076	0.0863	-102.01127
1270	0.08897	-102.34617	0.99945	-15.6031	0.99945	-15.6031	0.08897	-102.34617
1290	0.09196	-102.06268	0.99994	-15.96744	0.99994	-15.96744	0.09196	-102.06268
1310	0.09425	-101.36516	0.99965	-16.29418	0.99965	-16.29418	0.09425	-101.36516
1330	0.09565	-100.38892	0.99928	-16.53511	0.99928	-16.53511	0.09565	-100.38892
1350	0.09677	-99.20018	0.99999	-16.59347	0.99999	-16.59347	0.09677	-99.20018
1370	0.09604	-98.50302	0.99999	-16.66175	0.99999	-16.66175	0.09604	-98.50302
1390	0.09528	-98.39132	0.99898	-17.06375	0.99898	-17.06375	0.09528	-98.39132
1410	0.09438	-98.87853	0.9986	-17.44833	0.9986	-17.44833	0.09438	-98.87853
1430	0.09375	-99.87321	0.99886	-17.68679	0.99886	-17.68679	0.09375	-99.87321
1450	0.09429	-101.179	0.99754	-17.87288	0.99754	-17.87288	0.09429	-101.179
1470	0.09565	-102.72516	0.99783	-18.33672	0.99783	-18.33672	0.09565	-102.72516
1490	0.09749	-103.43586	0.99677	-18.51665	0.99677	-18.51665	0.09749	-103.43586
1510	0.09933	-103.71882	0.99614	-18.68582	0.99614	-18.68582	0.09933	-103.71882
1530	0.10088	-103.91489	0.99581	-18.92747	0.99581	-18.92747	0.10088	-103.91489
1550	0.10207	-104.298	0.99375	-19.13493	0.99375	-19.13493	0.10207	-104.298
1570	0.10219	-104.71923	0.99764	-19.64258	0.99764	-19.64258	0.10219	-104.71923
1590	0.10221	-105.20939	0.99617	-19.72606	0.99617	-19.72606	0.10221	-105.20939
1610	0.10283	-106.37012	0.99595	-19.89305	0.99595	-19.89305	0.10283	-106.37012
1630	0.10451	-108.16104	0.99791	-20.21822	0.99791	-20.21822	0.10451	-108.16104
1650	0.10741	-109.89966	0.99723	-20.34323	0.99723	-20.34323	0.10741	-109.89966
1670	0.11132	-110.72655	0.99419	-20.42169	0.99419	-20.42169	0.11132	-110.72655
1690	0.11531	-111.06805	0.99503	-20.85877	0.99503	-20.85877	0.11531	-111.06805
1710	0.11865	-110.82319	0.9958	-21.27937	0.9958	-21.27937	0.11865	-110.82319
1730	0.12117	-110.2757	0.99503	-21.61479	0.99503	-21.61479	0.12117	-110.2757
1750	0.12325	-110.09401	0.99371	-22.10267	0.99371	-22.10267	0.12325	-110.09401
1770	0.12352	-110.17354	0.99311	-22.12588	0.99311	-22.12588	0.12352	-110.17354
1790	0.12431	-110.27913	0.9938	-22.30577	0.9938	-22.30577	0.12431	-110.27913
1810	0.12553	-110.89105	0.99358	-22.55884	0.99358	-22.55884	0.12553	-110.89105
1830	0.12747	-111.95227	0.99324	-22.79834	0.99324	-22.79834	0.12747	-111.95227
1850	0.13077	-112.86852	0.99656	-22.93434	0.99656	-22.93434	0.13077	-112.86852
1870	0.1343	-112.99773	0.99322	-23.28141	0.99322	-23.28141	0.1343	-112.99773
1890	0.13761	-112.78683	0.99084	-23.54784	0.99084	-23.54784	0.13761	-112.78683
1910	0.14033	-112.26108	0.98994	-23.87608	0.98994	-23.87608	0.14033	-112.26108
1930	0.14214	-111.54854	0.99099	-24.22104	0.99099	-24.22104	0.14214	-111.54854
1950	0.14274	-110.88008	0.9944	-24.35009	0.9944	-24.35009	0.14274	-110.88008
1970	0.14159	-110.74714	0.99056	-24.63435	0.99056	-24.63435	0.14159	-110.74714
1990	0.1415	-110.63046	0.99001	-24.74695	0.99001	-24.74695	0.1415	-110.63046
2010	0.14145	-111.0604	0.9900	-25.03183	0.9900	-25.03183	0.14145	-111.0604
2030	0.14144	-112.03851	0.98945	-25.47946	0.98945	-25.47946	0.14144	-112.03851
2050	0.14252	-113.03749	0.98889	-25.72683	0.98889	-25.72683	0.14252	-113.03749
2070	0.14362	-113.89396	0.98838	-26.06064	0.98838	-26.06064	0.14362	-113.89396
2090	0.14614	-114.10875	0.99221	-26.1486	0.99221	-26.1486	0.14614	-114.10875
2110	0.14858	-114.33707	0.99265	-26.38559	0.99265	-26.38559	0.14858	-114.33707
2130	0.15015	-114.71526	0.98913	-26.77522	0.98913	-26.77522	0.15015	-114.71526
2150	0.15075	-114.86081	0.98824	-26.92983	0.98824	-26.92983	0.15075	-114.86081
2170	0.15165	-115.04299	0.98622	-27.22697	0.98622	-27.22697	0.15165	-115.04299
2190	0.15169	-115.27637	0.98935	-27.30234	0.98935	-27.30234	0.15169	-115.27637
2210	0.15203	-116.04618	0.99033	-27.50295	0.99033	-27.50295	0.15203	-116.04618
2230	0.1530	-117.26346	0.9876	-27.89607	0.9876	-27.89607	0.1530	-117.26346
2250	0.15412	-118.26502	0.98535	-28.26915	0.98535	-28.26915	0.15412	-118.26502
2270	0.15732	-119.11752	0.98601	-28.55171	0.98601	-28.55171	0.15732	-119.11752
2290	0.16044	-119.84347	0.98684	-28.75888	0.98684	-28.75888	0.16044	-119.84347
2310	0.16349	-120.30689	0.98679	-28.99454	0.98679	-28.99454	0.16349	-120.30689
2330	0.16629	-120.50016	0.98507	-29.2959	0.98507	-29.2959	0.16629	-120.50016
2350	0.16856	-120.54391	0.98111	-29.63347	0.98111	-29.63347	0.16856	-120.54391
2370	0.17014	-120.49151	0.9817	-30.0739	0.9817	-30.0739	0.17014	-120.49151
2390	0.17201	-120.80316	0.98143	-30.24017	0.98143	-30.24017	0.17201	-120.80316
2410	0.17347	-121.28584	0.9818	-30.40438	0.9818	-30.40438	0.17347	-121.28584
2430	0.17503	-121.86303	0.98296	-30.68107	0.98296	-30.68107	0.17503	-121.86303
2450	0.17839	-122.57475	0.98377	-31.02716	0.98377	-31.02716	0.17839	-122.57475
2470	0.18022	-122.8357	0.97611	-31.26849	0.97611	-31.26849	0.18022	-122.8357
2490	0.18375	-123.18727	0.97936	-31.43162	0.97936	-31.43162	0.18375	-123.18727
2510	0.18708	-123.50497	0.98273	-31.6434	0.98273	-31.6434	0.18708	-123.50497
2530	0.18946	-123.56461	0.98207	-31.9007	0.98207	-31.9007	0.18946	-123.56461
2550	0.19127	-123.04226	0.97985	-32.07045	0.97985	-32.07045	0.19127	-123.04226
2570	0.19272	-123.1094	0.98263	-32.42312	0.98263	-32.42312	0.19272	-123.1094
2590	0.19357	-123.26192	0.98016	-32.6985	0.98016	-32.6985	0.19357	-123.26192
2610	0.19309	-123.83925	0.97771	-33.18391	0.97771	-33.18391	0.19309	-123.83925
2630	0.19245	-124.54016	0.97645	-33.60099	0.97645	-33.60099	0.19245	-124.54016
2650	0.19462	-124.42269	0.97349	-33.10572	0.97349	-33.10572	0.19462	-124.42269
2670	0.19751	-125.45741	0.97571	-33.88555	0.97571	-33.88555	0.19751	-125.45741
2690	0.19937	-125.90826	0.97723	-34.02805	0.97723	-34.02805	0.19937	-125.90826
2710	0.20123	-126.15949	0.97702	-34.07983	0.97702	-34.07983	0.20123	-126.15949
2730	0.2035	-126.2498	0.97552	-34.32113	0.97552	-34.32113	0.2035	-126.2498
2750	0.20595	-125.87226	0.97468	-34.76584	0.97468	-34.76584	0.20595	-125.87226
2770	0.20573	-126.46089	0.97492	-35.20819	0.97492	-35.20819	0.20573	-126.46089
2790	0.20648	-126.5361	0.97609	-35.55474	0.97609	-35.55474	0.20648	-126.5361
2810	0.2077	-126.65123	0.97572	-35.79188	0.97572	-35.79188	0.2077	-126.65123
2830	0.20868	-127.08287	0.9742	-35.9559	0.9742	-35.9559	0.20868	-127.08287
2850	0.20853	-127.83086	0.97479	-36.13301	0.97479	-36.13301	0.20853	-127.83086
2870	0.21117	-129.04834	0.97218	-36.59294	0.97218	-36.59294	0.21117	-129.04834
2890	0.21351	-129.64852	0.97147	-36.82239	0.97147	-36.82239	0.21351	-129.64852
2910	0.21692	-129.69232	0.97031	-37.07838	0.97031	-37.07838	0.21692	-129.69232
2930	0.21947	-129.32031	0.96936	-37.371	0.96936	-37.371	0.21947	-129.32031
2950	0.21585	-128.75279	0.97234	-37.46334	0.97234	-37.46334	0.21585	-128.75279
2970	0.22063	-130.00519	0.96896	-37.7521	0.96896	-37.7521	0.22063	-130.00519
2990	0.22178	-130.64973	0.96418	-38.03729	0.96418	-38.03729	0.22178	-130.64973
3010	0.22331	-130.85943	0.96515	-38.22879	0.96515	-38.22879	0.22331	-130.85943
3030	0.22618	-131.2398	0.96941	-38.40603	0.96941	-38.40603	0.22618	-131.2398
3050	0.22841	-132.82882	0.96487	-38.81801	0.96487	-38.81801	0.22841	-132.82882
3070	0.22957	-133.13263	0.96576	-39.28285	0.96576	-39.28285	0.22957	-133.13263
3090	0.23373	-133.10594	0.96652	-39.44611	0.96652	-39.44611	0.23373	-133.10594
3110	0.23821	-133.12797	0.96679	-39.64549	0.96679	-39.64549	0.23821	-133.12797
3130	0.2412	-133.20421	0.96556	-39.9258	0.96556	-39.9258	0.2412	-133.20421
3150	0.24172	-132.96637	0.9612	-40.03895	0.9612	-40.03895	0.24172	-132.96637
3170	0.2429	-133.06981	0.96789	-40.44689	0.96789	-40.44689	0.2429	-133.06981
3190	0.24508	-133.05155	0.96599	-40.71223	0.96599	-40.71223	0.24508	-133.05155
3210	0.24606	-133.06216	0.96444	-40.97155	0.96444	-40.97155	0.24606	-133.06216
3230	0.24601	-133.41583	0.96465	-41.26609	0.96465	-41.26609	0.24601	-133.41583
3250	0.24748	-134.59032	0.96053	-41.54178	0.96053	-41.54178	0.24748	-134.59032
3270	0.24992	-135.29511	0.96155	-41.74527	0.96155	-41.74527	0.24992	-135.29511
3290	0.25293	-135.43773	0.96039	-42.057	0.96039	-42.057	0.25293	-135.43773
3310	0.25672	-135.61821	0.95919	-42.42119	0.95919	-42.42119	0.25672	-135.61821
3330	0.26033	-135.95922	0.9596	-42.74348	0.9596	-42.74348	0.26033	-135.95922
3350	0.26159	-136.10607	0.96282	-42.89098	0.96282	-42.89098	0.26159	-136.10607
3370	0.26279	-135.98446	0.95906	-43.07481	0.95906	-43.07481	0.26279	-135.98446
3390	0.2638	-135.93322	0.95769	-43.35869	0.95769	-43.35869	0.2638	-135.93322
3410	0.26606	-136.25563	0.95953	-43.63979	0.95953	-43.63979	0.26606	-136.25563
3430	0.26844	-136.89071	0.96066	-43.9721	0.96066	-43.9721	0.26844	-136.89071
3450	0.26727	-137.41319	0.9524	-44.5664	0.9524	-44.5664	0.26727	-137.41319
3470	0.27047	-137.38654	0.95857	-44.53107	0.95857	-44.53107	0.27047	-137.38654
3490	0.27264	-137.71401	0.95703	-44.70325	0.95703	-44.70325	0.27264	-137.71401
3510	0.27475	-138.11852	0.95502	-45.11494	0.95502	-45.11494	0.27475	-138.11852
3530	0.27703	-138.37262	0.9544	-45.5246	0.9544	-45.5246	0.27703	-138.37262
3550	0.27903	-138.29855	0.9516	-45.41707	0.9516	-45.41707	0.27903	-138.29855
3570	0.28091	-138.38735	0.9546	-45.84339	0.9546	-45.84339	0.28091	-138.38735
3590	0.28286	-138.48207	0.95679	-46.20576	0.95679	-46.20576	0.28286	-138.48207
3610	0.28528	-138.6749	0.95584	-46.44859	0.95584	-46.44859	0.28528	-138.6749
3630	0.28783	-139.00791	0.95287	-46.67285	0.95287	-46.67285	0.28783	-139.00791
3650	0.28942	-139.47308	0.95241	-47.13599	0.95241	-47.13599	0.28942	-139.47308
3670	0.28953	-139.49192	0.94957	-47.38651	0.94957	-47.38651	0.28953	-139.49192
3690	0.29264	-139.68307	0.95099	-47.43509	0.95099	-47.43509	0.29264	-139.68307
3710	0.29499	-139.96477	0.95109	-47.71811	0.95109	-47.71811	0.29499	-139.96477
3730	0.29573	-140.25952	0.94882	-48.17494	0.94882	-48.17494	0.29573	-140.25952
3750	0.29695	-140.49412	0.94764	-48.24786	0.94764	-48.24786	0.29695	-140.49412
3770	0.29926	-140.36219	0.95479	-48.57785	0.95479	-48.57785	0.29926	-140.36219
3790	0.30002	-140.56677	0.95088	-48.86294	0.95088	-48.86294	0.30002	-140.56677
3810	0.30074	-141.04268	0.9466	-49.1736	0.9466	-49.1736	0.30074	-141.04268
3830	0.3019	-141.48512	0.94594	-49.48727	0.94594	-49.48727	0.3019	-141.48512
3850	0.30292	-141.34966	0.94622	-49.68833	0.94622	-49.68833	0.30292	-141.34966
3870	0.30614	-141.81646	0.94777	-50.10681	0.94777	-50.10681	0.30614	-141.81646
3890	0.30807	-142.14615	0.94555	-50.28748	0.94555	-50.28748	0.30807	-142.14615
3910	0.30977	-142.51839	0.94355	-50.5604	0.94355	-50.5604	0.30977	-142.51839
3930	0.31144	-142.85581	0.94331	-50.90254	0.94331	-50.90254	0.31144	-142.85581
3950	0.31244	-142.82398	0.94391	-50.93777	0.94391	-50.93777	0.31244	-142.82398
3970	0.31709	-142.81878	0.94523	-51.23245	0.94523	-51.23245	0.31709	-142.81878
3990	0.31844	-143.04457	0.94174	-51.57114	0.94174	-51.57114	0.31844	-143.04457
4010	0.31924	-143.48761	0.9388	-51.86013	0.9388	-51.86013	0.31924	-143.48761
4030	0.32083	-143.97659	0.93785	-52.13282	0.93785	-52.13282	0.32083	-143.97659
4050	0.32311	-144.1827	0.9365	-52.5498	0.9365	-52.5498	0.32311	-144.1827
4070	0.32514	-144.33125	0.93566	-52.86391	0.93566	-52.86391	0.32514	-144.33125
4090	0.32745	-144.79751	0.93629	-52.9921	0.93629	-52.9921	0.32745	-144.79751
4110	0.32893	-145.18922	0.9374	-53.18122	0.9374	-53.18122	0.32893	-145.18922
4130	0.33058	-145.39959	0.93778	-53.53465	0.93778	-53.53465	0.33058	-145.39959
4150	0.33545	-145.60732	0.93592	-54.01232	0.93592	-54.01232	0.33545	-145.60732
4170	0.33812	-145.94495	0.93263	-54.13254	0.93263	-54.13254	0.33812	-145.94495
4190	0.34109	-146.15949	0.93218	-54.28868	0.93218	-54.28868	0.34109	-146.15949
4210	0.34436	-146.25019	0.93236	-54.73205	0.93236	-54.73205	0.34436	-146.25019
4230	0.3477	-146.14406	0.93259	-55.23392	0.93259	-55.23392	0.3477	-146.14406
4250	0.35061	-145.6958	0.93394	-55.08544	0.93394	-55.08544	0.35061	-145.6958
4270	0.3521	-145.91028	0.93126	-55.59893	0.93126	-55.59893	0.3521	-145.91028
4290	0.35304	-145.99492	0.93061	-55.78641	0.93061	-55.78641	0.35304	-145.99492
4310	0.35281	-146.15208	0.92907	-56.05839	0.92907	-56.05839	0.35281	-146.15208
4330	0.35254	-146.34005	0.92661	-56.44278	0.92661	-56.44278	0.35254	-146.34005
4350	0.35517	-146.27307	0.92605	-56.58486	0.92605	-56.58486	0.35517	-146.27307
4370	0.35964	-146.81878	0.92681	-56.9655	0.92681	-56.9655	0.35964	-146.81878
4390	0.36191	-147.07108	0.92498	-57.36951	0.92498	-57.36951	0.36191	-147.07108
4410	0.36341	-147.17116	0.92457	-57.73925	0.92457	-57.73925	0.36341	-147.17116
4430	0.3654	-147.13722	0.92617	-58.00185	0.92617	-58.00185	0.3654	-147.13722
4450	0.36903	-146.8645	0.9269	-58.0692	0.9269	-58.0692	0.36903	-146.8645
4470	0.36958	-147.08197	0.92474	-58.65387	0.92474	-58.65387	0.36958	-147.08197
4490	0.36834	-147.22575	0.92298	-58.74743	0.92298	-58.74743	0.36834	-147.22575
4510	0.36708	-147.54034	0.92298	-58.88864	0.92298	-58.88864	0.36708	-147.54034
4530	0.36779	-148.10737	0.9238	-59.24219	0.9238	-59.24219	0.36779	-148.10737
4550	0.37269	-148.84555	0.92225	-59.59876	0.92225	-59.59876	0.37269	-148.84555
4570	0.37252	-149.25444	0.91451	-59.8128	0.91451	-59.8128	0.37252	-149.25444
4590	0.37644	-149.23181	0.91848	-60.05784	0.91848	-60.05784	0.37644	-149.23181
4610	0.38075	-149.21882	0.92292	-60.36805	0.92292	-60.36805	0.38075	-149.21882
4630	0.38349	-149.36144	0.9207	-60.72931	0.9207	-60.72931	0.38349	-149.36144
4650	0.38446	-149.51047	0.90877	-61.0792	0.90877	-61.0792	0.38446	-149.51047
4670	0.38392	-149.35299	0.91705	-61.159	0.91705	-61.159	0.38392	-149.35299
4690	0.3832	-149.21629	0.91562	-61.40267	0.91562	-61.40267	0.3832	-149.21629
4710	0.38448	-149.66081	0.91269	-61.81756	0.91269	-61.81756	0.38448	-149.66081
4730	0.38712	-150.55592	0.91198	-62.19879	0.91198	-62.19879	0.38712	-150.55592
4750	0.3876	-151.07991	0.91276	-62.12922	0.91276	-62.12922	0.3876	-151.07991
4770	0.39167	-151.3913	0.9110	-62.48882	0.9110	-62.48882	0.39167	-151.3913
4790	0.3959	-151.76804	0.91274	-62.96518	0.91274	-62.96518	0.3959	-151.76804
4810	0.40028	-151.86924	0.91054	-63.38785	0.91054	-63.38785	0.40028	-151.86924
4830	0.40371	-151.65734	0.90612	-63.66729	0.90612	-63.66729	0.40371	-151.65734
4850	0.40397	-151.39818	0.91037	-63.79485	0.91037	-63.79485	0.40397	-151.39818
4870	0.4016	-151.7014	0.90571	-64.26011	0.90571	-64.26011	0.4016	-151.7014
4890	0.40204	-152.10077	0.90521	-64.43531	0.90521	-64.43531	0.40204	-152.10077
4910	0.4052	-152.54968	0.90491	-64.7309	0.90491	-64.7309	0.4052	-152.54968
4930	0.40963	-152.99976	0.90444	-65.09077	0.90444	-65.09077	0.40963	-152.99976
4950	0.41249	-153.40083	0.90699	-64.99219	0.90699	-64.99219	0.41249	-153.40083
4970	0.41402	-153.27264	0.90078	-65.41083	0.90078	-65.41083	0.41402	-153.27264
4990	0.42158	-153.52227	0.90222	-65.95523	0.90222	-65.95523	0.42158	-153.52227
5010	0.42564	-153.73189	0.90151	-66.38046	0.90151	-66.38046	0.42564	-153.73189
5030	0.42502	-153.67012	0.89738	-66.51904	0.89738	-66.51904	0.42502	-153.67012
5050	0.42682	-153.29205	0.8972	-66.2809	0.8972	-66.2809	0.42682	-153.29205
5070	0.42653	-153.35649	0.90045	-67.00484	0.90045	-67.00484	0.42653	-153.35649
